<!DOCTYPE HTML PUBLIC "-//W3C//DTD HTML 4.01 Transitional//EN">
<HTML>
 <HEAD>
   <TITLE> [Openocd-development]  experimental SWD code for the git master
   </TITLE>
   <LINK REL="Index" HREF="http://lists.berlios.de/pipermail/openocd-development/2010-June/index.html" >
   <LINK REL="made" HREF="mailto:openocd-development%40lists.berlios.de?Subject=Re%3A%20%5BOpenocd-development%5D%20%20experimental%20SWD%20code%20for%20the%20git%20master&In-Reply-To=%3CAANLkTik09pSQvGlf8qnJ3hWk8DzwECIN609tXmIAkZVu%40mail.gmail.com%3E">
   <META NAME="robots" CONTENT="index,nofollow">
   <style type="text/css">
       pre {
           white-space: pre-wrap;       /* css-2.1, curent FF, Opera, Safari */
           }
   </style>
   <META http-equiv="Content-Type" content="text/html; charset=us-ascii">
   <LINK REL="Previous"  HREF="015804.html">
   <LINK REL="Next"  HREF="015814.html">
 </HEAD>
 <BODY BGCOLOR="#ffffff">
   <H1>[Openocd-development]  experimental SWD code for the git master</H1>
    <B>simon qian</B> 
    <A HREF="mailto:openocd-development%40lists.berlios.de?Subject=Re%3A%20%5BOpenocd-development%5D%20%20experimental%20SWD%20code%20for%20the%20git%20master&In-Reply-To=%3CAANLkTik09pSQvGlf8qnJ3hWk8DzwECIN609tXmIAkZVu%40mail.gmail.com%3E"
       TITLE="[Openocd-development]  experimental SWD code for the git master">simonqian.openocd at gmail.com
       </A><BR>
    <I>Fri Jun  4 12:57:01 CEST 2010</I>
    <P><UL>
        <LI>Previous message: <A HREF="015804.html">[Openocd-development] ./configure --enable-maintainer-mode	LIBS=-lfoo-1.0 not working?
</A></li>
        <LI>Next message: <A HREF="015814.html">[Openocd-development] experimental SWD code for the git master
</A></li>
         <LI> <B>Messages sorted by:</B> 
              <a href="date.html#15813">[ date ]</a>
              <a href="thread.html#15813">[ thread ]</a>
              <a href="subject.html#15813">[ subject ]</a>
              <a href="author.html#15813">[ author ]</a>
         </LI>
       </UL>
    <HR>  
<!--beginarticle-->
<PRE>Hi all,
Like what I did for 0.3.1, this experimental code is very urgly for SWD
support.
And it's only used for test purpose.
I test it OK on STM32 and LPC1700.
Attached also is the -d3 output when operating STM32 and LPC1700.
People can compare it with output when using JTAG.
Hope it can be helpful for SWD support in OpenOCD.

-- 
Best Regards, SimonQian
<A HREF="http://www.SimonQian.com">http://www.SimonQian.com</A>
-------------- next part --------------
An HTML attachment was scrubbed...
URL: &lt;<A HREF="https://lists.berlios.de/pipermail/openocd-development/attachments/20100604/b207a163/attachment.html">https://lists.berlios.de/pipermail/openocd-development/attachments/20100604/b207a163/attachment.html</A>&gt;
-------------- next part --------------
Debug: 14 16 configuration.c:45 add_script_search_dir(): adding C:\msys\1.0\local\bin\..
Debug: 15 16 configuration.c:45 add_script_search_dir(): adding C:/msys/1.0/local/bin/../share/openocd/scripts
Debug: 16 16 configuration.c:87 find_file(): found test_stm32.cfg
Debug: 17 16 command.c:133 script_debug(): command - ocd_command ocd_command type ocd_interface vsllink
Debug: 18 16 command.c:133 script_debug(): command - interface ocd_interface vsllink
Debug: 20 16 command.c:350 register_command_handler(): registering 'ocd_vsllink_usb_vid'...
Debug: 21 16 command.c:350 register_command_handler(): registering 'ocd_vsllink_usb_pid'...
Debug: 22 16 command.c:350 register_command_handler(): registering 'ocd_vsllink_usb_bulkin'...
Debug: 23 16 command.c:350 register_command_handler(): registering 'ocd_vsllink_usb_bulkout'...
Debug: 24 16 command.c:350 register_command_handler(): registering 'ocd_vsllink_usb_interface'...
Debug: 25 16 command.c:350 register_command_handler(): registering 'ocd_vsllink_mode'...
Debug: 26 16 command.c:133 script_debug(): command - ocd_command ocd_command type ocd_vsllink_usb_vid 0x0483
Debug: 27 16 command.c:133 script_debug(): command - vsllink_usb_vid ocd_vsllink_usb_vid 0x0483
Debug: 29 16 command.c:133 script_debug(): command - ocd_command ocd_command type ocd_vsllink_usb_pid 0x5740
Debug: 30 16 command.c:133 script_debug(): command - vsllink_usb_pid ocd_vsllink_usb_pid 0x5740
Debug: 32 16 command.c:133 script_debug(): command - ocd_command ocd_command type ocd_vsllink_usb_bulkin 0x02
Debug: 33 16 command.c:133 script_debug(): command - vsllink_usb_bulkin ocd_vsllink_usb_bulkin 0x02
Debug: 35 16 command.c:133 script_debug(): command - ocd_command ocd_command type ocd_vsllink_usb_bulkout 0x03
Debug: 36 16 command.c:133 script_debug(): command - vsllink_usb_bulkout ocd_vsllink_usb_bulkout 0x03
Debug: 38 16 command.c:133 script_debug(): command - ocd_command ocd_command type ocd_vsllink_usb_interface 1
Debug: 39 16 command.c:133 script_debug(): command - vsllink_usb_interface ocd_vsllink_usb_interface 1
Debug: 41 16 command.c:133 script_debug(): command - ocd_command ocd_command type ocd_swd_mode 2
Debug: 42 16 command.c:133 script_debug(): command - swd_mode ocd_swd_mode 2
Info : 44 16 tcl.c:953 handle_swd_mode_command(): OpenOCD runs in SWD mode
Debug: 45 16 command.c:133 script_debug(): command - ocd_command ocd_command type ocd_adapter_khz 1000
Debug: 46 16 command.c:133 script_debug(): command - adapter_khz ocd_adapter_khz 1000
Debug: 48 16 core.c:1584 jtag_config_khz(): handle jtag khz
Debug: 49 16 core.c:1547 adapter_khz_to_speed(): convert khz to interface specific speed value
User : 50 16 command.c:543 command_print(): 1000 kHz
Debug: 51 16 command.c:133 script_debug(): command - ocd_command ocd_command type ocd_adapter_nsrst_delay 100
Debug: 52 16 command.c:133 script_debug(): command - adapter_nsrst_delay ocd_adapter_nsrst_delay 100
User : 54 16 command.c:543 command_print(): adapter_nsrst_delay: 100
Debug: 55 16 command.c:133 script_debug(): command - ocd_command ocd_command type ocd_jtag_ntrst_delay 100
Debug: 56 16 command.c:133 script_debug(): command - jtag_ntrst_delay ocd_jtag_ntrst_delay 100
User : 58 16 command.c:543 command_print(): jtag_ntrst_delay: 100
Debug: 59 16 command.c:133 script_debug(): command - ocd_command ocd_command type ocd_jtag newtap stm32 cpu -irlen 4 -ircapture 0x1 -irmask 0xf -expected-id 0x3ba00477
Debug: 60 16 command.c:133 script_debug(): command - ocd_jtag ocd_jtag newtap stm32 cpu -irlen 4 -ircapture 0x1 -irmask 0xf -expected-id 0x3ba00477
Debug: 61 16 tcl.c:573 jim_newtap_cmd(): Creating New Tap, Chip: stm32, Tap: cpu, Dotted: stm32.cpu, 8 params
Debug: 62 16 tcl.c:590 jim_newtap_cmd(): Processing option: -irlen
Debug: 63 16 tcl.c:590 jim_newtap_cmd(): Processing option: -ircapture
Debug: 64 16 tcl.c:590 jim_newtap_cmd(): Processing option: -irmask
Debug: 65 16 tcl.c:590 jim_newtap_cmd(): Processing option: -expected-id
Debug: 66 16 core.c:1313 jtag_tap_init(): Created Tap: stm32.cpu @ abs position 0, irlen 4, capture: 0x1 mask: 0xf
Debug: 67 31 command.c:133 script_debug(): command - ocd_command ocd_command type ocd_jtag newtap stm32 bs -irlen 5 -expected-id 0x06412041 -expected-id 0x06410041 -expected-id 0x16410041 -expected-id 0x06414041 -expected-id 0x06418041
Debug: 68 31 command.c:133 script_debug(): command - ocd_jtag ocd_jtag newtap stm32 bs -irlen 5 -expected-id 0x06412041 -expected-id 0x06410041 -expected-id 0x16410041 -expected-id 0x06414041 -expected-id 0x06418041
Debug: 69 31 tcl.c:573 jim_newtap_cmd(): Creating New Tap, Chip: stm32, Tap: bs, Dotted: stm32.bs, 12 params
Debug: 70 31 tcl.c:590 jim_newtap_cmd(): Processing option: -irlen
Debug: 71 31 tcl.c:590 jim_newtap_cmd(): Processing option: -expected-id
Debug: 72 31 tcl.c:590 jim_newtap_cmd(): Processing option: -expected-id
Debug: 73 31 tcl.c:590 jim_newtap_cmd(): Processing option: -expected-id
Debug: 74 31 tcl.c:590 jim_newtap_cmd(): Processing option: -expected-id
Debug: 75 31 tcl.c:590 jim_newtap_cmd(): Processing option: -expected-id
Debug: 76 31 core.c:1313 jtag_tap_init(): Created Tap: stm32.bs @ abs position 0, irlen 5, capture: 0x1 mask: 0x3
Debug: 77 31 command.c:133 script_debug(): command - ocd_command ocd_command type ocd_target create stm32.cpu cortex_m3 -endian little -chain-position stm32.cpu
Debug: 78 31 command.c:133 script_debug(): command - ocd_target ocd_target create stm32.cpu cortex_m3 -endian little -chain-position stm32.cpu
Debug: 79 31 command.c:350 register_command_handler(): registering 'ocd_arm'...
Debug: 80 31 command.c:350 register_command_handler(): registering 'ocd_arm'...
Debug: 81 31 command.c:350 register_command_handler(): registering 'ocd_arm'...
Debug: 82 31 command.c:350 register_command_handler(): registering 'ocd_arm'...
Debug: 83 31 command.c:350 register_command_handler(): registering 'ocd_arm'...
Debug: 84 31 command.c:350 register_command_handler(): registering 'ocd_arm'...
Debug: 85 31 command.c:350 register_command_handler(): registering 'ocd_dap'...
Debug: 86 31 command.c:350 register_command_handler(): registering 'ocd_dap'...
Debug: 87 31 command.c:350 register_command_handler(): registering 'ocd_dap'...
Debug: 88 31 command.c:350 register_command_handler(): registering 'ocd_dap'...
Debug: 89 31 command.c:350 register_command_handler(): registering 'ocd_dap'...
Debug: 90 31 command.c:350 register_command_handler(): registering 'ocd_cortex_m3'...
Debug: 91 31 command.c:350 register_command_handler(): registering 'ocd_cortex_m3'...
Debug: 92 31 command.c:350 register_command_handler(): registering 'ocd_stm32.cpu'...
Debug: 93 31 command.c:350 register_command_handler(): registering 'ocd_stm32.cpu'...
Debug: 94 31 command.c:350 register_command_handler(): registering 'ocd_stm32.cpu'...
Debug: 95 31 command.c:350 register_command_handler(): registering 'ocd_stm32.cpu'...
Debug: 96 31 command.c:350 register_command_handler(): registering 'ocd_stm32.cpu'...
Debug: 97 31 command.c:350 register_command_handler(): registering 'ocd_stm32.cpu'...
Debug: 98 31 command.c:350 register_command_handler(): registering 'ocd_stm32.cpu'...
Debug: 99 31 command.c:350 register_command_handler(): registering 'ocd_stm32.cpu'...
Debug: 100 31 command.c:350 register_command_handler(): registering 'ocd_stm32.cpu'...
Debug: 101 31 command.c:350 register_command_handler(): registering 'ocd_stm32.cpu'...
Debug: 102 31 command.c:350 register_command_handler(): registering 'ocd_stm32.cpu'...
Debug: 103 31 command.c:350 register_command_handler(): registering 'ocd_stm32.cpu'...
Debug: 104 31 command.c:350 register_command_handler(): registering 'ocd_stm32.cpu'...
Debug: 105 31 command.c:350 register_command_handler(): registering 'ocd_stm32.cpu'...
Debug: 106 31 command.c:350 register_command_handler(): registering 'ocd_stm32.cpu'...
Debug: 107 31 command.c:350 register_command_handler(): registering 'ocd_stm32.cpu'...
Debug: 108 31 command.c:350 register_command_handler(): registering 'ocd_stm32.cpu'...
Debug: 109 31 command.c:350 register_command_handler(): registering 'ocd_stm32.cpu'...
Debug: 110 31 command.c:350 register_command_handler(): registering 'ocd_stm32.cpu'...
Debug: 111 31 command.c:350 register_command_handler(): registering 'ocd_stm32.cpu'...
Debug: 112 31 command.c:350 register_command_handler(): registering 'ocd_stm32.cpu'...
Debug: 113 31 command.c:350 register_command_handler(): registering 'ocd_stm32.cpu'...
Debug: 114 31 command.c:350 register_command_handler(): registering 'ocd_stm32.cpu'...
Debug: 115 31 command.c:350 register_command_handler(): registering 'ocd_stm32.cpu'...
Debug: 116 31 command.c:350 register_command_handler(): registering 'ocd_stm32.cpu'...
Debug: 117 31 command.c:350 register_command_handler(): registering 'ocd_stm32.cpu'...
Debug: 118 31 command.c:350 register_command_handler(): registering 'ocd_stm32.cpu'...
Debug: 119 31 command.c:350 register_command_handler(): registering 'ocd_stm32.cpu'...
Debug: 120 31 command.c:350 register_command_handler(): registering 'ocd_stm32.cpu'...
Debug: 121 31 command.c:350 register_command_handler(): registering 'ocd_stm32.cpu'...
Debug: 122 31 command.c:350 register_command_handler(): registering 'ocd_stm32.cpu'...
Debug: 123 31 command.c:350 register_command_handler(): registering 'ocd_stm32.cpu'...
Debug: 124 31 command.c:350 register_command_handler(): registering 'ocd_stm32.cpu'...
Debug: 125 31 command.c:350 register_command_handler(): registering 'ocd_stm32.cpu'...
Debug: 126 31 command.c:350 register_command_handler(): registering 'ocd_stm32.cpu'...
Debug: 127 31 command.c:133 script_debug(): command - ocd_command ocd_command type ocd_stm32.cpu configure -work-area-phys 0x20000000 -work-area-size 0x4000 -work-area-backup 0
Debug: 128 31 command.c:133 script_debug(): command - ocd_stm32.cpu ocd_stm32.cpu configure -work-area-phys 0x20000000 -work-area-size 0x4000 -work-area-backup 0
Debug: 129 31 command.c:133 script_debug(): command - ocd_command ocd_command type ocd_flash bank stm32.flash stm32x 0 0 0 0 stm32.cpu
Debug: 130 31 command.c:133 script_debug(): command - ocd_flash ocd_flash bank stm32.flash stm32x 0 0 0 0 stm32.cpu
Debug: 132 31 command.c:350 register_command_handler(): registering 'ocd_stm32x'...
Debug: 133 31 command.c:350 register_command_handler(): registering 'ocd_stm32x'...
Debug: 134 31 command.c:350 register_command_handler(): registering 'ocd_stm32x'...
Debug: 135 31 command.c:350 register_command_handler(): registering 'ocd_stm32x'...
Debug: 136 31 command.c:350 register_command_handler(): registering 'ocd_stm32x'...
Debug: 137 31 command.c:133 script_debug(): command - ocd_command ocd_command type ocd_telnet_port 4444
Debug: 138 31 command.c:133 script_debug(): command - telnet_port ocd_telnet_port 4444
Debug: 140 31 command.c:133 script_debug(): command - ocd_command ocd_command type ocd_gdb_port 3333
Debug: 141 31 command.c:133 script_debug(): command - gdb_port ocd_gdb_port 3333
Debug: 143 31 command.c:133 script_debug(): command - ocd_command ocd_command type ocd_tcl_port 6666
Debug: 144 31 command.c:133 script_debug(): command - tcl_port ocd_tcl_port 6666
Debug: 146 31 command.c:133 script_debug(): command - ocd_command ocd_command type ocd_init
Debug: 147 31 command.c:133 script_debug(): command - init ocd_init
Debug: 149 31 command.c:133 script_debug(): command - ocd_command ocd_command type ocd_target init
Debug: 150 31 command.c:133 script_debug(): command - ocd_target ocd_target init
Debug: 152 31 target.c:885 handle_target_init_command(): Initializing targets...
Debug: 153 31 command.c:350 register_command_handler(): registering 'ocd_target_request'...
Debug: 154 31 command.c:350 register_command_handler(): registering 'ocd_trace'...
Debug: 155 31 command.c:350 register_command_handler(): registering 'ocd_trace'...
Debug: 156 31 command.c:350 register_command_handler(): registering 'ocd_fast_load_image'...
Debug: 157 31 command.c:350 register_command_handler(): registering 'ocd_fast_load'...
Debug: 158 31 command.c:350 register_command_handler(): registering 'ocd_profile'...
Debug: 159 31 command.c:350 register_command_handler(): registering 'ocd_virt2phys'...
Debug: 160 31 command.c:350 register_command_handler(): registering 'ocd_reg'...
Debug: 161 31 command.c:350 register_command_handler(): registering 'ocd_poll'...
Debug: 162 31 command.c:350 register_command_handler(): registering 'ocd_wait_halt'...
Debug: 163 31 command.c:350 register_command_handler(): registering 'ocd_halt'...
Debug: 164 31 command.c:350 register_command_handler(): registering 'ocd_resume'...
Debug: 165 31 command.c:350 register_command_handler(): registering 'ocd_reset'...
Debug: 166 31 command.c:350 register_command_handler(): registering 'ocd_soft_reset_halt'...
Debug: 167 31 command.c:350 register_command_handler(): registering 'ocd_step'...
Debug: 168 31 command.c:350 register_command_handler(): registering 'ocd_mdw'...
Debug: 169 31 command.c:350 register_command_handler(): registering 'ocd_mdh'...
Debug: 170 31 command.c:350 register_command_handler(): registering 'ocd_mdb'...
Debug: 171 31 command.c:350 register_command_handler(): registering 'ocd_mww'...
Debug: 172 31 command.c:350 register_command_handler(): registering 'ocd_mwh'...
Debug: 173 31 command.c:350 register_command_handler(): registering 'ocd_mwb'...
Debug: 174 31 command.c:350 register_command_handler(): registering 'ocd_bp'...
Debug: 175 31 command.c:350 register_command_handler(): registering 'ocd_rbp'...
Debug: 176 31 command.c:350 register_command_handler(): registering 'ocd_wp'...
Debug: 177 31 command.c:350 register_command_handler(): registering 'ocd_rwp'...
Debug: 178 31 command.c:350 register_command_handler(): registering 'ocd_load_image'...
Debug: 179 31 command.c:350 register_command_handler(): registering 'ocd_dump_image'...
Debug: 180 31 command.c:350 register_command_handler(): registering 'ocd_verify_image'...
Debug: 181 31 command.c:350 register_command_handler(): registering 'ocd_test_image'...
Debug: 182 31 command.c:350 register_command_handler(): registering 'ocd_reset_nag'...
Debug: 183 63 vsllink.c:395 vsllink_init(): vsllink found on 0483:5740
Info : 184 63 vsllink.c:415 vsllink_init(): Versaloon(0x15)by Simon(compiled on May 25 2010)
Info : 185 63 vsllink.c:432 vsllink_init(): buffer size for USB is 12288 bytes
Info : 186 78 vsllink.c:465 vsllink_init(): Target runs at 204 mV
Info : 187 78 vsllink.c:474 vsllink_init(): VSLLink_20080905 by Simon(compiled on May 25 2010)
Debug: 188 78 vsllink.c:723 vsllink_reset(): trst: 0, srst: 0
Info : 189 78 vsllink.c:489 vsllink_init(): VSLLink Interface ready
Debug: 190 78 core.c:1547 adapter_khz_to_speed(): convert khz to interface specific speed value
Debug: 191 78 core.c:1551 adapter_khz_to_speed(): have interface set up
Info : 192 78 core.c:1369 adapter_init(): clock speed 1000 kHz
Debug: 193 78 openocd.c:123 handle_init_command(): Debug Adapter init complete
Debug: 194 78 command.c:133 script_debug(): command - ocd_command ocd_command type ocd_jtag init
Debug: 195 78 command.c:133 script_debug(): command - ocd_jtag ocd_jtag init
Debug: 197 78 tcl.c:844 handle_jtag_init_command(): Initializing jtag devices...
Debug: 198 78 vsllink.c:723 vsllink_reset(): trst: 0, srst: 0
Debug: 199 78 core.c:705 jtag_add_reset(): SRST line released
Debug: 200 78 core.c:729 jtag_add_reset(): TRST line released
Debug: 201 78 core.c:321 jtag_call_event_callbacks(): jtag event: TAP reset
Debug: 202 297 command.c:133 script_debug(): command - ocd_command ocd_command type ocd_jtag arp_init
Debug: 203 297 command.c:133 script_debug(): command - ocd_jtag ocd_jtag arp_init
Debug: 204 297 openocd.c:133 handle_init_command(): Examining targets...
Debug: 205 297 arm_adi_v5.c:908 ahbap_debugport_init():  
Debug: 206 297 driver.c:553 interface_swd_add_sequence():  
Debug: 207 297 driver.c:612 interface_swd_add_transact_in():  0xA5
Debug: 208 297 arm_adi_v5.c:930 ahbap_debugport_init(): swd_id is 0x1BA01477
Debug: 209 297 driver.c:612 interface_swd_add_transact_in():  0x8D
Debug: 210 297 driver.c:582 interface_swd_add_transact_out():  0x81, 0x0000001D
Debug: 211 297 driver.c:612 interface_swd_add_transact_in():  0x8D
Debug: 212 297 driver.c:582 interface_swd_add_transact_out():  0xA9, 0x50000000
Debug: 213 297 driver.c:612 interface_swd_add_transact_in():  0x8D
Debug: 214 297 driver.c:612 interface_swd_add_transact_in():  0x8D
Debug: 215 313 driver.c:612 interface_swd_add_transact_in():  0x8D
Debug: 216 313 driver.c:612 interface_swd_add_transact_in():  0x8D
Debug: 217 313 driver.c:612 interface_swd_add_transact_in():  0x8D
Debug: 218 313 driver.c:582 interface_swd_add_transact_out():  0xA9, 0x50000001
Debug: 219 313 driver.c:612 interface_swd_add_transact_in():  0x8D
Debug: 220 313 driver.c:582 interface_swd_add_transact_out():  0xB1, 0x000000F0
Debug: 221 313 driver.c:612 interface_swd_add_transact_in():  0x9F
Debug: 222 313 driver.c:612 interface_swd_add_transact_in():  0xBD
Debug: 223 313 driver.c:612 interface_swd_add_transact_in():  0xB7
Debug: 224 313 driver.c:612 interface_swd_add_transact_in():  0xBD
Debug: 225 313 driver.c:612 interface_swd_add_transact_in():  0x8D
Debug: 226 328 arm_adi_v5.c:1014 ahbap_debugport_init(): MEM-AP #0 ID Register 0x14770011, Debug ROM Address 0xe00ff003
Debug: 227 328 driver.c:582 interface_swd_add_transact_out():  0xB1, 0x00000000
Debug: 228 328 driver.c:582 interface_swd_add_transact_out():  0xA3, 0xA2000012
Debug: 229 328 driver.c:582 interface_swd_add_transact_out():  0x8B, 0xE000ED00
Debug: 230 328 driver.c:612 interface_swd_add_transact_in():  0x9F
Debug: 231 328 driver.c:612 interface_swd_add_transact_in():  0xBD
Debug: 232 328 driver.c:612 interface_swd_add_transact_in():  0x8D
Debug: 233 328 target.c:1549 target_read_u32(): address: 0xe000ed00, value: 0x411fc231
Debug: 234 328 cortex_m3.c:1743 cortex_m3_examine(): Cortex-M3 r1p1 processor detected
Debug: 235 328 cortex_m3.c:1744 cortex_m3_examine(): cpuid: 0x411fc231
Debug: 236 328 driver.c:582 interface_swd_add_transact_out():  0x8B, 0xE0002000
Debug: 237 328 driver.c:612 interface_swd_add_transact_in():  0x9F
Debug: 238 328 driver.c:612 interface_swd_add_transact_in():  0xBD
Debug: 239 328 driver.c:612 interface_swd_add_transact_in():  0x8D
Debug: 240 328 target.c:1549 target_read_u32(): address: 0xe0002000, value: 0x00000260
Debug: 241 328 cortex_m3.c:1761 cortex_m3_examine(): FPB fpcr 0x260, numcode 6, numlit 2
Debug: 242 328 driver.c:582 interface_swd_add_transact_out():  0x8B, 0xE0001000
Debug: 243 328 driver.c:612 interface_swd_add_transact_in():  0x9F
Debug: 244 328 driver.c:612 interface_swd_add_transact_in():  0xBD
Debug: 245 328 driver.c:612 interface_swd_add_transact_in():  0x8D
Debug: 246 328 target.c:1549 target_read_u32(): address: 0xe0001000, value: 0x40000000
Debug: 247 328 cortex_m3.c:1713 cortex_m3_dwt_setup(): DWT dwtcr 0x40000000, comp 4, watch/trigger
Info : 248 328 cortex_m3.c:1770 cortex_m3_examine(): stm32.cpu: hardware has 6 breakpoints, 4 watchpoints
Debug: 249 328 command.c:133 script_debug(): command - ocd_command ocd_command type ocd_flash init
Debug: 250 328 command.c:133 script_debug(): command - ocd_flash ocd_flash init
Debug: 251 328 driver.c:582 interface_swd_add_transact_out():  0xA3, 0xA2000002
Debug: 252 328 driver.c:582 interface_swd_add_transact_out():  0x8B, 0xE000EDF0
Debug: 253 328 driver.c:582 interface_swd_add_transact_out():  0xB1, 0x00000010
Debug: 254 328 driver.c:612 interface_swd_add_transact_in():  0x87
Debug: 255 328 driver.c:612 interface_swd_add_transact_in():  0xBD
Debug: 256 328 driver.c:612 interface_swd_add_transact_in():  0x8D
Debug: 257 344 driver.c:612 interface_swd_add_transact_in():  0x87
Debug: 258 344 driver.c:612 interface_swd_add_transact_in():  0xBD
Debug: 259 344 driver.c:612 interface_swd_add_transact_in():  0x8D
Debug: 261 344 tcl.c:911 handle_flash_init_command(): Initializing flash devices...
Debug: 262 344 command.c:350 register_command_handler(): registering 'ocd_flash'...
Debug: 263 344 command.c:350 register_command_handler(): registering 'ocd_flash'...
Debug: 264 344 command.c:350 register_command_handler(): registering 'ocd_flash'...
Debug: 265 344 command.c:350 register_command_handler(): registering 'ocd_flash'...
Debug: 266 344 command.c:350 register_command_handler(): registering 'ocd_flash'...
Debug: 267 344 command.c:350 register_command_handler(): registering 'ocd_flash'...
Debug: 268 344 command.c:350 register_command_handler(): registering 'ocd_flash'...
Debug: 269 344 command.c:350 register_command_handler(): registering 'ocd_flash'...
Debug: 270 344 command.c:350 register_command_handler(): registering 'ocd_flash'...
Debug: 271 344 command.c:350 register_command_handler(): registering 'ocd_flash'...
Debug: 272 344 command.c:350 register_command_handler(): registering 'ocd_flash'...
Debug: 273 344 command.c:133 script_debug(): command - ocd_command ocd_command type ocd_mflash init
Debug: 274 344 command.c:133 script_debug(): command - ocd_mflash ocd_mflash init
Debug: 275 344 driver.c:612 interface_swd_add_transact_in():  0x87
Debug: 276 344 driver.c:612 interface_swd_add_transact_in():  0xBD
Debug: 277 344 driver.c:612 interface_swd_add_transact_in():  0x8D
Debug: 279 344 mflash.c:1325 handle_mflash_init_command(): Initializing mflash devices...
Debug: 280 344 command.c:133 script_debug(): command - ocd_command ocd_command type ocd_nand init
Debug: 281 344 command.c:133 script_debug(): command - ocd_nand ocd_nand init
Debug: 282 344 driver.c:612 interface_swd_add_transact_in():  0x87
Debug: 283 344 driver.c:612 interface_swd_add_transact_in():  0xBD
Debug: 284 344 driver.c:612 interface_swd_add_transact_in():  0x8D
Debug: 286 360 tcl.c:536 handle_nand_init_command(): Initializing NAND devices...
Debug: 287 360 command.c:133 script_debug(): command - ocd_command ocd_command type ocd_pld init
Debug: 288 360 command.c:133 script_debug(): command - ocd_pld ocd_pld init
Debug: 289 360 driver.c:612 interface_swd_add_transact_in():  0x87
Debug: 290 360 driver.c:612 interface_swd_add_transact_in():  0xBD
Debug: 291 360 driver.c:612 interface_swd_add_transact_in():  0x8D
Debug: 293 360 pld.c:232 handle_pld_init_command(): Initializing PLDs...
Debug: 294 360 gdb_server.c:2422 gdb_target_start(): gdb service for target 'stm32.cpu' on TCP port 3333
Debug: 295 360 command.c:133 script_debug(): command - ocd_command ocd_command type ocd_adapter_khz 1300
Debug: 296 360 command.c:133 script_debug(): command - adapter_khz ocd_adapter_khz 1300
Debug: 297 360 driver.c:612 interface_swd_add_transact_in():  0x87
Debug: 298 360 driver.c:612 interface_swd_add_transact_in():  0xBD
Debug: 299 360 driver.c:612 interface_swd_add_transact_in():  0x8D
Debug: 301 375 core.c:1584 jtag_config_khz(): handle jtag khz
Debug: 302 375 core.c:1547 adapter_khz_to_speed(): convert khz to interface specific speed value
Debug: 303 375 core.c:1551 adapter_khz_to_speed(): have interface set up
Debug: 304 375 core.c:1547 adapter_khz_to_speed(): convert khz to interface specific speed value
Debug: 305 375 core.c:1551 adapter_khz_to_speed(): have interface set up
User : 306 375 command.c:543 command_print(): 1300 kHz
Debug: 307 375 command.c:133 script_debug(): command - ocd_command ocd_command type ocd_reset init
Debug: 308 375 command.c:133 script_debug(): command - reset ocd_reset init
Debug: 309 375 driver.c:612 interface_swd_add_transact_in():  0x87
Debug: 310 375 driver.c:612 interface_swd_add_transact_in():  0xBD
Debug: 311 375 driver.c:612 interface_swd_add_transact_in():  0x8D
Debug: 313 375 command.c:133 script_debug(): command - ocd_command ocd_command type ocd_target names
Debug: 314 375 command.c:133 script_debug(): command - ocd_target ocd_target names
Debug: 315 375 command.c:133 script_debug(): command - ocd_command ocd_command type ocd_stm32.cpu invoke-event reset-start
Debug: 316 375 command.c:133 script_debug(): command - ocd_stm32.cpu ocd_stm32.cpu invoke-event reset-start
Debug: 317 375 command.c:133 script_debug(): command - ocd_command ocd_command type ocd_jtag arp_init-reset
Debug: 318 375 command.c:133 script_debug(): command - ocd_jtag ocd_jtag arp_init-reset
Debug: 319 375 core.c:1470 jtag_init_reset(): Initializing with hard TRST+SRST reset
Debug: 320 375 core.c:718 jtag_add_reset(): JTAG reset with TLR instead of TRST
Debug: 321 375 core.c:321 jtag_call_event_callbacks(): jtag event: TAP reset
Debug: 322 375 command.c:133 script_debug(): command - ocd_command ocd_command type ocd_stm32.cpu cget -chain-position
Debug: 323 375 command.c:133 script_debug(): command - ocd_stm32.cpu ocd_stm32.cpu cget -chain-position
Debug: 324 375 command.c:133 script_debug(): command - ocd_command ocd_command type ocd_jtag tapisenabled stm32.cpu
Debug: 325 375 command.c:133 script_debug(): command - ocd_jtag ocd_jtag tapisenabled stm32.cpu
Debug: 326 375 command.c:133 script_debug(): command - ocd_command ocd_command type ocd_stm32.cpu arp_examine
Debug: 327 375 command.c:133 script_debug(): command - ocd_stm32.cpu ocd_stm32.cpu arp_examine
Debug: 328 375 arm_adi_v5.c:908 ahbap_debugport_init():  
Debug: 329 375 driver.c:553 interface_swd_add_sequence():  
Debug: 330 375 driver.c:612 interface_swd_add_transact_in():  0xA5
Debug: 331 375 arm_adi_v5.c:930 ahbap_debugport_init(): swd_id is 0x1BA01477
Debug: 332 375 driver.c:612 interface_swd_add_transact_in():  0x8D
Debug: 333 375 driver.c:582 interface_swd_add_transact_out():  0x81, 0x0000001D
Debug: 334 375 driver.c:612 interface_swd_add_transact_in():  0x8D
Debug: 335 375 driver.c:582 interface_swd_add_transact_out():  0xA9, 0x50000000
Debug: 336 375 driver.c:612 interface_swd_add_transact_in():  0x8D
Debug: 337 375 driver.c:612 interface_swd_add_transact_in():  0x8D
Debug: 338 391 driver.c:612 interface_swd_add_transact_in():  0x8D
Debug: 339 391 driver.c:582 interface_swd_add_transact_out():  0xA9, 0x50000001
Debug: 340 391 driver.c:612 interface_swd_add_transact_in():  0x8D
Debug: 341 391 driver.c:582 interface_swd_add_transact_out():  0xB1, 0x000000F0
Debug: 342 391 driver.c:612 interface_swd_add_transact_in():  0x9F
Debug: 343 391 driver.c:612 interface_swd_add_transact_in():  0xBD
Debug: 344 391 driver.c:612 interface_swd_add_transact_in():  0xB7
Debug: 345 391 driver.c:612 interface_swd_add_transact_in():  0xBD
Debug: 346 391 driver.c:612 interface_swd_add_transact_in():  0x8D
Debug: 347 391 arm_adi_v5.c:1014 ahbap_debugport_init(): MEM-AP #0 ID Register 0x14770011, Debug ROM Address 0xe00ff003
Debug: 348 391 command.c:133 script_debug(): command - ocd_command ocd_command type ocd_stm32.cpu invoke-event reset-assert-pre
Debug: 349 391 command.c:133 script_debug(): command - ocd_stm32.cpu ocd_stm32.cpu invoke-event reset-assert-pre
Debug: 350 391 command.c:133 script_debug(): command - ocd_command ocd_command type ocd_stm32.cpu cget -chain-position
Debug: 351 391 command.c:133 script_debug(): command - ocd_stm32.cpu ocd_stm32.cpu cget -chain-position
Debug: 352 391 command.c:133 script_debug(): command - ocd_command ocd_command type ocd_jtag tapisenabled stm32.cpu
Debug: 353 391 command.c:133 script_debug(): command - ocd_jtag ocd_jtag tapisenabled stm32.cpu
Debug: 354 391 command.c:133 script_debug(): command - ocd_command ocd_command type ocd_stm32.cpu arp_reset assert 1
Debug: 355 391 command.c:133 script_debug(): command - ocd_stm32.cpu ocd_stm32.cpu arp_reset assert 1
Debug: 356 391 cortex_m3.c:833 cortex_m3_assert_reset(): target-&gt;state: running
Debug: 357 391 driver.c:582 interface_swd_add_transact_out():  0xB1, 0x00000000
Debug: 358 391 driver.c:582 interface_swd_add_transact_out():  0xA3, 0xA2000002
Debug: 359 391 driver.c:582 interface_swd_add_transact_out():  0x8B, 0xE000EDF0
Debug: 360 391 driver.c:582 interface_swd_add_transact_out():  0xB1, 0x00000010
Debug: 361 391 driver.c:612 interface_swd_add_transact_in():  0x87
Debug: 362 391 driver.c:612 interface_swd_add_transact_in():  0xBD
Debug: 363 391 driver.c:612 interface_swd_add_transact_in():  0x8D
Debug: 364 391 driver.c:582 interface_swd_add_transact_out():  0xA3, 0xA05F0001
Debug: 365 391 driver.c:582 interface_swd_add_transact_out():  0x93, 0x00000000
Debug: 366 391 driver.c:582 interface_swd_add_transact_out():  0xBB, 0x01000501
Debug: 367 391 driver.c:612 interface_swd_add_transact_in():  0x8D
Debug: 368 406 driver.c:582 interface_swd_add_transact_out():  0xB1, 0x00000000
Debug: 369 406 driver.c:582 interface_swd_add_transact_out():  0x8B, 0xE000ED00
Debug: 370 406 driver.c:582 interface_swd_add_transact_out():  0xB1, 0x00000010
Debug: 371 406 driver.c:582 interface_swd_add_transact_out():  0xBB, 0x05FA0004
Debug: 372 406 driver.c:612 interface_swd_add_transact_in():  0x8D
Debug: 373 406 cortex_m3.c:940 cortex_m3_assert_reset(): Using Cortex-M3 SYSRESETREQ
Debug: 374 406 driver.c:612 interface_swd_add_transact_in():  0x9F
Debug: 375 406 driver.c:612 interface_swd_add_transact_in():  0xBD
Debug: 376 406 driver.c:612 interface_swd_add_transact_in():  0x8D
Debug: 377 406 cortex_m3.c:548 cortex_m3_halt(): target-&gt;state: reset
Debug: 378 406 command.c:133 script_debug(): command - ocd_command ocd_command type ocd_stm32.cpu invoke-event reset-assert-post
Debug: 379 406 command.c:133 script_debug(): command - ocd_stm32.cpu ocd_stm32.cpu invoke-event reset-assert-post
Debug: 380 406 command.c:133 script_debug(): command - ocd_command ocd_command type ocd_stm32.cpu invoke-event reset-deassert-pre
Debug: 381 406 command.c:133 script_debug(): command - ocd_stm32.cpu ocd_stm32.cpu invoke-event reset-deassert-pre
Debug: 382 406 command.c:133 script_debug(): command - ocd_command ocd_command type ocd_stm32.cpu cget -chain-position
Debug: 383 406 command.c:133 script_debug(): command - ocd_stm32.cpu ocd_stm32.cpu cget -chain-position
Debug: 384 406 command.c:133 script_debug(): command - ocd_command ocd_command type ocd_jtag tapisenabled stm32.cpu
Debug: 385 406 command.c:133 script_debug(): command - ocd_jtag ocd_jtag tapisenabled stm32.cpu
Debug: 386 406 command.c:133 script_debug(): command - ocd_command ocd_command type ocd_stm32.cpu arp_reset deassert 1
Debug: 387 406 command.c:133 script_debug(): command - ocd_stm32.cpu ocd_stm32.cpu arp_reset deassert 1
Debug: 388 406 cortex_m3.c:970 cortex_m3_deassert_reset(): target-&gt;state: reset
Debug: 389 406 command.c:133 script_debug(): command - ocd_command ocd_command type ocd_stm32.cpu invoke-event reset-deassert-post
Debug: 390 406 command.c:133 script_debug(): command - ocd_stm32.cpu ocd_stm32.cpu invoke-event reset-deassert-post
Debug: 391 406 command.c:133 script_debug(): command - ocd_command ocd_command type ocd_stm32.cpu cget -chain-position
Debug: 392 406 command.c:133 script_debug(): command - ocd_stm32.cpu ocd_stm32.cpu cget -chain-position
Debug: 393 406 command.c:133 script_debug(): command - ocd_command ocd_command type ocd_jtag tapisenabled stm32.cpu
Debug: 394 406 command.c:133 script_debug(): command - ocd_jtag ocd_jtag tapisenabled stm32.cpu
Debug: 395 406 command.c:133 script_debug(): command - ocd_command ocd_command type ocd_stm32.cpu arp_waitstate halted 1000
Debug: 396 406 command.c:133 script_debug(): command - ocd_stm32.cpu ocd_stm32.cpu arp_waitstate halted 1000
Debug: 397 406 driver.c:582 interface_swd_add_transact_out():  0xB1, 0x00000000
Debug: 398 406 driver.c:582 interface_swd_add_transact_out():  0x8B, 0xE000EDF0
Debug: 399 406 driver.c:582 interface_swd_add_transact_out():  0xB1, 0x00000010
Debug: 400 422 driver.c:612 interface_swd_add_transact_in():  0x87
Debug: 401 422 driver.c:612 interface_swd_add_transact_in():  0xBD
Debug: 402 422 driver.c:612 interface_swd_add_transact_in():  0x8D
Debug: 403 469 driver.c:612 interface_swd_add_transact_in():  0x87
Debug: 404 469 driver.c:612 interface_swd_add_transact_in():  0xBD
Debug: 405 469 driver.c:612 interface_swd_add_transact_in():  0x8D
Debug: 406 469 cortex_m3.c:498 cortex_m3_poll(): Exit from reset with dcb_dhcsr 0x30003
Debug: 407 469 driver.c:612 interface_swd_add_transact_in():  0x9F
Debug: 408 469 driver.c:612 interface_swd_add_transact_in():  0xBD
Debug: 409 469 driver.c:612 interface_swd_add_transact_in():  0x8D
Debug: 410 485 cortex_m3.c:200 cortex_m3_endreset_event(): DCB_DEMCR = 0x01000501
Debug: 411 485 driver.c:582 interface_swd_add_transact_out():  0x93, 0x00000000
Debug: 412 485 driver.c:612 interface_swd_add_transact_in():  0x87
Debug: 413 485 driver.c:612 interface_swd_add_transact_in():  0xBD
Debug: 414 485 driver.c:612 interface_swd_add_transact_in():  0x8D
Debug: 415 485 driver.c:582 interface_swd_add_transact_out():  0xA3, 0xA05F0003
Debug: 416 485 driver.c:612 interface_swd_add_transact_in():  0x8D
Debug: 417 485 driver.c:582 interface_swd_add_transact_out():  0xBB, 0x01000000
Debug: 418 485 target.c:1626 target_write_u32(): address: 0xe0002000, value: 0x00000003
Debug: 419 485 driver.c:582 interface_swd_add_transact_out():  0xB1, 0x00000000
Debug: 420 485 driver.c:582 interface_swd_add_transact_out():  0xA3, 0xA2000012
Debug: 421 485 driver.c:582 interface_swd_add_transact_out():  0x8B, 0xE0002000
Debug: 422 485 driver.c:582 interface_swd_add_transact_out():  0xBB, 0x00000003
Debug: 423 485 driver.c:612 interface_swd_add_transact_in():  0x8D
Debug: 424 485 target.c:1626 target_write_u32(): address: 0xe0002008, value: 0x00000000
Debug: 425 485 driver.c:582 interface_swd_add_transact_out():  0x8B, 0xE0002008
Debug: 426 485 driver.c:582 interface_swd_add_transact_out():  0xBB, 0x00000000
Debug: 427 485 driver.c:612 interface_swd_add_transact_in():  0x8D
Debug: 428 500 target.c:1626 target_write_u32(): address: 0xe000200c, value: 0x00000000
Debug: 429 500 driver.c:582 interface_swd_add_transact_out():  0x8B, 0xE000200C
Debug: 430 500 driver.c:582 interface_swd_add_transact_out():  0xBB, 0x00000000
Debug: 431 500 driver.c:612 interface_swd_add_transact_in():  0x8D
Debug: 432 500 target.c:1626 target_write_u32(): address: 0xe0002010, value: 0x00000000
Debug: 433 500 driver.c:582 interface_swd_add_transact_out():  0x8B, 0xE0002010
Debug: 434 500 driver.c:582 interface_swd_add_transact_out():  0xBB, 0x00000000
Debug: 435 500 driver.c:612 interface_swd_add_transact_in():  0x8D
Debug: 436 500 target.c:1626 target_write_u32(): address: 0xe0002014, value: 0x00000000
Debug: 437 500 driver.c:582 interface_swd_add_transact_out():  0x8B, 0xE0002014
Debug: 438 500 driver.c:582 interface_swd_add_transact_out():  0xBB, 0x00000000
Debug: 439 500 driver.c:612 interface_swd_add_transact_in():  0x8D
Debug: 440 500 target.c:1626 target_write_u32(): address: 0xe0002018, value: 0x00000000
Debug: 441 500 driver.c:582 interface_swd_add_transact_out():  0x8B, 0xE0002018
Debug: 442 500 driver.c:582 interface_swd_add_transact_out():  0xBB, 0x00000000
Debug: 443 500 driver.c:612 interface_swd_add_transact_in():  0x8D
Debug: 444 516 target.c:1626 target_write_u32(): address: 0xe000201c, value: 0x00000000
Debug: 445 516 driver.c:582 interface_swd_add_transact_out():  0x8B, 0xE000201C
Debug: 446 516 driver.c:582 interface_swd_add_transact_out():  0xBB, 0x00000000
Debug: 447 516 driver.c:612 interface_swd_add_transact_in():  0x8D
Debug: 448 516 target.c:1626 target_write_u32(): address: 0xe0002020, value: 0x00000000
Debug: 449 516 driver.c:582 interface_swd_add_transact_out():  0x8B, 0xE0002020
Debug: 450 516 driver.c:582 interface_swd_add_transact_out():  0xBB, 0x00000000
Debug: 451 516 driver.c:612 interface_swd_add_transact_in():  0x8D
Debug: 452 516 target.c:1626 target_write_u32(): address: 0xe0002024, value: 0x00000000
Debug: 453 516 driver.c:582 interface_swd_add_transact_out():  0x8B, 0xE0002024
Debug: 454 516 driver.c:582 interface_swd_add_transact_out():  0xBB, 0x00000000
Debug: 455 516 driver.c:612 interface_swd_add_transact_in():  0x8D
Debug: 456 516 target.c:1626 target_write_u32(): address: 0xe0001020, value: 0x00000000
Debug: 457 516 driver.c:582 interface_swd_add_transact_out():  0x8B, 0xE0001020
Debug: 458 516 driver.c:582 interface_swd_add_transact_out():  0xBB, 0x00000000
Debug: 459 516 driver.c:612 interface_swd_add_transact_in():  0x8D
Debug: 460 531 target.c:1626 target_write_u32(): address: 0xe0001024, value: 0x00000000
Debug: 461 531 driver.c:582 interface_swd_add_transact_out():  0x8B, 0xE0001024
Debug: 462 531 driver.c:582 interface_swd_add_transact_out():  0xBB, 0x00000000
Debug: 463 531 driver.c:612 interface_swd_add_transact_in():  0x8D
Debug: 464 531 target.c:1626 target_write_u32(): address: 0xe0001028, value: 0x00000000
Debug: 465 531 driver.c:582 interface_swd_add_transact_out():  0x8B, 0xE0001028
Debug: 466 531 driver.c:582 interface_swd_add_transact_out():  0xBB, 0x00000000
Debug: 467 531 driver.c:612 interface_swd_add_transact_in():  0x8D
Debug: 468 531 target.c:1626 target_write_u32(): address: 0xe0001030, value: 0x00000000
Debug: 469 531 driver.c:582 interface_swd_add_transact_out():  0x8B, 0xE0001030
Debug: 470 531 driver.c:582 interface_swd_add_transact_out():  0xBB, 0x00000000
Debug: 471 531 driver.c:612 interface_swd_add_transact_in():  0x8D
Debug: 472 531 target.c:1626 target_write_u32(): address: 0xe0001034, value: 0x00000000
Debug: 473 531 driver.c:582 interface_swd_add_transact_out():  0x8B, 0xE0001034
Debug: 474 531 driver.c:582 interface_swd_add_transact_out():  0xBB, 0x00000000
Debug: 475 531 driver.c:612 interface_swd_add_transact_in():  0x8D
Debug: 476 547 target.c:1626 target_write_u32(): address: 0xe0001038, value: 0x00000000
Debug: 477 547 driver.c:582 interface_swd_add_transact_out():  0x8B, 0xE0001038
Debug: 478 547 driver.c:582 interface_swd_add_transact_out():  0xBB, 0x00000000
Debug: 479 547 driver.c:612 interface_swd_add_transact_in():  0x8D
Debug: 480 547 target.c:1626 target_write_u32(): address: 0xe0001040, value: 0x00000000
Debug: 481 547 driver.c:582 interface_swd_add_transact_out():  0x8B, 0xE0001040
Debug: 482 547 driver.c:582 interface_swd_add_transact_out():  0xBB, 0x00000000
Debug: 483 547 driver.c:612 interface_swd_add_transact_in():  0x8D
Debug: 484 547 target.c:1626 target_write_u32(): address: 0xe0001044, value: 0x00000000
Debug: 485 547 driver.c:582 interface_swd_add_transact_out():  0x8B, 0xE0001044
Debug: 486 547 driver.c:582 interface_swd_add_transact_out():  0xBB, 0x00000000
Debug: 487 547 driver.c:612 interface_swd_add_transact_in():  0x8D
Debug: 488 547 target.c:1626 target_write_u32(): address: 0xe0001048, value: 0x00000000
Debug: 489 547 driver.c:582 interface_swd_add_transact_out():  0x8B, 0xE0001048
Debug: 490 547 driver.c:582 interface_swd_add_transact_out():  0xBB, 0x00000000
Debug: 491 547 driver.c:612 interface_swd_add_transact_in():  0x8D
Debug: 492 563 target.c:1626 target_write_u32(): address: 0xe0001050, value: 0x00000000
Debug: 493 563 driver.c:582 interface_swd_add_transact_out():  0x8B, 0xE0001050
Debug: 494 563 driver.c:582 interface_swd_add_transact_out():  0xBB, 0x00000000
Debug: 495 563 driver.c:612 interface_swd_add_transact_in():  0x8D
Debug: 496 563 target.c:1626 target_write_u32(): address: 0xe0001054, value: 0x00000000
Debug: 497 563 driver.c:582 interface_swd_add_transact_out():  0x8B, 0xE0001054
Debug: 498 563 driver.c:582 interface_swd_add_transact_out():  0xBB, 0x00000000
Debug: 499 563 driver.c:612 interface_swd_add_transact_in():  0x8D
Debug: 500 563 target.c:1626 target_write_u32(): address: 0xe0001058, value: 0x00000000
Debug: 501 563 driver.c:582 interface_swd_add_transact_out():  0x8B, 0xE0001058
Debug: 502 563 driver.c:582 interface_swd_add_transact_out():  0xBB, 0x00000000
Debug: 503 563 driver.c:612 interface_swd_add_transact_in():  0x8D
Debug: 504 563 driver.c:612 interface_swd_add_transact_in():  0x8D
Debug: 505 578 driver.c:582 interface_swd_add_transact_out():  0xA3, 0xA2000002
Debug: 506 578 driver.c:582 interface_swd_add_transact_out():  0x8B, 0xE000EDF0
Debug: 507 578 driver.c:582 interface_swd_add_transact_out():  0xB1, 0x00000010
Debug: 508 578 driver.c:612 interface_swd_add_transact_in():  0x87
Debug: 509 578 driver.c:612 interface_swd_add_transact_in():  0xBD
Debug: 510 578 driver.c:612 interface_swd_add_transact_in():  0x8D
Debug: 511 578 cortex_m3.c:366 cortex_m3_debug_entry():  
Debug: 512 578 driver.c:582 interface_swd_add_transact_out():  0xA3, 0xA05F0003
Debug: 513 578 driver.c:612 interface_swd_add_transact_in():  0x8D
Debug: 514 578 driver.c:582 interface_swd_add_transact_out():  0xB1, 0x00000000
Debug: 515 578 driver.c:582 interface_swd_add_transact_out():  0x8B, 0xE000ED30
Debug: 516 578 driver.c:582 interface_swd_add_transact_out():  0xB1, 0x00000010
Debug: 517 578 driver.c:612 interface_swd_add_transact_in():  0x87
Debug: 518 578 driver.c:612 interface_swd_add_transact_in():  0xBD
Debug: 519 578 driver.c:612 interface_swd_add_transact_in():  0x8D
Debug: 520 578 driver.c:582 interface_swd_add_transact_out():  0xA3, 0x00000009
Debug: 521 578 driver.c:612 interface_swd_add_transact_in():  0x8D
Debug: 522 594 cortex_m3.c:155 cortex_m3_clear_halt():  NVIC_DFSR 0x9
Debug: 523 594 driver.c:582 interface_swd_add_transact_out():  0xB1, 0x00000000
Debug: 524 594 driver.c:582 interface_swd_add_transact_out():  0x8B, 0xE000EDF0
Debug: 525 594 driver.c:582 interface_swd_add_transact_out():  0xB1, 0x00000010
Debug: 526 594 driver.c:612 interface_swd_add_transact_in():  0x87
Debug: 527 594 driver.c:612 interface_swd_add_transact_in():  0xBD
Debug: 528 594 driver.c:612 interface_swd_add_transact_in():  0x8D
Debug: 529 594 driver.c:612 interface_swd_add_transact_in():  0xB7
Debug: 530 594 driver.c:612 interface_swd_add_transact_in():  0xBD
Debug: 531 594 driver.c:582 interface_swd_add_transact_out():  0x8B, 0x00000000
Debug: 532 594 driver.c:612 interface_swd_add_transact_in():  0xB7
Debug: 533 594 driver.c:612 interface_swd_add_transact_in():  0xBD
Debug: 534 594 driver.c:612 interface_swd_add_transact_in():  0x8D
Debug: 535 594 driver.c:582 interface_swd_add_transact_out():  0x93, 0x00000000
Debug: 536 594 driver.c:612 interface_swd_add_transact_in():  0x8D
Debug: 537 594 cortex_m3.c:1395 cortex_m3_load_core_reg_u32(): load from core reg 0  value 0xffffffff
Debug: 538 594 driver.c:612 interface_swd_add_transact_in():  0xB7
Debug: 539 594 driver.c:612 interface_swd_add_transact_in():  0xBD
Debug: 540 594 driver.c:582 interface_swd_add_transact_out():  0x8B, 0x00000001
Debug: 541 594 driver.c:612 interface_swd_add_transact_in():  0xB7
Debug: 542 594 driver.c:612 interface_swd_add_transact_in():  0xBD
Debug: 543 594 driver.c:612 interface_swd_add_transact_in():  0x8D
Debug: 544 610 driver.c:582 interface_swd_add_transact_out():  0x93, 0x00000000
Debug: 545 610 driver.c:612 interface_swd_add_transact_in():  0x8D
Debug: 546 610 cortex_m3.c:1395 cortex_m3_load_core_reg_u32(): load from core reg 1  value 0x0
Debug: 547 610 driver.c:612 interface_swd_add_transact_in():  0xB7
Debug: 548 610 driver.c:612 interface_swd_add_transact_in():  0xBD
Debug: 549 610 driver.c:582 interface_swd_add_transact_out():  0x8B, 0x00000002
Debug: 550 610 driver.c:612 interface_swd_add_transact_in():  0xB7
Debug: 551 610 driver.c:612 interface_swd_add_transact_in():  0xBD
Debug: 552 610 driver.c:612 interface_swd_add_transact_in():  0x8D
Debug: 553 610 driver.c:582 interface_swd_add_transact_out():  0x93, 0x00000000
Debug: 554 610 driver.c:612 interface_swd_add_transact_in():  0x8D
Debug: 555 610 cortex_m3.c:1395 cortex_m3_load_core_reg_u32(): load from core reg 2  value 0xfef6ffff
Debug: 556 610 driver.c:612 interface_swd_add_transact_in():  0xB7
Debug: 557 610 driver.c:612 interface_swd_add_transact_in():  0xBD
Debug: 558 610 driver.c:582 interface_swd_add_transact_out():  0x8B, 0x00000003
Debug: 559 610 driver.c:612 interface_swd_add_transact_in():  0xB7
Debug: 560 610 driver.c:612 interface_swd_add_transact_in():  0xBD
Debug: 561 610 driver.c:612 interface_swd_add_transact_in():  0x8D
Debug: 562 625 driver.c:582 interface_swd_add_transact_out():  0x93, 0x00000000
Debug: 563 625 driver.c:612 interface_swd_add_transact_in():  0x8D
Debug: 564 625 cortex_m3.c:1395 cortex_m3_load_core_reg_u32(): load from core reg 3  value 0x10000000
Debug: 565 625 driver.c:612 interface_swd_add_transact_in():  0xB7
Debug: 566 625 driver.c:612 interface_swd_add_transact_in():  0xBD
Debug: 567 625 driver.c:582 interface_swd_add_transact_out():  0x8B, 0x00000004
Debug: 568 625 driver.c:612 interface_swd_add_transact_in():  0xB7
Debug: 569 625 driver.c:612 interface_swd_add_transact_in():  0xBD
Debug: 570 625 driver.c:612 interface_swd_add_transact_in():  0x8D
Debug: 571 625 driver.c:582 interface_swd_add_transact_out():  0x93, 0x00000000
Debug: 572 625 driver.c:612 interface_swd_add_transact_in():  0x8D
Debug: 573 625 cortex_m3.c:1395 cortex_m3_load_core_reg_u32(): load from core reg 4  value 0x8001ffc
Debug: 574 625 driver.c:612 interface_swd_add_transact_in():  0xB7
Debug: 575 625 driver.c:612 interface_swd_add_transact_in():  0xBD
Debug: 576 625 driver.c:582 interface_swd_add_transact_out():  0x8B, 0x00000005
Debug: 577 625 driver.c:612 interface_swd_add_transact_in():  0xB7
Debug: 578 625 driver.c:612 interface_swd_add_transact_in():  0xBD
Debug: 579 625 driver.c:612 interface_swd_add_transact_in():  0x8D
Debug: 580 641 driver.c:582 interface_swd_add_transact_out():  0x93, 0x00000000
Debug: 581 641 driver.c:612 interface_swd_add_transact_in():  0x8D
Debug: 582 641 cortex_m3.c:1395 cortex_m3_load_core_reg_u32(): load from core reg 5  value 0x40011000
Debug: 583 641 driver.c:612 interface_swd_add_transact_in():  0xB7
Debug: 584 641 driver.c:612 interface_swd_add_transact_in():  0xBD
Debug: 585 641 driver.c:582 interface_swd_add_transact_out():  0x8B, 0x00000006
Debug: 586 641 driver.c:612 interface_swd_add_transact_in():  0xB7
Debug: 587 641 driver.c:612 interface_swd_add_transact_in():  0xBD
Debug: 588 641 driver.c:612 interface_swd_add_transact_in():  0x8D
Debug: 589 641 driver.c:582 interface_swd_add_transact_out():  0x93, 0x00000000
Debug: 590 641 driver.c:612 interface_swd_add_transact_in():  0x8D
Debug: 591 641 cortex_m3.c:1395 cortex_m3_load_core_reg_u32(): load from core reg 6  value 0x6038a07a
Debug: 592 641 driver.c:612 interface_swd_add_transact_in():  0xB7
Debug: 593 641 driver.c:612 interface_swd_add_transact_in():  0xBD
Debug: 594 641 driver.c:582 interface_swd_add_transact_out():  0x8B, 0x00000007
Debug: 595 641 driver.c:612 interface_swd_add_transact_in():  0xB7
Debug: 596 641 driver.c:612 interface_swd_add_transact_in():  0xBD
Debug: 597 641 driver.c:612 interface_swd_add_transact_in():  0x8D
Debug: 598 656 driver.c:582 interface_swd_add_transact_out():  0x93, 0x00000000
Debug: 599 656 driver.c:612 interface_swd_add_transact_in():  0x8D
Debug: 600 656 cortex_m3.c:1395 cortex_m3_load_core_reg_u32(): load from core reg 7  value 0x3dc4b94a
Debug: 601 656 driver.c:612 interface_swd_add_transact_in():  0xB7
Debug: 602 656 driver.c:612 interface_swd_add_transact_in():  0xBD
Debug: 603 656 driver.c:582 interface_swd_add_transact_out():  0x8B, 0x00000008
Debug: 604 656 driver.c:612 interface_swd_add_transact_in():  0xB7
Debug: 605 656 driver.c:612 interface_swd_add_transact_in():  0xBD
Debug: 606 656 driver.c:612 interface_swd_add_transact_in():  0x8D
Debug: 607 656 driver.c:582 interface_swd_add_transact_out():  0x93, 0x00000000
Debug: 608 656 driver.c:612 interface_swd_add_transact_in():  0x8D
Debug: 609 656 cortex_m3.c:1395 cortex_m3_load_core_reg_u32(): load from core reg 8  value 0xb3be9d5c
Debug: 610 656 driver.c:612 interface_swd_add_transact_in():  0xB7
Debug: 611 656 driver.c:612 interface_swd_add_transact_in():  0xBD
Debug: 612 656 driver.c:582 interface_swd_add_transact_out():  0x8B, 0x00000009
Debug: 613 656 driver.c:612 interface_swd_add_transact_in():  0xB7
Debug: 614 656 driver.c:612 interface_swd_add_transact_in():  0xBD
Debug: 615 656 driver.c:612 interface_swd_add_transact_in():  0x8D
Debug: 616 672 driver.c:582 interface_swd_add_transact_out():  0x93, 0x00000000
Debug: 617 672 driver.c:612 interface_swd_add_transact_in():  0x8D
Debug: 618 672 cortex_m3.c:1395 cortex_m3_load_core_reg_u32(): load from core reg 9  value 0xfff7b6dc
Debug: 619 672 driver.c:612 interface_swd_add_transact_in():  0xB7
Debug: 620 672 driver.c:612 interface_swd_add_transact_in():  0xBD
Debug: 621 672 driver.c:582 interface_swd_add_transact_out():  0x8B, 0x0000000A
Debug: 622 672 driver.c:612 interface_swd_add_transact_in():  0xB7
Debug: 623 672 driver.c:612 interface_swd_add_transact_in():  0xBD
Debug: 624 672 driver.c:612 interface_swd_add_transact_in():  0x8D
Debug: 625 672 driver.c:582 interface_swd_add_transact_out():  0x93, 0x00000000
Debug: 626 672 driver.c:612 interface_swd_add_transact_in():  0x8D
Debug: 627 672 cortex_m3.c:1395 cortex_m3_load_core_reg_u32(): load from core reg 10  value 0xe0085aa8
Debug: 628 672 driver.c:612 interface_swd_add_transact_in():  0xB7
Debug: 629 672 driver.c:612 interface_swd_add_transact_in():  0xBD
Debug: 630 672 driver.c:582 interface_swd_add_transact_out():  0x8B, 0x0000000B
Debug: 631 672 driver.c:612 interface_swd_add_transact_in():  0xB7
Debug: 632 672 driver.c:612 interface_swd_add_transact_in():  0xBD
Debug: 633 672 driver.c:612 interface_swd_add_transact_in():  0x8D
Debug: 634 688 driver.c:582 interface_swd_add_transact_out():  0x93, 0x00000000
Debug: 635 688 driver.c:612 interface_swd_add_transact_in():  0x8D
Debug: 636 688 cortex_m3.c:1395 cortex_m3_load_core_reg_u32(): load from core reg 11  value 0x699db600
Debug: 637 688 driver.c:612 interface_swd_add_transact_in():  0xB7
Debug: 638 688 driver.c:612 interface_swd_add_transact_in():  0xBD
Debug: 639 688 driver.c:582 interface_swd_add_transact_out():  0x8B, 0x0000000C
Debug: 640 688 driver.c:612 interface_swd_add_transact_in():  0xB7
Debug: 641 688 driver.c:612 interface_swd_add_transact_in():  0xBD
Debug: 642 688 driver.c:612 interface_swd_add_transact_in():  0x8D
Debug: 643 688 driver.c:582 interface_swd_add_transact_out():  0x93, 0x00000000
Debug: 644 688 driver.c:612 interface_swd_add_transact_in():  0x8D
Debug: 645 703 cortex_m3.c:1395 cortex_m3_load_core_reg_u32(): load from core reg 12  value 0xff3fe7fb
Debug: 646 703 driver.c:612 interface_swd_add_transact_in():  0xB7
Debug: 647 703 driver.c:612 interface_swd_add_transact_in():  0xBD
Debug: 648 703 driver.c:582 interface_swd_add_transact_out():  0x8B, 0x0000000D
Debug: 649 703 driver.c:612 interface_swd_add_transact_in():  0xB7
Debug: 650 703 driver.c:612 interface_swd_add_transact_in():  0xBD
Debug: 651 703 driver.c:612 interface_swd_add_transact_in():  0x8D
Debug: 652 703 driver.c:582 interface_swd_add_transact_out():  0x93, 0x00000000
Debug: 653 703 driver.c:612 interface_swd_add_transact_in():  0x8D
Debug: 654 703 cortex_m3.c:1395 cortex_m3_load_core_reg_u32(): load from core reg 13  value 0x20000400
Debug: 655 703 driver.c:612 interface_swd_add_transact_in():  0xB7
Debug: 656 703 driver.c:612 interface_swd_add_transact_in():  0xBD
Debug: 657 703 driver.c:582 interface_swd_add_transact_out():  0x8B, 0x0000000E
Debug: 658 703 driver.c:612 interface_swd_add_transact_in():  0xB7
Debug: 659 703 driver.c:612 interface_swd_add_transact_in():  0xBD
Debug: 660 703 driver.c:612 interface_swd_add_transact_in():  0x8D
Debug: 661 703 driver.c:582 interface_swd_add_transact_out():  0x93, 0x00000000
Debug: 662 703 driver.c:612 interface_swd_add_transact_in():  0x8D
Debug: 663 703 cortex_m3.c:1395 cortex_m3_load_core_reg_u32(): load from core reg 14  value 0xffffffff
Debug: 664 703 driver.c:612 interface_swd_add_transact_in():  0xB7
Debug: 665 703 driver.c:612 interface_swd_add_transact_in():  0xBD
Debug: 666 703 driver.c:582 interface_swd_add_transact_out():  0x8B, 0x0000000F
Debug: 667 703 driver.c:612 interface_swd_add_transact_in():  0xB7
Debug: 668 703 driver.c:612 interface_swd_add_transact_in():  0xBD
Debug: 669 703 driver.c:612 interface_swd_add_transact_in():  0x8D
Debug: 670 719 driver.c:582 interface_swd_add_transact_out():  0x93, 0x00000000
Debug: 671 719 driver.c:612 interface_swd_add_transact_in():  0x8D
Debug: 672 719 cortex_m3.c:1395 cortex_m3_load_core_reg_u32(): load from core reg 15  value 0x8001870
Debug: 673 719 driver.c:612 interface_swd_add_transact_in():  0xB7
Debug: 674 719 driver.c:612 interface_swd_add_transact_in():  0xBD
Debug: 675 719 driver.c:582 interface_swd_add_transact_out():  0x8B, 0x00000010
Debug: 676 719 driver.c:612 interface_swd_add_transact_in():  0xB7
Debug: 677 719 driver.c:612 interface_swd_add_transact_in():  0xBD
Debug: 678 719 driver.c:612 interface_swd_add_transact_in():  0x8D
Debug: 679 719 driver.c:582 interface_swd_add_transact_out():  0x93, 0x00000000
Debug: 680 719 driver.c:612 interface_swd_add_transact_in():  0x8D
Debug: 681 735 cortex_m3.c:1395 cortex_m3_load_core_reg_u32(): load from core reg 16  value 0x1000000
Debug: 682 735 driver.c:612 interface_swd_add_transact_in():  0xB7
Debug: 683 735 driver.c:612 interface_swd_add_transact_in():  0xBD
Debug: 684 735 driver.c:582 interface_swd_add_transact_out():  0x8B, 0x00000011
Debug: 685 735 driver.c:612 interface_swd_add_transact_in():  0xB7
Debug: 686 735 driver.c:612 interface_swd_add_transact_in():  0xBD
Debug: 687 735 driver.c:612 interface_swd_add_transact_in():  0x8D
Debug: 688 735 driver.c:582 interface_swd_add_transact_out():  0x93, 0x00000000
Debug: 689 735 driver.c:612 interface_swd_add_transact_in():  0x8D
Debug: 690 735 cortex_m3.c:1395 cortex_m3_load_core_reg_u32(): load from core reg 17  value 0x20000400
Debug: 691 735 driver.c:612 interface_swd_add_transact_in():  0xB7
Debug: 692 735 driver.c:612 interface_swd_add_transact_in():  0xBD
Debug: 693 735 driver.c:582 interface_swd_add_transact_out():  0x8B, 0x00000012
Debug: 694 735 driver.c:612 interface_swd_add_transact_in():  0xB7
Debug: 695 735 driver.c:612 interface_swd_add_transact_in():  0xBD
Debug: 696 735 driver.c:612 interface_swd_add_transact_in():  0x8D
Debug: 697 735 driver.c:582 interface_swd_add_transact_out():  0x93, 0x00000000
Debug: 698 735 driver.c:612 interface_swd_add_transact_in():  0x8D
Debug: 699 750 cortex_m3.c:1395 cortex_m3_load_core_reg_u32(): load from core reg 18  value 0xf318303c
Debug: 700 750 driver.c:612 interface_swd_add_transact_in():  0xB7
Debug: 701 750 driver.c:612 interface_swd_add_transact_in():  0xBD
Debug: 702 750 driver.c:582 interface_swd_add_transact_out():  0x8B, 0x00000014
Debug: 703 750 driver.c:612 interface_swd_add_transact_in():  0xB7
Debug: 704 750 driver.c:612 interface_swd_add_transact_in():  0xBD
Debug: 705 750 driver.c:612 interface_swd_add_transact_in():  0x8D
Debug: 706 750 driver.c:582 interface_swd_add_transact_out():  0x93, 0x00000000
Debug: 707 750 driver.c:612 interface_swd_add_transact_in():  0x8D
Debug: 708 750 cortex_m3.c:1427 cortex_m3_load_core_reg_u32(): load from special reg 19 value 0x0
Debug: 709 750 driver.c:612 interface_swd_add_transact_in():  0xB7
Debug: 710 750 driver.c:612 interface_swd_add_transact_in():  0xBD
Debug: 711 750 driver.c:582 interface_swd_add_transact_out():  0x8B, 0x00000014
Debug: 712 750 driver.c:612 interface_swd_add_transact_in():  0xB7
Debug: 713 750 driver.c:612 interface_swd_add_transact_in():  0xBD
Debug: 714 750 driver.c:612 interface_swd_add_transact_in():  0x8D
Debug: 715 750 driver.c:582 interface_swd_add_transact_out():  0x93, 0x00000000
Debug: 716 750 driver.c:612 interface_swd_add_transact_in():  0x8D
Debug: 717 750 cortex_m3.c:1427 cortex_m3_load_core_reg_u32(): load from special reg 20 value 0x0
Debug: 718 750 driver.c:612 interface_swd_add_transact_in():  0xB7
Debug: 719 750 driver.c:612 interface_swd_add_transact_in():  0xBD
Debug: 720 750 driver.c:582 interface_swd_add_transact_out():  0x8B, 0x00000014
Debug: 721 750 driver.c:612 interface_swd_add_transact_in():  0xB7
Debug: 722 750 driver.c:612 interface_swd_add_transact_in():  0xBD
Debug: 723 750 driver.c:612 interface_swd_add_transact_in():  0x8D
Debug: 724 766 driver.c:582 interface_swd_add_transact_out():  0x93, 0x00000000
Debug: 725 766 driver.c:612 interface_swd_add_transact_in():  0x8D
Debug: 726 766 cortex_m3.c:1427 cortex_m3_load_core_reg_u32(): load from special reg 21 value 0x0
Debug: 727 766 driver.c:612 interface_swd_add_transact_in():  0xB7
Debug: 728 766 driver.c:612 interface_swd_add_transact_in():  0xBD
Debug: 729 766 driver.c:582 interface_swd_add_transact_out():  0x8B, 0x00000014
Debug: 730 766 driver.c:612 interface_swd_add_transact_in():  0xB7
Debug: 731 766 driver.c:612 interface_swd_add_transact_in():  0xBD
Debug: 732 766 driver.c:612 interface_swd_add_transact_in():  0x8D
Debug: 733 766 driver.c:582 interface_swd_add_transact_out():  0x93, 0x00000000
Debug: 734 766 driver.c:612 interface_swd_add_transact_in():  0x8D
Debug: 735 781 cortex_m3.c:1427 cortex_m3_load_core_reg_u32(): load from special reg 22 value 0x0
Debug: 736 781 cortex_m3.c:442 cortex_m3_debug_entry(): entered debug state in core mode: Thread at PC 0x8001870, target-&gt;state: halted
Debug: 737 781 target.c:1018 target_call_event_callbacks(): target event 2 (gdb-halt)
Debug: 738 781 target.c:1018 target_call_event_callbacks(): target event 3 (halted)
User : 739 781 target.c:1295 target_arch_state(): target state: halted
User : 740 781 armv7m.c:477 armv7m_arch_state(): target halted due to debug-request, current mode: Thread 
xPSR: 0x01000000 pc: 0x08001870 msp: 0x20000400
Debug: 741 781 command.c:133 script_debug(): command - ocd_command ocd_command type ocd_stm32.cpu curstate
Debug: 742 781 command.c:133 script_debug(): command - ocd_stm32.cpu ocd_stm32.cpu curstate
Debug: 743 781 command.c:133 script_debug(): command - ocd_command ocd_command type ocd_stm32.cpu cget -chain-position
Debug: 744 781 command.c:133 script_debug(): command - ocd_stm32.cpu ocd_stm32.cpu cget -chain-position
Debug: 745 781 command.c:133 script_debug(): command - ocd_command ocd_command type ocd_jtag tapisenabled stm32.cpu
Debug: 746 781 command.c:133 script_debug(): command - ocd_jtag ocd_jtag tapisenabled stm32.cpu
Debug: 747 781 command.c:133 script_debug(): command - ocd_command ocd_command type ocd_stm32.cpu arp_waitstate halted 5000
Debug: 748 781 command.c:133 script_debug(): command - ocd_stm32.cpu ocd_stm32.cpu arp_waitstate halted 5000
Debug: 749 781 driver.c:612 interface_swd_add_transact_in():  0x87
Debug: 750 781 driver.c:612 interface_swd_add_transact_in():  0xBD
Debug: 751 781 driver.c:612 interface_swd_add_transact_in():  0x8D
Debug: 752 781 command.c:133 script_debug(): command - ocd_command ocd_command type ocd_stm32.cpu invoke-event reset-init
Debug: 753 781 command.c:133 script_debug(): command - ocd_stm32.cpu ocd_stm32.cpu invoke-event reset-init
Debug: 754 781 command.c:133 script_debug(): command - ocd_command ocd_command type ocd_stm32.cpu invoke-event reset-end
Debug: 755 781 command.c:133 script_debug(): command - ocd_stm32.cpu ocd_stm32.cpu invoke-event reset-end
Debug: 757 781 driver.c:612 interface_swd_add_transact_in():  0x87
Debug: 758 781 driver.c:612 interface_swd_add_transact_in():  0xBD
Debug: 759 781 driver.c:612 interface_swd_add_transact_in():  0x8D
Debug: 760 781 command.c:133 script_debug(): command - ocd_command ocd_command type ocd_verify_ircapture disable
Debug: 761 781 command.c:133 script_debug(): command - verify_ircapture ocd_verify_ircapture disable
Debug: 762 781 driver.c:612 interface_swd_add_transact_in():  0x87
Debug: 763 781 driver.c:612 interface_swd_add_transact_in():  0xBD
Debug: 764 781 driver.c:612 interface_swd_add_transact_in():  0x8D
User : 766 781 command.c:543 command_print(): verify Capture-IR is disabled
Debug: 767 781 command.c:133 script_debug(): command - ocd_command ocd_command type ocd_halt
Debug: 768 781 command.c:133 script_debug(): command - halt ocd_halt
Debug: 769 781 driver.c:612 interface_swd_add_transact_in():  0x87
Debug: 770 781 driver.c:612 interface_swd_add_transact_in():  0xBD
Debug: 771 781 driver.c:612 interface_swd_add_transact_in():  0x8D
Debug: 773 797 target.c:2129 handle_halt_command(): -
Debug: 774 797 cortex_m3.c:548 cortex_m3_halt(): target-&gt;state: halted
Debug: 775 797 cortex_m3.c:552 cortex_m3_halt(): target was already halted
Debug: 776 797 driver.c:612 interface_swd_add_transact_in():  0x87
Debug: 777 797 driver.c:612 interface_swd_add_transact_in():  0xBD
Debug: 778 797 driver.c:612 interface_swd_add_transact_in():  0x8D
Debug: 779 797 command.c:133 script_debug(): command - ocd_command ocd_command type ocd_poll
Debug: 780 797 command.c:133 script_debug(): command - poll ocd_poll
Debug: 781 797 driver.c:612 interface_swd_add_transact_in():  0x87
Debug: 782 797 driver.c:612 interface_swd_add_transact_in():  0xBD
Debug: 783 797 driver.c:612 interface_swd_add_transact_in():  0x8D
User : 785 797 command.c:543 command_print(): background polling: on
User : 786 797 command.c:543 command_print(): TAP: stm32.cpu (enabled)
Debug: 787 797 driver.c:612 interface_swd_add_transact_in():  0x87
Debug: 788 797 driver.c:612 interface_swd_add_transact_in():  0xBD
Debug: 789 797 driver.c:612 interface_swd_add_transact_in():  0x8D
User : 790 797 target.c:1295 target_arch_state(): target state: halted
User : 791 797 armv7m.c:477 armv7m_arch_state(): target halted due to debug-request, current mode: Thread 
xPSR: 0x01000000 pc: 0x08001870 msp: 0x20000400
Debug: 792 797 command.c:133 script_debug(): command - ocd_command ocd_command type ocd_stm32x mass_erase 0
Debug: 793 797 command.c:133 script_debug(): command - ocd_stm32x ocd_stm32x mass_erase 0
Debug: 794 797 driver.c:612 interface_swd_add_transact_in():  0x87
Debug: 795 797 driver.c:612 interface_swd_add_transact_in():  0xBD
Debug: 796 797 driver.c:612 interface_swd_add_transact_in():  0x8D
Debug: 798 813 driver.c:582 interface_swd_add_transact_out():  0xB1, 0x00000000
Debug: 799 813 driver.c:582 interface_swd_add_transact_out():  0xA3, 0xA2000012
Debug: 800 813 driver.c:582 interface_swd_add_transact_out():  0x8B, 0xE0042000
Debug: 801 813 driver.c:612 interface_swd_add_transact_in():  0x9F
Debug: 802 813 driver.c:612 interface_swd_add_transact_in():  0xBD
Debug: 803 813 driver.c:612 interface_swd_add_transact_in():  0x8D
Debug: 804 813 target.c:1549 target_read_u32(): address: 0xe0042000, value: 0x20016410
Info : 805 813 stm32x.c:683 stm32x_probe(): device id = 0x20016410
Debug: 806 813 driver.c:582 interface_swd_add_transact_out():  0xA3, 0xA2000011
Debug: 807 813 driver.c:582 interface_swd_add_transact_out():  0x8B, 0x1FFFF7E0
Debug: 808 813 driver.c:612 interface_swd_add_transact_in():  0x9F
Debug: 809 813 driver.c:612 interface_swd_add_transact_in():  0xBD
Debug: 810 813 driver.c:612 interface_swd_add_transact_in():  0x8D
Debug: 811 813 target.c:1577 target_read_u16(): address: 0x1ffff7e0, value: 0x0020
Info : 812 813 stm32x.c:773 stm32x_probe(): flash size = 32kbytes
Debug: 813 813 target.c:1626 target_write_u32(): address: 0x40022004, value: 0x45670123
Debug: 814 813 driver.c:582 interface_swd_add_transact_out():  0xA3, 0xA2000012
Debug: 815 813 driver.c:582 interface_swd_add_transact_out():  0x8B, 0x40022004
Debug: 816 813 driver.c:582 interface_swd_add_transact_out():  0xBB, 0x45670123
Debug: 817 813 driver.c:612 interface_swd_add_transact_in():  0x8D
Debug: 818 828 target.c:1626 target_write_u32(): address: 0x40022004, value: 0xcdef89ab
Debug: 819 828 driver.c:582 interface_swd_add_transact_out():  0x8B, 0x40022004
Debug: 820 828 driver.c:582 interface_swd_add_transact_out():  0xBB, 0xCDEF89AB
Debug: 821 828 driver.c:612 interface_swd_add_transact_in():  0x8D
Debug: 822 828 target.c:1626 target_write_u32(): address: 0x40022010, value: 0x00000004
Debug: 823 828 driver.c:582 interface_swd_add_transact_out():  0x8B, 0x40022010
Debug: 824 828 driver.c:582 interface_swd_add_transact_out():  0xBB, 0x00000004
Debug: 825 828 driver.c:612 interface_swd_add_transact_in():  0x8D
Debug: 826 828 target.c:1626 target_write_u32(): address: 0x40022010, value: 0x00000044
Debug: 827 828 driver.c:582 interface_swd_add_transact_out():  0x8B, 0x40022010
Debug: 828 828 driver.c:582 interface_swd_add_transact_out():  0xBB, 0x00000044
Debug: 829 828 driver.c:612 interface_swd_add_transact_in():  0x8D
Debug: 830 828 driver.c:582 interface_swd_add_transact_out():  0x8B, 0x4002200C
Debug: 831 828 driver.c:612 interface_swd_add_transact_in():  0x9F
Debug: 832 828 driver.c:612 interface_swd_add_transact_in():  0xBD
Debug: 833 828 driver.c:612 interface_swd_add_transact_in():  0x8D
Debug: 834 844 target.c:1549 target_read_u32(): address: 0x4002200c, value: 0x00000003
Debug: 835 844 stm32x.c:75 stm32x_wait_status_busy(): status: 0x3
Debug: 836 844 driver.c:582 interface_swd_add_transact_out():  0x8B, 0x4002200C
Debug: 837 844 driver.c:612 interface_swd_add_transact_in():  0x9F
Debug: 838 844 driver.c:612 interface_swd_add_transact_in():  0xBD
Debug: 839 844 driver.c:612 interface_swd_add_transact_in():  0x8D
Debug: 840 844 target.c:1549 target_read_u32(): address: 0x4002200c, value: 0x00000003
Debug: 841 844 stm32x.c:75 stm32x_wait_status_busy(): status: 0x3
Debug: 842 844 driver.c:582 interface_swd_add_transact_out():  0x8B, 0x4002200C
Debug: 843 844 driver.c:612 interface_swd_add_transact_in():  0x9F
Debug: 844 844 driver.c:612 interface_swd_add_transact_in():  0xBD
Debug: 845 844 driver.c:612 interface_swd_add_transact_in():  0x8D
Debug: 846 844 target.c:1549 target_read_u32(): address: 0x4002200c, value: 0x00000003
Debug: 847 844 stm32x.c:75 stm32x_wait_status_busy(): status: 0x3
Debug: 848 860 driver.c:582 interface_swd_add_transact_out():  0x8B, 0x4002200C
Debug: 849 860 driver.c:612 interface_swd_add_transact_in():  0x9F
Debug: 850 860 driver.c:612 interface_swd_add_transact_in():  0xBD
Debug: 851 860 driver.c:612 interface_swd_add_transact_in():  0x8D
Debug: 852 860 target.c:1549 target_read_u32(): address: 0x4002200c, value: 0x00000003
Debug: 853 860 stm32x.c:75 stm32x_wait_status_busy(): status: 0x3
Debug: 854 860 driver.c:582 interface_swd_add_transact_out():  0x8B, 0x4002200C
Debug: 855 860 driver.c:612 interface_swd_add_transact_in():  0x9F
Debug: 856 860 driver.c:612 interface_swd_add_transact_in():  0xBD
Debug: 857 860 driver.c:612 interface_swd_add_transact_in():  0x8D
Debug: 858 860 target.c:1549 target_read_u32(): address: 0x4002200c, value: 0x00000020
Debug: 859 860 target.c:1626 target_write_u32(): address: 0x40022010, value: 0x00000080
Debug: 860 860 driver.c:582 interface_swd_add_transact_out():  0x8B, 0x40022010
Debug: 861 860 driver.c:582 interface_swd_add_transact_out():  0xBB, 0x00000080
Debug: 862 860 driver.c:612 interface_swd_add_transact_in():  0x8D
User : 863 875 command.c:543 command_print(): stm32x mass erase complete
Debug: 864 875 command.c:133 script_debug(): command - ocd_command ocd_command type ocd_flash write_image H:/MyProject/Versaloon/Tools/STM32USBBoot_Mini.hex
Debug: 865 875 command.c:133 script_debug(): command - ocd_flash ocd_flash write_image H:/MyProject/Versaloon/Tools/STM32USBBoot_Mini.hex
Debug: 866 875 driver.c:582 interface_swd_add_transact_out():  0xA3, 0xA2000002
Debug: 867 875 driver.c:582 interface_swd_add_transact_out():  0x8B, 0xE000EDF0
Debug: 868 875 driver.c:582 interface_swd_add_transact_out():  0xB1, 0x00000010
Debug: 869 875 driver.c:612 interface_swd_add_transact_in():  0x87
Debug: 870 875 driver.c:612 interface_swd_add_transact_in():  0xBD
Debug: 871 875 driver.c:612 interface_swd_add_transact_in():  0x8D
Debug: 873 875 configuration.c:87 find_file(): found H:/MyProject/Versaloon/Tools/STM32USBBoot_Mini.hex
Debug: 874 875 image.c:89 autodetect_image_type(): IHEX image detected.
Debug: 875 875 configuration.c:87 find_file(): found H:/MyProject/Versaloon/Tools/STM32USBBoot_Mini.hex
Debug: 876 875 core.c:685 flash_write_unlock(): image_read_section: section = 0, t_section_num = 0, section_offset = 0, buffer_size = 0, size_read = 6596
Debug: 877 875 target.c:1626 target_write_u32(): address: 0x40022004, value: 0x45670123
Debug: 878 875 driver.c:582 interface_swd_add_transact_out():  0xB1, 0x00000000
Debug: 879 875 driver.c:582 interface_swd_add_transact_out():  0xA3, 0xA2000012
Debug: 880 875 driver.c:582 interface_swd_add_transact_out():  0x8B, 0x40022004
Debug: 881 875 driver.c:582 interface_swd_add_transact_out():  0xBB, 0x45670123
Debug: 882 875 driver.c:612 interface_swd_add_transact_in():  0x8D
Debug: 883 875 target.c:1626 target_write_u32(): address: 0x40022004, value: 0xcdef89ab
Debug: 884 875 driver.c:582 interface_swd_add_transact_out():  0x8B, 0x40022004
Debug: 885 875 driver.c:582 interface_swd_add_transact_out():  0xBB, 0xCDEF89AB
Debug: 886 875 driver.c:612 interface_swd_add_transact_in():  0x8D
Debug: 887 891 target.c:1122 target_alloc_working_area_try(): MMU disabled, using physical address for working memory 0x20000000
Debug: 888 891 target.c:1182 target_alloc_working_area_try(): allocated new working area at address 0x20000000
Debug: 889 891 target.c:1312 target_write_buffer(): writing buffer of 48 byte at 0x20000000
Debug: 890 891 driver.c:582 interface_swd_add_transact_out():  0x8B, 0x20000000
Debug: 891 891 driver.c:582 interface_swd_add_transact_out():  0xBB, 0x4024F8DF
Debug: 892 891 driver.c:582 interface_swd_add_transact_out():  0xBB, 0xF04F4D09
Debug: 893 891 driver.c:582 interface_swd_add_transact_out():  0xBB, 0x60230301
Debug: 894 891 driver.c:582 interface_swd_add_transact_out():  0xBB, 0x3B02F830
Debug: 895 891 driver.c:582 interface_swd_add_transact_out():  0xBB, 0x3B02F821
Debug: 896 891 driver.c:582 interface_swd_add_transact_out():  0xBB, 0xF013682B
Debug: 897 891 driver.c:582 interface_swd_add_transact_out():  0xBB, 0xD0FB0F01
Debug: 898 891 driver.c:582 interface_swd_add_transact_out():  0xBB, 0x0F14F013
Debug: 899 891 driver.c:582 interface_swd_add_transact_out():  0xBB, 0x3A01D101
Debug: 900 891 driver.c:582 interface_swd_add_transact_out():  0xBB, 0xBE00D1ED
Debug: 901 891 driver.c:582 interface_swd_add_transact_out():  0xBB, 0x40022010
Debug: 902 891 driver.c:582 interface_swd_add_transact_out():  0xBB, 0x4002200C
Debug: 903 891 driver.c:612 interface_swd_add_transact_in():  0x8D
Debug: 904 891 target.c:1182 target_alloc_working_area_try(): allocated new working area at address 0x20000030
Debug: 905 891 target.c:1312 target_write_buffer(): writing buffer of 6596 byte at 0x20000030
Debug: 906 891 driver.c:582 interface_swd_add_transact_out():  0x8B, 0x20000030
Debug: 907 891 driver.c:582 interface_swd_add_transact_out():  0xBB, 0x20000400
Debug: 908 891 driver.c:582 interface_swd_add_transact_out():  0xBB, 0x08001871
Debug: 909 891 driver.c:582 interface_swd_add_transact_out():  0xBB, 0x080013E5
Debug: 910 891 driver.c:582 interface_swd_add_transact_out():  0xBB, 0x080013E7
Debug: 911 891 driver.c:582 interface_swd_add_transact_out():  0xBB, 0x080013E9
Debug: 912 891 driver.c:582 interface_swd_add_transact_out():  0xBB, 0x080013EB
Debug: 913 891 driver.c:582 interface_swd_add_transact_out():  0xBB, 0x080013ED
Debug: 914 891 driver.c:582 interface_swd_add_transact_out():  0xBB, 0x00000000
Debug: 915 891 driver.c:582 interface_swd_add_transact_out():  0xBB, 0x00000000
Debug: 916 891 driver.c:582 interface_swd_add_transact_out():  0xBB, 0x00000000
Debug: 917 891 driver.c:582 interface_swd_add_transact_out():  0xBB, 0x00000000
Debug: 918 891 driver.c:582 interface_swd_add_transact_out():  0xBB, 0x080013F1
Debug: 919 891 driver.c:582 interface_swd_add_transact_out():  0xBB, 0x080013EF
Debug: 920 891 driver.c:582 interface_swd_add_transact_out():  0xBB, 0x00000000
Debug: 921 891 driver.c:582 interface_swd_add_transact_out():  0xBB, 0x080013F3
Debug: 922 891 driver.c:582 interface_swd_add_transact_out():  0xBB, 0x080013F5
Debug: 923 891 driver.c:582 interface_swd_add_transact_out():  0xBB, 0x080013F7
Debug: 924 891 driver.c:582 interface_swd_add_transact_out():  0xBB, 0x080013F9
Debug: 925 891 driver.c:582 interface_swd_add_transact_out():  0xBB, 0x080013FB
Debug: 926 891 driver.c:582 interface_swd_add_transact_out():  0xBB, 0x080013FD
Debug: 927 891 driver.c:582 interface_swd_add_transact_out():  0xBB, 0x080013FF
Debug: 928 891 driver.c:582 interface_swd_add_transact_out():  0xBB, 0x08001401
Debug: 929 891 driver.c:582 interface_swd_add_transact_out():  0xBB, 0x08001403
Debug: 930 891 driver.c:582 interface_swd_add_transact_out():  0xBB, 0x08001405
Debug: 931 891 driver.c:582 interface_swd_add_transact_out():  0xBB, 0x08001407
Debug: 932 891 driver.c:582 interface_swd_add_transact_out():  0xBB, 0x08001409
Debug: 933 891 driver.c:582 interface_swd_add_transact_out():  0xBB, 0x0800140B
Debug: 934 891 driver.c:582 interface_swd_add_transact_out():  0xBB, 0x0800140D
Debug: 935 891 driver.c:582 interface_swd_add_transact_out():  0xBB, 0x0800140F
Debug: 936 891 driver.c:582 interface_swd_add_transact_out():  0xBB, 0x08001411
Debug: 937 891 driver.c:582 interface_swd_add_transact_out():  0xBB, 0x08001413
Debug: 938 891 driver.c:582 interface_swd_add_transact_out():  0xBB, 0x08001415
Debug: 939 891 driver.c:582 interface_swd_add_transact_out():  0xBB, 0x08001417
Debug: 940 891 driver.c:582 interface_swd_add_transact_out():  0xBB, 0x08001419
Debug: 941 891 driver.c:582 interface_swd_add_transact_out():  0xBB, 0x0800141B
Debug: 942 891 driver.c:582 interface_swd_add_transact_out():  0xBB, 0x0800141D
Debug: 943 891 driver.c:582 interface_swd_add_transact_out():  0xBB, 0x0800141F
Debug: 944 891 driver.c:582 interface_swd_add_transact_out():  0xBB, 0x08001423
Debug: 945 891 driver.c:582 interface_swd_add_transact_out():  0xBB, 0x08001425
Debug: 946 891 driver.c:582 interface_swd_add_transact_out():  0xBB, 0x08001427
Debug: 947 891 driver.c:582 interface_swd_add_transact_out():  0xBB, 0x08001429
Debug: 948 891 driver.c:582 interface_swd_add_transact_out():  0xBB, 0x0800142B
Debug: 949 891 driver.c:582 interface_swd_add_transact_out():  0xBB, 0x0800142D
Debug: 950 891 driver.c:582 interface_swd_add_transact_out():  0xBB, 0x0800142F
Debug: 951 891 driver.c:582 interface_swd_add_transact_out():  0xBB, 0x08001431
Debug: 952 891 driver.c:582 interface_swd_add_transact_out():  0xBB, 0x08001433
Debug: 953 891 driver.c:582 interface_swd_add_transact_out():  0xBB, 0x08001435
Debug: 954 891 driver.c:582 interface_swd_add_transact_out():  0xBB, 0x08001437
Debug: 955 891 driver.c:582 interface_swd_add_transact_out():  0xBB, 0x08001439
Debug: 956 891 driver.c:582 interface_swd_add_transact_out():  0xBB, 0x0800143B
Debug: 957 891 driver.c:582 interface_swd_add_transact_out():  0xBB, 0x0800143D
Debug: 958 891 driver.c:582 interface_swd_add_transact_out():  0xBB, 0x0800143F
Debug: 959 891 driver.c:582 interface_swd_add_transact_out():  0xBB, 0x08001441
Debug: 960 891 driver.c:582 interface_swd_add_transact_out():  0xBB, 0x08001443
Debug: 961 891 driver.c:582 interface_swd_add_transact_out():  0xBB, 0x08001445
Debug: 962 891 driver.c:582 interface_swd_add_transact_out():  0xBB, 0x08001447
Debug: 963 891 driver.c:582 interface_swd_add_transact_out():  0xBB, 0x08001449
Debug: 964 891 driver.c:582 interface_swd_add_transact_out():  0xBB, 0x0800144B
Debug: 965 891 driver.c:582 interface_swd_add_transact_out():  0xBB, 0x0800144D
Debug: 966 891 driver.c:582 interface_swd_add_transact_out():  0xBB, 0x0800144F
Debug: 967 891 driver.c:582 interface_swd_add_transact_out():  0xBB, 0x08001451
Debug: 968 891 driver.c:582 interface_swd_add_transact_out():  0xBB, 0x08001453
Debug: 969 891 driver.c:582 interface_swd_add_transact_out():  0xBB, 0x08001455
Debug: 970 891 driver.c:582 interface_swd_add_transact_out():  0xBB, 0x08001457
Debug: 971 891 driver.c:582 interface_swd_add_transact_out():  0xBB, 0x08001459
Debug: 972 891 driver.c:582 interface_swd_add_transact_out():  0xBB, 0x0800145B
Debug: 973 891 driver.c:582 interface_swd_add_transact_out():  0xBB, 0x0800145D
Debug: 974 891 driver.c:582 interface_swd_add_transact_out():  0xBB, 0x0800145F
Debug: 975 891 driver.c:582 interface_swd_add_transact_out():  0xBB, 0x08001461
Debug: 976 891 driver.c:582 interface_swd_add_transact_out():  0xBB, 0x08001463
Debug: 977 891 driver.c:582 interface_swd_add_transact_out():  0xBB, 0x08001465
Debug: 978 891 driver.c:582 interface_swd_add_transact_out():  0xBB, 0x08001467
Debug: 979 891 driver.c:582 interface_swd_add_transact_out():  0xBB, 0x08001469
Debug: 980 891 driver.c:582 interface_swd_add_transact_out():  0xBB, 0x0800146B
Debug: 981 891 driver.c:582 interface_swd_add_transact_out():  0xBB, 0x0800146D
Debug: 982 891 driver.c:582 interface_swd_add_transact_out():  0xBB, 0x0800146F
Debug: 983 891 driver.c:582 interface_swd_add_transact_out():  0xBB, 0x211F48A6
Debug: 984 891 driver.c:582 interface_swd_add_transact_out():  0xBB, 0x48A5E001
Debug: 985 891 driver.c:582 interface_swd_add_transact_out():  0xBB, 0x70012179
Debug: 986 891 driver.c:582 interface_swd_add_transact_out():  0xBB, 0xE22B2101
Debug: 987 891 driver.c:582 interface_swd_add_transact_out():  0xBB, 0x4605B5F8
Debug: 988 891 driver.c:582 interface_swd_add_transact_out():  0xBB, 0x46144608
Debug: 989 891 driver.c:582 interface_swd_add_transact_out():  0xBB, 0xBF2C2C02
Debug: 990 891 driver.c:582 interface_swd_add_transact_out():  0xBB, 0x26FF2600
Debug: 991 891 driver.c:582 interface_swd_add_transact_out():  0xBB, 0x1C614F9E
Debug: 992 891 driver.c:582 interface_swd_add_transact_out():  0xBB, 0x19C01A09
Debug: 993 891 driver.c:582 interface_swd_add_transact_out():  0xBB, 0xFA4CF000
Debug: 994 891 driver.c:582 interface_swd_add_transact_out():  0xBB, 0x2000B10D
Debug: 995 891 driver.c:582 interface_swd_add_transact_out():  0xBB, 0x20006028
Debug: 996 891 driver.c:582 interface_swd_add_transact_out():  0xBB, 0xB12DE009
Debug: 997 891 driver.c:582 interface_swd_add_transact_out():  0xBB, 0x02096829
Debug: 998 891 driver.c:582 interface_swd_add_transact_out():  0xBB, 0x5DC26029
Debug: 999 891 driver.c:582 interface_swd_add_transact_out():  0xBB, 0x60291851
Debug: 1000 891 driver.c:582 interface_swd_add_transact_out():  0xBB, 0x404E5DC1
Debug: 1001 891 driver.c:582 interface_swd_add_transact_out():  0xBB, 0x42A01C40
Debug: 1002 891 driver.c:582 interface_swd_add_transact_out():  0xBB, 0x5DE0D3F3
Debug: 1003 891 driver.c:582 interface_swd_add_transact_out():  0xBB, 0x0106EA80
Debug: 1004 891 driver.c:582 interface_swd_add_transact_out():  0xBB, 0xB100B2C8
Debug: 1005 891 driver.c:582 interface_swd_add_transact_out():  0xBB, 0xBDF22001
Debug: 1006 891 driver.c:582 interface_swd_add_transact_out():  0xBB, 0xF000B510
Debug: 1007 891 driver.c:582 interface_swd_add_transact_out():  0xBB, 0x210BF822
Debug: 1008 891 driver.c:582 interface_swd_add_transact_out():  0xBB, 0x21207041
Debug: 1009 891 driver.c:582 interface_swd_add_transact_out():  0xBB, 0x21007081
Debug: 1010 891 driver.c:582 interface_swd_add_transact_out():  0xBB, 0x180B4A07
Debug: 1011 891 driver.c:582 interface_swd_add_transact_out():  0xBB, 0x4031F812
Debug: 1012 891 driver.c:582 interface_swd_add_transact_out():  0xBB, 0x1C4970DC
Debug: 1013 891 driver.c:582 interface_swd_add_transact_out():  0xBB, 0xD3F8290B
Debug: 1014 891 driver.c:582 interface_swd_add_transact_out():  0xBB, 0x2379180A
Debug: 1015 891 driver.c:582 interface_swd_add_transact_out():  0xBB, 0x1D0970D3
Debug: 1016 891 driver.c:582 interface_swd_add_transact_out():  0xBB, 0xF9F0F000
Debug: 1017 891 driver.c:582 interface_swd_add_transact_out():  0xBB, 0xBD102000
Debug: 1018 891 driver.c:582 interface_swd_add_transact_out():  0xBB, 0x080016DC
Debug: 1019 891 driver.c:582 interface_swd_add_transact_out():  0xBB, 0xF000B580
Debug: 1020 891 driver.c:582 interface_swd_add_transact_out():  0xBB, 0x2120F808
Debug: 1021 891 driver.c:582 interface_swd_add_transact_out():  0xBB, 0x21007041
Debug: 1022 891 driver.c:582 interface_swd_add_transact_out():  0xBB, 0x21798041
Debug: 1023 891 driver.c:582 interface_swd_add_transact_out():  0xBB, 0x21057101
Debug: 1024 891 driver.c:582 interface_swd_add_transact_out():  0xBB, 0x487DE013
Debug: 1025 891 driver.c:582 interface_swd_add_transact_out():  0xBB, 0x70012179
Debug: 1026 891 driver.c:582 interface_swd_add_transact_out():  0xBB, 0xB5804770
Debug: 1027 891 driver.c:582 interface_swd_add_transact_out():  0xBB, 0xFFF9F7FF
Debug: 1028 891 driver.c:582 interface_swd_add_transact_out():  0xBB, 0x70412103
Debug: 1029 891 driver.c:582 interface_swd_add_transact_out():  0xBB, 0x70812106
Debug: 1030 891 driver.c:582 interface_swd_add_transact_out():  0xBB, 0x70C12141
Debug: 1031 891 driver.c:582 interface_swd_add_transact_out():  0xBB, 0x71012100
Debug: 1032 891 driver.c:582 interface_swd_add_transact_out():  0xBB, 0x71412141
Debug: 1033 891 driver.c:582 interface_swd_add_transact_out():  0xBB, 0x71812179
Debug: 1034 891 driver.c:582 interface_swd_add_transact_out():  0xBB, 0xF0002107
Debug: 1035 891 driver.c:582 interface_swd_add_transact_out():  0xBB, 0x2000F9CB
Debug: 1036 891 driver.c:582 interface_swd_add_transact_out():  0xBB, 0x0000BD02
Debug: 1037 891 driver.c:582 interface_swd_add_transact_out():  0xBB, 0xF7FFB510
Debug: 1038 891 driver.c:582 interface_swd_add_transact_out():  0xBB, 0xF000FF94
Debug: 1039 891 driver.c:582 interface_swd_add_transact_out():  0xBB, 0xB9D8F847
Debug: 1040 891 driver.c:582 interface_swd_add_transact_out():  0xBB, 0x490F6820
Debug: 1041 891 driver.c:582 interface_swd_add_transact_out():  0xBB, 0xD1174288
Debug: 1042 891 driver.c:582 interface_swd_add_transact_out():  0xBB, 0xFF8BF7FF
Debug: 1043 891 driver.c:582 interface_swd_add_transact_out():  0xBB, 0x21002201
Debug: 1044 891 driver.c:582 interface_swd_add_transact_out():  0xBB, 0xF7FF1D20
Debug: 1045 891 driver.c:582 interface_swd_add_transact_out():  0xBB, 0xB978FF8B
Debug: 1046 891 driver.c:582 interface_swd_add_transact_out():  0xBB, 0x28046860
Debug: 1047 891 driver.c:582 interface_swd_add_transact_out():  0xBB, 0xF7FFD20C
Debug: 1048 891 driver.c:582 interface_swd_add_transact_out():  0xBB, 0x2100FF80
Debug: 1049 891 driver.c:582 interface_swd_add_transact_out():  0xBB, 0x48646862
Debug: 1050 891 driver.c:582 interface_swd_add_transact_out():  0xBB, 0x5CCB6823
Debug: 1051 891 driver.c:582 interface_swd_add_transact_out():  0xBB, 0x1C49540B
Debug: 1052 891 driver.c:582 interface_swd_add_transact_out():  0xBB, 0xD2F9428A
Debug: 1053 891 driver.c:582 interface_swd_add_transact_out():  0xBB, 0xE7B31C51
Debug: 1054 891 driver.c:582 interface_swd_add_transact_out():  0xBB, 0xFF70F7FF
Debug: 1055 891 driver.c:582 interface_swd_add_transact_out():  0xBB, 0xBD102001
Debug: 1056 891 driver.c:582 interface_swd_add_transact_out():  0xBB, 0x1FFFF7E0
Debug: 1057 891 driver.c:582 interface_swd_add_transact_out():  0xBB, 0xF7FFB510
Debug: 1058 891 driver.c:582 interface_swd_add_transact_out():  0xBB, 0xF000FF6C
Debug: 1059 891 driver.c:582 interface_swd_add_transact_out():  0xBB, 0xB960F81F
Debug: 1060 891 driver.c:582 interface_swd_add_transact_out():  0xBB, 0xF1B06820
Debug: 1061 891 driver.c:582 interface_swd_add_transact_out():  0xBB, 0xD3026F00
Debug: 1062 891 driver.c:582 interface_swd_add_transact_out():  0xBB, 0x42884938
Debug: 1063 891 driver.c:582 interface_swd_add_transact_out():  0xBB, 0xF1B0D306
Debug: 1064 891 driver.c:582 interface_swd_add_transact_out():  0xBB, 0xD3065F00
Debug: 1065 891 driver.c:582 interface_swd_add_transact_out():  0xBB, 0x42884936
Debug: 1066 891 driver.c:582 interface_swd_add_transact_out():  0xBB, 0xE7E5D203
Debug: 1067 891 driver.c:582 interface_swd_add_transact_out():  0xBB, 0x42884954
Debug: 1068 891 driver.c:582 interface_swd_add_transact_out():  0xBB, 0xF7FFD1FB
Debug: 1069 891 driver.c:582 interface_swd_add_transact_out():  0xBB, 0xF000FF56
Debug: 1070 891 driver.c:582 interface_swd_add_transact_out():  0xBB, 0x6820F8B5
Debug: 1071 891 driver.c:582 interface_swd_add_transact_out():  0xBB, 0xF0016800
Debug: 1072 891 driver.c:582 interface_swd_add_transact_out():  0xBB, 0x6820FA07
Debug: 1073 891 driver.c:582 interface_swd_add_transact_out():  0xBB, 0x47806840
Debug: 1074 891 driver.c:582 interface_swd_add_transact_out():  0xBB, 0xBD102000
Debug: 1075 891 driver.c:582 interface_swd_add_transact_out():  0xBB, 0x22044C4B
Debug: 1076 891 driver.c:582 interface_swd_add_transact_out():  0xBB, 0x46202100
Debug: 1077 891 driver.c:582 interface_swd_add_transact_out():  0xBB, 0x0000E74A
Debug: 1078 891 driver.c:582 interface_swd_add_transact_out():  0xBB, 0xF7FFB570
Debug: 1079 891 driver.c:582 interface_swd_add_transact_out():  0xBB, 0xF7FFFF42
Debug: 1080 891 driver.c:582 interface_swd_add_transact_out():  0xBB, 0x2800FFF5
Debug: 1081 891 driver.c:582 interface_swd_add_transact_out():  0xBB, 0xF7FFD13F
Debug: 1082 891 driver.c:582 interface_swd_add_transact_out():  0xBB, 0x4D43FF3C
Debug: 1083 891 driver.c:582 interface_swd_add_transact_out():  0xBB, 0x46282101
Debug: 1084 891 driver.c:582 interface_swd_add_transact_out():  0xBB, 0xF996F000
Debug: 1085 891 driver.c:582 interface_swd_add_transact_out():  0xBB, 0x1C407828
Debug: 1086 891 driver.c:582 interface_swd_add_transact_out():  0xBB, 0xF0006060
Debug: 1087 891 driver.c:582 interface_swd_add_transact_out():  0xBB, 0xBB90F883
Debug: 1088 891 driver.c:582 interface_swd_add_transact_out():  0xBB, 0x493F6820
Debug: 1089 891 driver.c:582 interface_swd_add_transact_out():  0xBB, 0xD3284288
Debug: 1090 891 driver.c:582 interface_swd_add_transact_out():  0xBB, 0x4288491C
Debug: 1091 891 driver.c:582 interface_swd_add_transact_out():  0xBB, 0x2103D225
Debug: 1092 891 driver.c:582 interface_swd_add_transact_out():  0xBB, 0xD12C4208
Debug: 1093 891 driver.c:582 interface_swd_add_transact_out():  0xBB, 0x22FF6860
Debug: 1094 891 driver.c:582 interface_swd_add_transact_out():  0xBB, 0x1941E002
Debug: 1095 891 driver.c:582 interface_swd_add_transact_out():  0xBB, 0x1C40704A
Debug: 1096 891 driver.c:582 interface_swd_add_transact_out():  0xBB, 0x0103F010
Debug: 1097 891 driver.c:582 interface_swd_add_transact_out():  0xBB, 0x6060D1F9
Debug: 1098 891 driver.c:582 interface_swd_add_transact_out():  0xBB, 0x68602600
Debug: 1099 891 driver.c:582 interface_swd_add_transact_out():  0xBB, 0x0F90EBB6
Debug: 1100 891 driver.c:582 interface_swd_add_transact_out():  0xBB, 0x00B0D21D
Debug: 1101 891 driver.c:582 interface_swd_add_transact_out():  0xBB, 0x784A1941
Debug: 1102 891 driver.c:582 interface_swd_add_transact_out():  0xBB, 0xEB02788B
Debug: 1103 891 driver.c:582 interface_swd_add_transact_out():  0xBB, 0x78CB2203
Debug: 1104 891 driver.c:582 interface_swd_add_transact_out():  0xBB, 0x4203EB02
Debug: 1105 891 driver.c:582 interface_swd_add_transact_out():  0xBB, 0xEB027909
Debug: 1106 891 driver.c:582 interface_swd_add_transact_out():  0xBB, 0x68226101
Debug: 1107 891 driver.c:582 interface_swd_add_transact_out():  0xBB, 0xF0001880
Debug: 1108 891 driver.c:582 interface_swd_add_transact_out():  0xBB, 0x2804FAF8
Debug: 1109 891 driver.c:582 interface_swd_add_transact_out():  0xBB, 0x1C76D107
Debug: 1110 891 driver.c:582 interface_swd_add_transact_out():  0xBB, 0xF1B0E7E7
Debug: 1111 891 driver.c:582 interface_swd_add_transact_out():  0xBB, 0xD3035F00
Debug: 1112 891 driver.c:582 interface_swd_add_transact_out():  0xBB, 0x42884907
Debug: 1113 891 driver.c:582 interface_swd_add_transact_out():  0xBB, 0xE042D203
Debug: 1114 891 driver.c:582 interface_swd_add_transact_out():  0xBB, 0x42884903
Debug: 1115 891 driver.c:582 interface_swd_add_transact_out():  0xBB, 0xBF00D0FB
Debug: 1116 891 driver.c:582 interface_swd_add_transact_out():  0xBB, 0xFEF7F7FF
Debug: 1117 891 driver.c:582 interface_swd_add_transact_out():  0xBB, 0xBD702000
Debug: 1118 891 driver.c:582 interface_swd_add_transact_out():  0xBB, 0x1FFFF800
Debug: 1119 906 driver.c:582 interface_swd_add_transact_out():  0xBB, 0x08010000
Debug: 1120 906 driver.c:582 interface_swd_add_transact_out():  0xBB, 0x20005000
Debug: 1121 906 driver.c:582 interface_swd_add_transact_out():  0xBB, 0xF7FFB570
Debug: 1122 906 driver.c:582 interface_swd_add_transact_out():  0xBB, 0x4C1BFEEC
Debug: 1123 906 driver.c:582 interface_swd_add_transact_out():  0xBB, 0x46202101
Debug: 1124 906 driver.c:582 interface_swd_add_transact_out():  0xBB, 0xF946F000
Debug: 1125 906 driver.c:582 interface_swd_add_transact_out():  0xBB, 0x4D197820
Debug: 1126 906 driver.c:582 interface_swd_add_transact_out():  0xBB, 0x28FF6068
Debug: 1127 906 driver.c:582 interface_swd_add_transact_out():  0xBB, 0x2101D111
Debug: 1128 906 driver.c:582 interface_swd_add_transact_out():  0xBB, 0xF0004620
Debug: 1129 906 driver.c:582 interface_swd_add_transact_out():  0xBB, 0x7820F93D
Debug: 1130 906 driver.c:582 interface_swd_add_transact_out():  0xBB, 0x2600BB00
Debug: 1131 906 driver.c:582 interface_swd_add_transact_out():  0xBB, 0xEB004814
Debug: 1132 906 driver.c:582 interface_swd_add_transact_out():  0xBB, 0xF0002086
Debug: 1133 906 driver.c:582 interface_swd_add_transact_out():  0xBB, 0x2804FAA8
Debug: 1134 906 driver.c:582 interface_swd_add_transact_out():  0xBB, 0x1C76D119
Debug: 1135 906 driver.c:582 interface_swd_add_transact_out():  0xBB, 0xD2152E39
Debug: 1136 906 driver.c:582 interface_swd_add_transact_out():  0xBB, 0x1C40E7F4
Debug: 1137 906 driver.c:582 interface_swd_add_transact_out():  0xBB, 0xF0006068
Debug: 1138 906 driver.c:582 interface_swd_add_transact_out():  0xBB, 0xB980F81D
Debug: 1139 906 driver.c:582 interface_swd_add_transact_out():  0xBB, 0xE00A2601
Debug: 1140 906 driver.c:582 interface_swd_add_transact_out():  0xBB, 0x28085D30
Debug: 1141 906 driver.c:582 interface_swd_add_transact_out():  0xBB, 0x0280D306
Debug: 1142 906 driver.c:582 interface_swd_add_transact_out():  0xBB, 0x6000F100
Debug: 1143 906 driver.c:582 interface_swd_add_transact_out():  0xBB, 0xFA93F000
Debug: 1144 906 driver.c:582 interface_swd_add_transact_out():  0xBB, 0xD1042804
Debug: 1145 906 driver.c:582 interface_swd_add_transact_out():  0xBB, 0x68681C76
Debug: 1146 906 driver.c:582 interface_swd_add_transact_out():  0xBB, 0xD2F142B0
Debug: 1147 906 driver.c:582 interface_swd_add_transact_out():  0xBB, 0xF7FFE7C0
Debug: 1148 906 driver.c:582 interface_swd_add_transact_out():  0xBB, 0x2001FEB5
Debug: 1149 906 driver.c:582 interface_swd_add_transact_out():  0xBB, 0x0000BD70
Debug: 1150 906 driver.c:582 interface_swd_add_transact_out():  0xBB, 0x20000400
Debug: 1151 906 driver.c:582 interface_swd_add_transact_out():  0xBB, 0x2000054C
Debug: 1152 906 driver.c:582 interface_swd_add_transact_out():  0xBB, 0x08002000
Debug: 1153 906 driver.c:582 interface_swd_add_transact_out():  0xBB, 0x21011C42
Debug: 1154 906 driver.c:582 interface_swd_add_transact_out():  0xBB, 0xE6AF2000
Debug: 1155 906 driver.c:582 interface_swd_add_transact_out():  0xBB, 0xE000B580
Debug: 1156 906 driver.c:582 interface_swd_add_transact_out():  0xBB, 0xF7FFB580
Debug: 1157 906 driver.c:582 interface_swd_add_transact_out():  0xBB, 0x2001FEA3
Debug: 1158 906 driver.c:582 interface_swd_add_transact_out():  0xBB, 0xB580BD02
Debug: 1159 906 driver.c:582 interface_swd_add_transact_out():  0xBB, 0xB580E7F9
Debug: 1160 906 driver.c:582 interface_swd_add_transact_out():  0xBB, 0x0000E7F7
Debug: 1161 906 driver.c:582 interface_swd_add_transact_out():  0xBB, 0x4819B538
Debug: 1162 906 driver.c:582 interface_swd_add_transact_out():  0xBB, 0x80012100
Debug: 1163 906 driver.c:582 interface_swd_add_transact_out():  0xBB, 0x60014818
Debug: 1164 906 driver.c:582 interface_swd_add_transact_out():  0xBB, 0xF988F000
Debug: 1165 906 driver.c:582 interface_swd_add_transact_out():  0xBB, 0x21036041
Debug: 1166 906 driver.c:582 interface_swd_add_transact_out():  0xBB, 0x4C136001
Debug: 1167 906 driver.c:582 interface_swd_add_transact_out():  0xBB, 0x5580F44F
Debug: 1168 906 driver.c:582 interface_swd_add_transact_out():  0xBB, 0x220C6165
Debug: 1169 906 driver.c:582 interface_swd_add_transact_out():  0xBB, 0xF82FF000
Debug: 1170 906 driver.c:582 interface_swd_add_transact_out():  0xBB, 0xF000200A
Debug: 1171 906 driver.c:582 interface_swd_add_transact_out():  0xBB, 0x6125F900
Debug: 1172 906 driver.c:582 interface_swd_add_transact_out():  0xBB, 0x2104220D
Debug: 1173 906 driver.c:582 interface_swd_add_transact_out():  0xBB, 0xF000480F
Debug: 1174 906 driver.c:582 interface_swd_add_transact_out():  0xBB, 0x480FF891
Debug: 1175 906 driver.c:582 interface_swd_add_transact_out():  0xBB, 0x60012101
Debug: 1176 906 driver.c:582 interface_swd_add_transact_out():  0xBB, 0x22064C0E
Debug: 1177 906 driver.c:582 interface_swd_add_transact_out():  0xBB, 0xF81EF000
Debug: 1178 906 driver.c:582 interface_swd_add_transact_out():  0xBB, 0xF0002207
Debug: 1179 906 driver.c:582 interface_swd_add_transact_out():  0xBB, 0x480CF81B
Debug: 1180 906 driver.c:582 interface_swd_add_transact_out():  0xBB, 0xF0216801
Debug: 1181 906 driver.c:582 interface_swd_add_transact_out():  0xBB, 0x6001011D
Debug: 1182 906 driver.c:582 interface_swd_add_transact_out():  0xBB, 0xF04F2100
Debug: 1183 906 driver.c:582 interface_swd_add_transact_out():  0xBB, 0xF00050C4
Debug: 1184 906 driver.c:582 interface_swd_add_transact_out():  0xBB, 0xE8BDFACD
Debug: 1185 906 driver.c:582 interface_swd_add_transact_out():  0xBB, 0xE2AD4031
Debug: 1186 906 driver.c:582 interface_swd_add_transact_out():  0xBB, 0x40010800
Debug: 1187 906 driver.c:582 interface_swd_add_transact_out():  0xBB, 0x40006C04
Debug: 1188 906 driver.c:582 interface_swd_add_transact_out():  0xBB, 0x420E0020
Debug: 1189 906 driver.c:582 interface_swd_add_transact_out():  0xBB, 0x40011000
Debug: 1190 906 driver.c:582 interface_swd_add_transact_out():  0xBB, 0x420D8600
Debug: 1191 906 driver.c:582 interface_swd_add_transact_out():  0xBB, 0x40010C00
Debug: 1192 906 driver.c:582 interface_swd_add_transact_out():  0xBB, 0x40021018
Debug: 1193 906 driver.c:582 interface_swd_add_transact_out():  0xBB, 0x46202104
Debug: 1194 906 driver.c:582 interface_swd_add_transact_out():  0xBB, 0x0000E068
Debug: 1195 906 driver.c:582 interface_swd_add_transact_out():  0xBB, 0xF000B538
Debug: 1196 906 driver.c:582 interface_swd_add_transact_out():  0xBB, 0xF8DFFA99
Debug: 1197 906 driver.c:582 interface_swd_add_transact_out():  0xBB, 0x682045A8
Debug: 1198 906 driver.c:582 interface_swd_add_transact_out():  0xBB, 0x3080F420
Debug: 1199 906 driver.c:582 interface_swd_add_transact_out():  0xBB, 0x68206020
Debug: 1200 906 driver.c:582 interface_swd_add_transact_out():  0xBB, 0x2080F420
Debug: 1201 906 driver.c:582 interface_swd_add_transact_out():  0xBB, 0x68206020
Debug: 1202 906 driver.c:582 interface_swd_add_transact_out():  0xBB, 0x3080F440
Debug: 1203 906 driver.c:582 interface_swd_add_transact_out():  0xBB, 0x20006020
Debug: 1204 906 driver.c:582 interface_swd_add_transact_out():  0xBB, 0x20319000
Debug: 1205 906 driver.c:582 interface_swd_add_transact_out():  0xBB, 0xFAAEF000
Debug: 1206 906 driver.c:582 interface_swd_add_transact_out():  0xBB, 0x1C499900
Debug: 1207 906 driver.c:582 interface_swd_add_transact_out():  0xBB, 0xB9189100
Debug: 1208 906 driver.c:582 interface_swd_add_transact_out():  0xBB, 0xF5B09800
Debug: 1209 906 driver.c:582 interface_swd_add_transact_out():  0xBB, 0xD1F46FA0
Debug: 1210 906 driver.c:582 interface_swd_add_transact_out():  0xBB, 0x20314D22
Debug: 1211 906 driver.c:582 interface_swd_add_transact_out():  0xBB, 0xFAA2F000
Debug: 1212 906 driver.c:582 interface_swd_add_transact_out():  0xBB, 0x4821B3B8
Debug: 1213 906 driver.c:582 interface_swd_add_transact_out():  0xBB, 0xF0216801
Debug: 1214 906 driver.c:582 interface_swd_add_transact_out():  0xBB, 0x60010110
Debug: 1215 906 driver.c:582 interface_swd_add_transact_out():  0xBB, 0xF0416801
Debug: 1216 906 driver.c:582 interface_swd_add_transact_out():  0xBB, 0x60010110
Debug: 1217 906 driver.c:582 interface_swd_add_transact_out():  0xBB, 0xF0016801
Debug: 1218 906 driver.c:582 interface_swd_add_transact_out():  0xBB, 0x60010138
Debug: 1219 906 driver.c:582 interface_swd_add_transact_out():  0xBB, 0xF0416801
Debug: 1220 906 driver.c:582 interface_swd_add_transact_out():  0xBB, 0x60010102
Debug: 1221 906 driver.c:582 interface_swd_add_transact_out():  0xBB, 0xF0206860
Debug: 1222 906 driver.c:582 interface_swd_add_transact_out():  0xBB, 0x606000F0
Debug: 1223 906 driver.c:582 interface_swd_add_transact_out():  0xBB, 0xF4206860
Debug: 1224 906 driver.c:582 interface_swd_add_transact_out():  0xBB, 0x60605060
Debug: 1225 906 driver.c:582 interface_swd_add_transact_out():  0xBB, 0xF4206860
Debug: 1226 906 driver.c:582 interface_swd_add_transact_out():  0xBB, 0xF44060E0
Debug: 1227 906 driver.c:582 interface_swd_add_transact_out():  0xBB, 0x60606080
Debug: 1228 906 driver.c:582 interface_swd_add_transact_out():  0xBB, 0xF4206860
Debug: 1229 906 driver.c:582 interface_swd_add_transact_out():  0xBB, 0xF440107C
Debug: 1230 906 driver.c:582 interface_swd_add_transact_out():  0xBB, 0x60601088
Debug: 1231 906 driver.c:582 interface_swd_add_transact_out():  0xBB, 0x60282001
Debug: 1232 906 driver.c:582 interface_swd_add_transact_out():  0xBB, 0xF0002039
Debug: 1233 906 driver.c:582 interface_swd_add_transact_out():  0xBB, 0x2800FA77
Debug: 1234 906 driver.c:582 interface_swd_add_transact_out():  0xBB, 0x6860D0FA
Debug: 1235 906 driver.c:582 interface_swd_add_transact_out():  0xBB, 0x00800880
Debug: 1236 906 driver.c:582 interface_swd_add_transact_out():  0xBB, 0x0002F040
Debug: 1237 906 driver.c:582 interface_swd_add_transact_out():  0xBB, 0x68606060
Debug: 1238 906 driver.c:582 interface_swd_add_transact_out():  0xBB, 0x000CF000
Debug: 1239 906 driver.c:582 interface_swd_add_transact_out():  0xBB, 0x28020880
Debug: 1240 906 driver.c:582 interface_swd_add_transact_out():  0xBB, 0x2000D1F9
Debug: 1241 906 driver.c:582 interface_swd_add_transact_out():  0xBB, 0x210167A8
Debug: 1242 906 driver.c:582 interface_swd_add_transact_out():  0xBB, 0x0000F44F
Debug: 1243 906 driver.c:582 interface_swd_add_transact_out():  0xBB, 0x4034E8BD
Debug: 1244 906 driver.c:582 interface_swd_add_transact_out():  0xBB, 0xBF00E254
Debug: 1245 906 driver.c:582 interface_swd_add_transact_out():  0xBB, 0x42420060
Debug: 1246 906 driver.c:582 interface_swd_add_transact_out():  0xBB, 0x40022000
Debug: 1247 906 driver.c:582 interface_swd_add_transact_out():  0xBB, 0xF001B570
Debug: 1248 906 driver.c:582 interface_swd_add_transact_out():  0xBB, 0x240F030F
Debug: 1249 906 driver.c:582 interface_swd_add_transact_out():  0xBB, 0xD2052A08
Debug: 1250 906 driver.c:582 interface_swd_add_transact_out():  0xBB, 0x68060095
Debug: 1251 906 driver.c:582 interface_swd_add_transact_out():  0xBB, 0xF814F000
Debug: 1252 906 driver.c:582 interface_swd_add_transact_out():  0xBB, 0xE0066003
Debug: 1253 906 driver.c:582 interface_swd_add_transact_out():  0xBB, 0x05F8F102
Debug: 1254 906 driver.c:582 interface_swd_add_transact_out():  0xBB, 0x684600AD
Debug: 1255 906 driver.c:582 interface_swd_add_transact_out():  0xBB, 0xF80CF000
Debug: 1256 906 driver.c:582 interface_swd_add_transact_out():  0xBB, 0x068B6043
Debug: 1257 906 driver.c:582 interface_swd_add_transact_out():  0xBB, 0x2301D507
Debug: 1258 906 driver.c:582 interface_swd_add_transact_out():  0xBB, 0xF202FA03
Debug: 1259 906 driver.c:582 interface_swd_add_transact_out():  0xBB, 0xD50106C9
Debug: 1260 906 driver.c:582 interface_swd_add_transact_out():  0xBB, 0xBD706102
Debug: 1261 906 driver.c:582 interface_swd_add_transact_out():  0xBB, 0xBD706142
Debug: 1262 906 driver.c:582 interface_swd_add_transact_out():  0xBB, 0xEA2640AC
Debug: 1263 906 driver.c:582 interface_swd_add_transact_out():  0xBB, 0x40AB0404
Debug: 1264 906 driver.c:582 interface_swd_add_transact_out():  0xBB, 0x47704323
Debug: 1265 906 driver.c:582 interface_swd_add_transact_out():  0xBB, 0x4604B5F8
Debug: 1266 906 driver.c:582 interface_swd_add_transact_out():  0xBB, 0x2600460D
Debug: 1267 906 driver.c:582 interface_swd_add_transact_out():  0xBB, 0x42AE4F38
Debug: 1268 906 driver.c:582 interface_swd_add_transact_out():  0xBB, 0x1BA8D21A
Debug: 1269 906 driver.c:582 interface_swd_add_transact_out():  0xBB, 0xD3002841
Debug: 1270 906 driver.c:582 interface_swd_add_transact_out():  0xBB, 0x60382040
Debug: 1271 906 driver.c:582 interface_swd_add_transact_out():  0xBB, 0xB292683A
Debug: 1272 906 driver.c:582 interface_swd_add_transact_out():  0xBB, 0x193021C0
Debug: 1273 906 driver.c:582 interface_swd_add_transact_out():  0xBB, 0xFE5AF000
Debug: 1274 906 driver.c:582 interface_swd_add_transact_out():  0xBB, 0x19866838
Debug: 1275 906 driver.c:582 interface_swd_add_transact_out():  0xBB, 0xB2896839
Debug: 1276 906 driver.c:582 interface_swd_add_transact_out():  0xBB, 0xF0002001
Debug: 1277 906 driver.c:582 interface_swd_add_transact_out():  0xBB, 0x2001FEE1
Debug: 1278 906 driver.c:582 interface_swd_add_transact_out():  0xBB, 0xFEA8F000
Debug: 1279 906 driver.c:582 interface_swd_add_transact_out():  0xBB, 0x28006838
Debug: 1280 906 driver.c:582 interface_swd_add_transact_out():  0xBB, 0xF000D0E5
Debug: 1281 906 driver.c:582 interface_swd_add_transact_out():  0xBB, 0xE7F9F857
Debug: 1282 906 driver.c:582 interface_swd_add_transact_out():  0xBB, 0x4205203F
Debug: 1283 906 driver.c:582 interface_swd_add_transact_out():  0xBB, 0x2100D106
Debug: 1284 906 driver.c:582 interface_swd_add_transact_out():  0xBB, 0xF0002001
Debug: 1285 906 driver.c:582 interface_swd_add_transact_out():  0xBB, 0x2001FED1
Debug: 1286 906 driver.c:582 interface_swd_add_transact_out():  0xBB, 0xFE98F000
Debug: 1287 906 driver.c:582 interface_swd_add_transact_out():  0xBB, 0xBDF22000
Debug: 1288 906 driver.c:582 interface_swd_add_transact_out():  0xBB, 0x4605B570
Debug: 1289 906 driver.c:582 interface_swd_add_transact_out():  0xBB, 0x4E1F000C
Debug: 1290 906 driver.c:582 interface_swd_add_transact_out():  0xBB, 0xF000E00E
Debug: 1291 906 driver.c:582 interface_swd_add_transact_out():  0xBB, 0x6C30F843
Debug: 1292 906 driver.c:582 interface_swd_add_transact_out():  0xBB, 0xD0FA2800
Debug: 1293 906 driver.c:582 interface_swd_add_transact_out():  0xBB, 0x1C416C70
Debug: 1294 906 driver.c:582 interface_swd_add_transact_out():  0xBB, 0x5D806471
Debug: 1295 906 driver.c:582 interface_swd_add_transact_out():  0xBB, 0x0B01F805
Debug: 1296 906 driver.c:582 interface_swd_add_transact_out():  0xBB, 0x1E406C30
Debug: 1297 906 driver.c:582 interface_swd_add_transact_out():  0xBB, 0x1E646430
Debug: 1298 906 driver.c:582 interface_swd_add_transact_out():  0xBB, 0x2000D1F1
Debug: 1299 906 driver.c:582 interface_swd_add_transact_out():  0xBB, 0xB081BD70
Debug: 1300 906 driver.c:582 interface_swd_add_transact_out():  0xBB, 0x717AF44F
Debug: 1301 906 driver.c:582 interface_swd_add_transact_out():  0xBB, 0x90004348
Debug: 1302 906 driver.c:582 interface_swd_add_transact_out():  0xBB, 0x00C09800
Debug: 1303 906 driver.c:582 interface_swd_add_transact_out():  0xBB, 0x98009000
Debug: 1304 906 driver.c:582 interface_swd_add_transact_out():  0xBB, 0x91001E41
Debug: 1305 906 driver.c:582 interface_swd_add_transact_out():  0xBB, 0xD1FA2800
Debug: 1306 906 driver.c:582 interface_swd_add_transact_out():  0xBB, 0x4770B001
Debug: 1307 906 driver.c:582 interface_swd_add_transact_out():  0xBB, 0x480DB580
Debug: 1308 906 driver.c:582 interface_swd_add_transact_out():  0xBB, 0xB9996C01
Debug: 1309 906 driver.c:582 interface_swd_add_transact_out():  0xBB, 0xF8DF6441
Debug: 1310 906 driver.c:582 interface_swd_add_transact_out():  0xBB, 0x6809181C
Debug: 1311 906 driver.c:582 interface_swd_add_transact_out():  0xBB, 0x4A08B289
Debug: 1312 906 driver.c:582 interface_swd_add_transact_out():  0xBB, 0x1011F852
Debug: 1313 906 driver.c:582 interface_swd_add_transact_out():  0xBB, 0x0D890589
Debug: 1314 906 driver.c:582 interface_swd_add_transact_out():  0xBB, 0x6C026401
Debug: 1315 906 driver.c:582 interface_swd_add_transact_out():  0xBB, 0xF44FB292
Debug: 1316 906 driver.c:582 interface_swd_add_transact_out():  0xBB, 0xF0007188
Debug: 1317 906 driver.c:582 interface_swd_add_transact_out():  0xBB, 0x2003FE19
Debug: 1318 906 driver.c:582 interface_swd_add_transact_out():  0xBB, 0xFE64F000
Debug: 1319 906 driver.c:582 interface_swd_add_transact_out():  0xBB, 0xBF00BD01
Debug: 1320 906 driver.c:582 interface_swd_add_transact_out():  0xBB, 0x4000603C
Debug: 1321 906 driver.c:582 interface_swd_add_transact_out():  0xBB, 0x20000504
Debug: 1322 906 driver.c:582 interface_swd_add_transact_out():  0xBB, 0x21004801
Debug: 1323 906 driver.c:582 interface_swd_add_transact_out():  0xBB, 0x47706001
Debug: 1324 906 driver.c:582 interface_swd_add_transact_out():  0xBB, 0x20000554
Debug: 1325 906 driver.c:582 interface_swd_add_transact_out():  0xBB, 0xF8DFB538
Debug: 1326 906 driver.c:582 interface_swd_add_transact_out():  0xBB, 0x4D104634
Debug: 1327 906 driver.c:582 interface_swd_add_transact_out():  0xBB, 0x82206828
Debug: 1328 906 driver.c:582 interface_swd_add_transact_out():  0xBB, 0x8A618A20
Debug: 1329 906 driver.c:582 interface_swd_add_transact_out():  0xBB, 0x05404008
Debug: 1330 906 driver.c:582 interface_swd_add_transact_out():  0xBB, 0xF64FD505
Debug: 1331 906 driver.c:582 interface_swd_add_transact_out():  0xBB, 0x602830FF
Debug: 1332 906 driver.c:582 interface_swd_add_transact_out():  0xBB, 0x68404854
Debug: 1333 906 driver.c:582 interface_swd_add_transact_out():  0xBB, 0x8A604780
Debug: 1334 906 driver.c:582 interface_swd_add_transact_out():  0xBB, 0x40018A21
Debug: 1335 906 driver.c:582 interface_swd_add_transact_out():  0xBB, 0xD5050589
Debug: 1336 906 driver.c:582 interface_swd_add_transact_out():  0xBB, 0x51FFF64F
Debug: 1337 906 driver.c:582 interface_swd_add_transact_out():  0xBB, 0x79216029
Debug: 1338 906 driver.c:582 interface_swd_add_transact_out():  0xBB, 0x71211C49
Debug: 1339 906 driver.c:582 interface_swd_add_transact_out():  0xBB, 0x40088A21
Debug: 1340 906 driver.c:582 interface_swd_add_transact_out():  0xBB, 0xD5010400
Debug: 1341 906 driver.c:582 interface_swd_add_transact_out():  0xBB, 0xFD02F000
Debug: 1342 906 driver.c:582 interface_swd_add_transact_out():  0xBB, 0xBF00BD31
Debug: 1343 906 driver.c:582 interface_swd_add_transact_out():  0xBB, 0x40005C44
Debug: 1344 906 driver.c:582 interface_swd_add_transact_out():  0xBB, 0xF000B510
Debug: 1345 906 driver.c:582 interface_swd_add_transact_out():  0xBB, 0x2100FBCB
Debug: 1346 906 driver.c:582 interface_swd_add_transact_out():  0xBB, 0xF0007281
Debug: 1347 906 driver.c:582 interface_swd_add_transact_out():  0xBB, 0x6001F81B
Debug: 1348 906 driver.c:582 interface_swd_add_transact_out():  0xBB, 0xF44F6041
Debug: 1349 906 driver.c:582 interface_swd_add_transact_out():  0xBB, 0x600151E0
Debug: 1350 906 driver.c:582 interface_swd_add_transact_out():  0xBB, 0x60412100
Debug: 1351 906 driver.c:582 interface_swd_add_transact_out():  0xBB, 0x4106F44F
Debug: 1352 906 driver.c:582 interface_swd_add_transact_out():  0xBB, 0x60018261
Debug: 1353 906 driver.c:582 interface_swd_add_transact_out():  0xBB, 0x21C069A0
Debug: 1354 906 driver.c:582 interface_swd_add_transact_out():  0xBB, 0xE0017241
Debug: 1355 906 driver.c:582 interface_swd_add_transact_out():  0xBB, 0xFFC2F7FF
Debug: 1356 906 driver.c:582 interface_swd_add_transact_out():  0xBB, 0x7A8069A0
Debug: 1357 906 driver.c:582 interface_swd_add_transact_out():  0xBB, 0xD0F92800
Debug: 1358 906 driver.c:582 interface_swd_add_transact_out():  0xBB, 0x71A02000
Debug: 1359 906 driver.c:582 interface_swd_add_transact_out():  0xBB, 0x71E02005
Debug: 1360 906 driver.c:582 interface_swd_add_transact_out():  0xBB, 0x0000BD10
Debug: 1361 906 driver.c:582 interface_swd_add_transact_out():  0xBB, 0x21014802
Debug: 1362 906 driver.c:582 interface_swd_add_transact_out():  0xBB, 0x21006001
Debug: 1363 906 driver.c:582 interface_swd_add_transact_out():  0xBB, 0xBF004770
Debug: 1364 906 driver.c:582 interface_swd_add_transact_out():  0xBB, 0x40005C40
Debug: 1365 906 driver.c:582 interface_swd_add_transact_out():  0xBB, 0xF8DFB510
Debug: 1366 906 driver.c:582 interface_swd_add_transact_out():  0xBB, 0x69810594
Debug: 1367 906 driver.c:582 interface_swd_add_transact_out():  0xBB, 0x728A2200
Debug: 1368 906 driver.c:582 interface_swd_add_transact_out():  0xBB, 0x72C26980
Debug: 1369 906 driver.c:582 interface_swd_add_transact_out():  0xBB, 0x4C14F8DF
Debug: 1370 906 driver.c:582 interface_swd_add_transact_out():  0xBB, 0x65202000
Debug: 1371 906 driver.c:582 interface_swd_add_transact_out():  0xBB, 0x7100F44F
Debug: 1372 906 driver.c:582 interface_swd_add_transact_out():  0xBB, 0xFDBAF000
Debug: 1373 906 driver.c:582 interface_swd_add_transact_out():  0xBB, 0x20002110
Debug: 1374 906 driver.c:582 interface_swd_add_transact_out():  0xBB, 0xFDC0F000
Debug: 1375 906 driver.c:582 interface_swd_add_transact_out():  0xBB, 0x20002140
Debug: 1376 906 driver.c:582 interface_swd_add_transact_out():  0xBB, 0xFE0AF000
Debug: 1377 906 driver.c:582 interface_swd_add_transact_out():  0xBB, 0x20002180
Debug: 1378 906 driver.c:582 interface_swd_add_transact_out():  0xBB, 0xFDFAF000
Debug: 1379 906 driver.c:582 interface_swd_add_transact_out():  0xBB, 0xF6486820
Debug: 1380 906 driver.c:582 interface_swd_add_transact_out():  0xBB, 0x4008618F
Debug: 1381 906 driver.c:582 interface_swd_add_transact_out():  0xBB, 0x48236020
Debug: 1382 906 driver.c:582 interface_swd_add_transact_out():  0xBB, 0x102CF890
Debug: 1383 906 driver.c:582 interface_swd_add_transact_out():  0xBB, 0xF0002000
Debug: 1384 906 driver.c:582 interface_swd_add_transact_out():  0xBB, 0x2000FE17
Debug: 1385 906 driver.c:582 interface_swd_add_transact_out():  0xBB, 0xFDDEF000
Debug: 1386 906 driver.c:582 interface_swd_add_transact_out():  0xBB, 0x20012100
Debug: 1387 906 driver.c:582 interface_swd_add_transact_out():  0xBB, 0xFD9CF000
Debug: 1388 906 driver.c:582 interface_swd_add_transact_out():  0xBB, 0x200121C0
Debug: 1389 906 driver.c:582 interface_swd_add_transact_out():  0xBB, 0xFDE4F000
Debug: 1390 906 driver.c:582 interface_swd_add_transact_out():  0xBB, 0x20012120
Debug: 1391 906 driver.c:582 interface_swd_add_transact_out():  0xBB, 0xFD9EF000
Debug: 1392 906 driver.c:582 interface_swd_add_transact_out():  0xBB, 0x20012100
Debug: 1393 906 driver.c:582 interface_swd_add_transact_out():  0xBB, 0xFDB0F000
Debug: 1394 906 driver.c:582 interface_swd_add_transact_out():  0xBB, 0x61C0F44F
Debug: 1395 906 driver.c:582 interface_swd_add_transact_out():  0xBB, 0xF0002002
Debug: 1396 906 driver.c:582 interface_swd_add_transact_out():  0xBB, 0xF44FFD8B
Debug: 1397 906 driver.c:582 interface_swd_add_transact_out():  0xBB, 0x20027180
Debug: 1398 906 driver.c:582 interface_swd_add_transact_out():  0xBB, 0xFDD2F000
Debug: 1399 906 driver.c:582 interface_swd_add_transact_out():  0xBB, 0x20022100
Debug: 1400 906 driver.c:582 interface_swd_add_transact_out():  0xBB, 0xFDA2F000
Debug: 1401 906 driver.c:582 interface_swd_add_transact_out():  0xBB, 0x20022120
Debug: 1402 906 driver.c:582 interface_swd_add_transact_out():  0xBB, 0xFD88F000
Debug: 1403 906 driver.c:582 interface_swd_add_transact_out():  0xBB, 0x20032100
Debug: 1404 906 driver.c:582 interface_swd_add_transact_out():  0xBB, 0xFD7AF000
Debug: 1405 906 driver.c:582 interface_swd_add_transact_out():  0xBB, 0x7188F44F
Debug: 1406 906 driver.c:582 interface_swd_add_transact_out():  0xBB, 0xF0002003
Debug: 1407 906 driver.c:582 interface_swd_add_transact_out():  0xBB, 0x2140FDCD
Debug: 1408 906 driver.c:582 interface_swd_add_transact_out():  0xBB, 0xF0002003
Debug: 1409 906 driver.c:582 interface_swd_add_transact_out():  0xBB, 0xF44FFDE5
Debug: 1410 906 driver.c:582 interface_swd_add_transact_out():  0xBB, 0x20035140
Debug: 1411 906 driver.c:582 interface_swd_add_transact_out():  0xBB, 0xFD8CF000
Debug: 1412 906 driver.c:582 interface_swd_add_transact_out():  0xBB, 0x20032100
Debug: 1413 906 driver.c:582 interface_swd_add_transact_out():  0xBB, 0xFD72F000
Debug: 1414 906 driver.c:582 interface_swd_add_transact_out():  0xBB, 0xE8BD2000
Debug: 1415 906 driver.c:582 interface_swd_add_transact_out():  0xBB, 0xF0004010
Debug: 1416 906 driver.c:582 interface_swd_add_transact_out():  0xBB, 0x0000BC4D
Debug: 1417 906 driver.c:582 interface_swd_add_transact_out():  0xBB, 0x2000061C
Debug: 1418 906 driver.c:582 interface_swd_add_transact_out():  0xBB, 0x04C0F8DF
Debug: 1419 906 driver.c:582 interface_swd_add_transact_out():  0xBB, 0x29207941
Debug: 1420 906 driver.c:582 interface_swd_add_transact_out():  0xBB, 0x2100D101
Debug: 1421 906 driver.c:582 interface_swd_add_transact_out():  0xBB, 0x47707141
Debug: 1422 906 driver.c:582 interface_swd_add_transact_out():  0xBB, 0x00004770
Debug: 1423 906 driver.c:582 interface_swd_add_transact_out():  0xBB, 0x2100B580
Debug: 1424 906 driver.c:582 interface_swd_add_transact_out():  0xBB, 0x24A8F8DF
Debug: 1425 906 driver.c:582 interface_swd_add_transact_out():  0xBB, 0x28216993
Debug: 1426 906 driver.c:582 interface_swd_add_transact_out():  0xBB, 0x7818D106
Debug: 1427 906 driver.c:582 interface_swd_add_transact_out():  0xBB, 0x007FF000
Debug: 1428 906 driver.c:582 interface_swd_add_transact_out():  0xBB, 0xD10D2821
Debug: 1429 906 driver.c:582 interface_swd_add_transact_out():  0xBB, 0xE009490A
Debug: 1430 906 driver.c:582 interface_swd_add_transact_out():  0xBB, 0xD1092820
Debug: 1431 906 driver.c:582 interface_swd_add_transact_out():  0xBB, 0xF0007818
Debug: 1432 906 driver.c:582 interface_swd_add_transact_out():  0xBB, 0x2821007F
Debug: 1433 906 driver.c:582 interface_swd_add_transact_out():  0xBB, 0x4907D100
Debug: 1434 906 driver.c:582 interface_swd_add_transact_out():  0xBB, 0x71502020
Debug: 1435 906 driver.c:582 interface_swd_add_transact_out():  0xBB, 0xD1010008
Debug: 1436 906 driver.c:582 interface_swd_add_transact_out():  0xBB, 0xBD022002
Debug: 1437 906 driver.c:582 interface_swd_add_transact_out():  0xBB, 0x20006199
Debug: 1438 906 driver.c:582 interface_swd_add_transact_out():  0xBB, 0x47888258
Debug: 1439 906 driver.c:582 interface_swd_add_transact_out():  0xBB, 0xBD022000
Debug: 1440 906 driver.c:582 interface_swd_add_transact_out():  0xBB, 0x080008B5
Debug: 1441 906 driver.c:582 interface_swd_add_transact_out():  0xBB, 0x080008C1
Debug: 1442 906 driver.c:582 interface_swd_add_transact_out():  0xBB, 0x1460F8DF
Debug: 1443 906 driver.c:582 interface_swd_add_transact_out():  0xBB, 0x7813698A
Debug: 1444 906 driver.c:582 interface_swd_add_transact_out():  0xBB, 0x037FF003
Debug: 1445 906 driver.c:582 interface_swd_add_transact_out():  0xBB, 0xD1082B21
Debug: 1446 906 driver.c:582 interface_swd_add_transact_out():  0xBB, 0xD1012802
Debug: 1447 906 driver.c:582 interface_swd_add_transact_out():  0xBB, 0x47702000
Debug: 1448 906 driver.c:582 interface_swd_add_transact_out():  0xBB, 0xD1022822
Debug: 1449 906 driver.c:582 interface_swd_add_transact_out():  0xBB, 0x718878D0
Debug: 1450 906 driver.c:582 interface_swd_add_transact_out():  0xBB, 0x2002E7F8
Debug: 1451 906 driver.c:582 interface_swd_add_transact_out():  0xBB, 0x00004770
Debug: 1452 906 driver.c:582 interface_swd_add_transact_out():  0xBB, 0xE1D04900
Debug: 1453 906 driver.c:582 interface_swd_add_transact_out():  0xBB, 0x2000064C
Debug: 1454 906 driver.c:582 interface_swd_add_transact_out():  0xBB, 0xE1CC4900
Debug: 1455 906 driver.c:582 interface_swd_add_transact_out():  0xBB, 0x20000654
Debug: 1456 906 driver.c:582 interface_swd_add_transact_out():  0xBB, 0x1428F8DF
Debug: 1457 906 driver.c:582 interface_swd_add_transact_out():  0xBB, 0x78D2698A
Debug: 1458 906 driver.c:582 interface_swd_add_transact_out():  0xBB, 0x01C2EB01
Debug: 1459 906 driver.c:582 interface_swd_add_transact_out():  0xBB, 0xE1C23164
Debug: 1460 906 driver.c:582 interface_swd_add_transact_out():  0xBB, 0xD0012900
Debug: 1461 906 driver.c:582 interface_swd_add_transact_out():  0xBB, 0x47702002
Debug: 1462 906 driver.c:582 interface_swd_add_transact_out():  0xBB, 0xD2FB2802
Debug: 1463 906 driver.c:582 interface_swd_add_transact_out():  0xBB, 0x47702000
Debug: 1464 922 driver.c:582 interface_swd_add_transact_out():  0xBB, 0x1408F8DF
Debug: 1465 922 driver.c:582 interface_swd_add_transact_out():  0xBB, 0xD1002800
Debug: 1466 922 driver.c:582 interface_swd_add_transact_out():  0xBB, 0xE004E008
Debug: 1467 922 driver.c:582 interface_swd_add_transact_out():  0xBB, 0x13FCF8DF
Debug: 1468 922 driver.c:582 interface_swd_add_transact_out():  0xBB, 0xD1002800
Debug: 1469 922 driver.c:582 interface_swd_add_transact_out():  0xBB, 0xF101E002
Debug: 1470 922 driver.c:582 interface_swd_add_transact_out():  0xBB, 0x4770005C
Debug: 1471 922 driver.c:582 interface_swd_add_transact_out():  0xBB, 0x21086988
Debug: 1472 922 driver.c:582 interface_swd_add_transact_out():  0xBB, 0x20008201
Debug: 1473 922 driver.c:582 interface_swd_add_transact_out():  0xBB, 0xB5704770
Debug: 1474 922 driver.c:582 interface_swd_add_transact_out():  0xBB, 0xF6404605
Debug: 1475 922 driver.c:582 interface_swd_add_transact_out():  0xBB, 0x463076FF
Debug: 1476 922 driver.c:582 interface_swd_add_transact_out():  0xBB, 0xF84EF000
Debug: 1477 922 driver.c:582 interface_swd_add_transact_out():  0xBB, 0xD1132804
Debug: 1478 922 driver.c:582 interface_swd_add_transact_out():  0xBB, 0x68204C1A
Debug: 1479 922 driver.c:582 interface_swd_add_transact_out():  0xBB, 0x0002F040
Debug: 1480 922 driver.c:582 interface_swd_add_transact_out():  0xBB, 0x60656020
Debug: 1481 922 driver.c:582 interface_swd_add_transact_out():  0xBB, 0xF0406820
Debug: 1482 922 driver.c:582 interface_swd_add_transact_out():  0xBB, 0x60200040
Debug: 1483 922 driver.c:582 interface_swd_add_transact_out():  0xBB, 0xF0004630
Debug: 1484 922 driver.c:582 interface_swd_add_transact_out():  0xBB, 0x2801F83F
Debug: 1485 922 driver.c:582 interface_swd_add_transact_out():  0xBB, 0x6821D004
Debug: 1486 922 driver.c:582 interface_swd_add_transact_out():  0xBB, 0x72FDF641
Debug: 1487 922 driver.c:582 interface_swd_add_transact_out():  0xBB, 0x60214011
Debug: 1488 922 driver.c:582 interface_swd_add_transact_out():  0xBB, 0xB5F8BD70
Debug: 1489 922 driver.c:582 interface_swd_add_transact_out():  0xBB, 0x460C4605
Debug: 1490 922 driver.c:582 interface_swd_add_transact_out():  0xBB, 0xF000200F
Debug: 1491 922 driver.c:582 interface_swd_add_transact_out():  0xBB, 0x2804F831
Debug: 1492 922 driver.c:582 interface_swd_add_transact_out():  0xBB, 0x4E0CD116
Debug: 1493 922 driver.c:582 interface_swd_add_transact_out():  0xBB, 0xF0406830
Debug: 1494 922 driver.c:582 interface_swd_add_transact_out():  0xBB, 0x60300001
Debug: 1495 922 driver.c:582 interface_swd_add_transact_out():  0xBB, 0x200F802C
Debug: 1496 922 driver.c:582 interface_swd_add_transact_out():  0xBB, 0xF826F000
Debug: 1497 922 driver.c:582 interface_swd_add_transact_out():  0xBB, 0x77FEF641
Debug: 1498 922 driver.c:582 interface_swd_add_transact_out():  0xBB, 0xD1042804
Debug: 1499 922 driver.c:582 interface_swd_add_transact_out():  0xBB, 0x80680C20
Debug: 1500 922 driver.c:582 interface_swd_add_transact_out():  0xBB, 0xF000200F
Debug: 1501 922 driver.c:582 interface_swd_add_transact_out():  0xBB, 0x2801F81D
Debug: 1502 922 driver.c:582 interface_swd_add_transact_out():  0xBB, 0x6831D002
Debug: 1503 922 driver.c:582 interface_swd_add_transact_out():  0xBB, 0x60314039
Debug: 1504 922 driver.c:582 interface_swd_add_transact_out():  0xBB, 0x0000BDF2
Debug: 1505 922 driver.c:582 interface_swd_add_transact_out():  0xBB, 0x40022010
Debug: 1506 922 driver.c:582 interface_swd_add_transact_out():  0xBB, 0x68014808
Debug: 1507 922 driver.c:582 interface_swd_add_transact_out():  0xBB, 0xD50107C9
Debug: 1508 922 driver.c:582 interface_swd_add_transact_out():  0xBB, 0x47702001
Debug: 1509 922 driver.c:582 interface_swd_add_transact_out():  0xBB, 0x07496801
Debug: 1510 922 driver.c:582 interface_swd_add_transact_out():  0xBB, 0x2002D501
Debug: 1511 922 driver.c:582 interface_swd_add_transact_out():  0xBB, 0x68004770
Debug: 1512 922 driver.c:582 interface_swd_add_transact_out():  0xBB, 0xD50106C0
Debug: 1513 922 driver.c:582 interface_swd_add_transact_out():  0xBB, 0x47702003
Debug: 1514 922 driver.c:582 interface_swd_add_transact_out():  0xBB, 0x47702004
Debug: 1515 922 driver.c:582 interface_swd_add_transact_out():  0xBB, 0x4002200C
Debug: 1516 922 driver.c:582 interface_swd_add_transact_out():  0xBB, 0xB082B510
Debug: 1517 922 driver.c:582 interface_swd_add_transact_out():  0xBB, 0xF7FF4604
Debug: 1518 922 driver.c:582 interface_swd_add_transact_out():  0xBB, 0xE008FFE7
Debug: 1519 922 driver.c:582 interface_swd_add_transact_out():  0xBB, 0x1E409800
Debug: 1520 922 driver.c:582 interface_swd_add_transact_out():  0xBB, 0x98009000
Debug: 1521 922 driver.c:582 interface_swd_add_transact_out():  0xBB, 0xD1F92800
Debug: 1522 922 driver.c:582 interface_swd_add_transact_out():  0xBB, 0xFFDEF7FF
Debug: 1523 922 driver.c:582 interface_swd_add_transact_out():  0xBB, 0x28011E64
Debug: 1524 922 driver.c:582 interface_swd_add_transact_out():  0xBB, 0xB124D104
Debug: 1525 922 driver.c:582 interface_swd_add_transact_out():  0xBB, 0x90002000
Debug: 1526 922 driver.c:582 interface_swd_add_transact_out():  0xBB, 0xE7F120FF
Debug: 1527 922 driver.c:582 interface_swd_add_transact_out():  0xBB, 0x2005B904
Debug: 1528 922 driver.c:582 interface_swd_add_transact_out():  0xBB, 0x0000BD16
Debug: 1529 922 driver.c:582 interface_swd_add_transact_out():  0xBB, 0x6801481D
Debug: 1530 922 driver.c:582 interface_swd_add_transact_out():  0xBB, 0x0101F041
Debug: 1531 922 driver.c:582 interface_swd_add_transact_out():  0xBB, 0x68416001
Debug: 1532 922 driver.c:582 interface_swd_add_transact_out():  0xBB, 0x40114A08
Debug: 1533 922 driver.c:582 interface_swd_add_transact_out():  0xBB, 0x68016041
Debug: 1534 922 driver.c:582 interface_swd_add_transact_out():  0xBB, 0x40114A07
Debug: 1535 922 driver.c:582 interface_swd_add_transact_out():  0xBB, 0x68016001
Debug: 1536 922 driver.c:582 interface_swd_add_transact_out():  0xBB, 0x2180F421
Debug: 1537 922 driver.c:582 interface_swd_add_transact_out():  0xBB, 0x68416001
Debug: 1538 922 driver.c:582 interface_swd_add_transact_out():  0xBB, 0x01FEF421
Debug: 1539 922 driver.c:582 interface_swd_add_transact_out():  0xBB, 0x21006041
Debug: 1540 922 driver.c:582 interface_swd_add_transact_out():  0xBB, 0x47706081
Debug: 1541 922 driver.c:582 interface_swd_add_transact_out():  0xBB, 0xF8FF0000
Debug: 1542 922 driver.c:582 interface_swd_add_transact_out():  0xBB, 0xFEF6FFFF
Debug: 1543 922 driver.c:582 interface_swd_add_transact_out():  0xBB, 0x29004A04
Debug: 1544 922 driver.c:582 interface_swd_add_transact_out():  0xBB, 0xBF146811
Debug: 1545 922 driver.c:582 interface_swd_add_transact_out():  0xBB, 0xEA214308
Debug: 1546 922 driver.c:582 interface_swd_add_transact_out():  0xBB, 0x60100000
Debug: 1547 922 driver.c:582 interface_swd_add_transact_out():  0xBB, 0xBF004770
Debug: 1548 922 driver.c:582 interface_swd_add_transact_out():  0xBB, 0x4002101C
Debug: 1549 922 driver.c:582 interface_swd_add_transact_out():  0xBB, 0x4A090941
Debug: 1550 922 driver.c:582 interface_swd_add_transact_out():  0xBB, 0xD1012901
Debug: 1551 922 driver.c:582 interface_swd_add_transact_out():  0xBB, 0xE0036811
Debug: 1552 922 driver.c:582 interface_swd_add_transact_out():  0xBB, 0xBF0C2902
Debug: 1553 922 driver.c:582 interface_swd_add_transact_out():  0xBB, 0x6A516A11
Debug: 1554 922 driver.c:582 interface_swd_add_transact_out():  0xBB, 0xF0002201
Debug: 1555 922 driver.c:582 interface_swd_add_transact_out():  0xBB, 0xFA02001F
Debug: 1556 922 driver.c:582 interface_swd_add_transact_out():  0xBB, 0x4008F000
Debug: 1557 922 driver.c:582 interface_swd_add_transact_out():  0xBB, 0x2001D000
Debug: 1558 922 driver.c:582 interface_swd_add_transact_out():  0xBB, 0x4770B2C0
Debug: 1559 922 driver.c:582 interface_swd_add_transact_out():  0xBB, 0x40021000
Debug: 1560 922 driver.c:582 interface_swd_add_transact_out():  0xBB, 0x4CA2B510
Debug: 1561 922 driver.c:582 interface_swd_add_transact_out():  0xBB, 0xD1002800
Debug: 1562 922 driver.c:582 interface_swd_add_transact_out():  0xBB, 0x6A20E010
Debug: 1563 922 driver.c:582 interface_swd_add_transact_out():  0xBB, 0x47806800
Debug: 1564 922 driver.c:582 interface_swd_add_transact_out():  0xBB, 0x300A69A0
Debug: 1565 922 driver.c:582 interface_swd_add_transact_out():  0xBB, 0xB510BD10
Debug: 1566 922 driver.c:582 interface_swd_add_transact_out():  0xBB, 0x28004C9C
Debug: 1567 922 driver.c:582 interface_swd_add_transact_out():  0xBB, 0xE005D100
Debug: 1568 922 driver.c:582 interface_swd_add_transact_out():  0xBB, 0x68806A20
Debug: 1569 922 driver.c:582 interface_swd_add_transact_out():  0xBB, 0x69A04780
Debug: 1570 922 driver.c:582 interface_swd_add_transact_out():  0xBB, 0xBD10300C
Debug: 1571 922 driver.c:582 interface_swd_add_transact_out():  0xBB, 0x210169A0
Debug: 1572 922 driver.c:582 interface_swd_add_transact_out():  0xBB, 0x20008201
Debug: 1573 922 driver.c:582 interface_swd_add_transact_out():  0xBB, 0xB510BD10
Debug: 1574 922 driver.c:582 interface_swd_add_transact_out():  0xBB, 0x69A14C94
Debug: 1575 922 driver.c:582 interface_swd_add_transact_out():  0xBB, 0xD1022800
Debug: 1576 922 driver.c:582 interface_swd_add_transact_out():  0xBB, 0x82082002
Debug: 1577 922 driver.c:582 interface_swd_add_transact_out():  0xBB, 0x2000E035
Debug: 1578 922 driver.c:582 interface_swd_add_transact_out():  0xBB, 0x780881A0
Debug: 1579 922 driver.c:582 interface_swd_add_transact_out():  0xBB, 0x237F2200
Debug: 1580 922 driver.c:582 interface_swd_add_transact_out():  0xBB, 0xD1134218
Debug: 1581 922 driver.c:582 interface_swd_add_transact_out():  0xBB, 0x06817A48
Debug: 1582 922 driver.c:582 interface_swd_add_transact_out():  0xBB, 0xF042D502
Debug: 1583 922 driver.c:582 interface_swd_add_transact_out():  0xBB, 0x73210102
Debug: 1584 922 driver.c:582 interface_swd_add_transact_out():  0xBB, 0x7B200640
Debug: 1585 922 driver.c:582 interface_swd_add_transact_out():  0xBB, 0xF040BF54
Debug: 1586 922 driver.c:582 interface_swd_add_transact_out():  0xBB, 0xF0000001
Debug: 1587 922 driver.c:582 interface_swd_add_transact_out():  0xBB, 0x732000FE
Debug: 1588 922 driver.c:582 interface_swd_add_transact_out():  0xBB, 0x69006A20
Debug: 1589 922 driver.c:582 interface_swd_add_transact_out():  0xBB, 0xF1044780
Debug: 1590 922 driver.c:582 interface_swd_add_transact_out():  0xBB, 0xBD10000C
Debug: 1591 922 driver.c:582 interface_swd_add_transact_out():  0xBB, 0x037FF000
Debug: 1592 922 driver.c:582 interface_swd_add_transact_out():  0xBB, 0xD0F82B01
Debug: 1593 922 driver.c:582 interface_swd_add_transact_out():  0xBB, 0x007FF000
Debug: 1594 922 driver.c:582 interface_swd_add_transact_out():  0xBB, 0xD1122802
Debug: 1595 922 driver.c:582 interface_swd_add_transact_out():  0xBB, 0xF0007948
Debug: 1596 922 driver.c:582 interface_swd_add_transact_out():  0xBB, 0xF042010F
Debug: 1597 922 driver.c:582 interface_swd_add_transact_out():  0xBB, 0xF0000201
Debug: 1598 922 driver.c:582 interface_swd_add_transact_out():  0xBB, 0xD505FA97
Debug: 1599 922 driver.c:582 interface_swd_add_transact_out():  0xBB, 0x0030F000
Debug: 1600 922 driver.c:582 interface_swd_add_transact_out():  0xBB, 0xD1E52810
Debug: 1601 922 driver.c:582 interface_swd_add_transact_out():  0xBB, 0xE7E37322
Debug: 1602 922 driver.c:582 interface_swd_add_transact_out():  0xBB, 0x5040F400
Debug: 1603 922 driver.c:582 interface_swd_add_transact_out():  0xBB, 0x5F80F5B0
Debug: 1604 922 driver.c:582 interface_swd_add_transact_out():  0xBB, 0x2000E7F7
Debug: 1605 922 driver.c:582 interface_swd_add_transact_out():  0xBB, 0xB570BD10
Debug: 1606 922 driver.c:582 interface_swd_add_transact_out():  0xBB, 0x69A14C74
Debug: 1607 922 driver.c:582 interface_swd_add_transact_out():  0xBB, 0xF0107808
Debug: 1608 922 driver.c:582 interface_swd_add_transact_out():  0xBB, 0xD104007F
Debug: 1609 922 driver.c:582 interface_swd_add_transact_out():  0xBB, 0xF0007A48
Debug: 1610 922 driver.c:582 interface_swd_add_transact_out():  0xBB, 0x724800DF
Debug: 1611 922 driver.c:582 interface_swd_add_transact_out():  0xBB, 0x2802E05E
Debug: 1612 922 driver.c:582 interface_swd_add_transact_out():  0xBB, 0x8848D105
Debug: 1613 922 driver.c:582 interface_swd_add_transact_out():  0xBB, 0xD1022800
Debug: 1614 922 driver.c:582 interface_swd_add_transact_out():  0xBB, 0x28007908
Debug: 1615 922 driver.c:582 interface_swd_add_transact_out():  0xBB, 0x2002D001
Debug: 1616 922 driver.c:582 interface_swd_add_transact_out():  0xBB, 0x794ABD70
Debug: 1617 922 driver.c:582 interface_swd_add_transact_out():  0xBB, 0x0080F022
Debug: 1618 922 driver.c:582 interface_swd_add_transact_out():  0xBB, 0x5830F8DF
Debug: 1619 922 driver.c:582 interface_swd_add_transact_out():  0xBB, 0xF8550613
Debug: 1620 922 driver.c:582 interface_swd_add_transact_out():  0xBB, 0xBF4C3020
Debug: 1621 922 driver.c:582 interface_swd_add_transact_out():  0xBB, 0x0330F003
Debug: 1622 922 driver.c:582 interface_swd_add_transact_out():  0xBB, 0x5340F403
Debug: 1623 922 driver.c:582 interface_swd_add_transact_out():  0xBB, 0x42B07826
Debug: 1624 922 driver.c:582 interface_swd_add_transact_out():  0xBB, 0x2B00D2ED
Debug: 1625 922 driver.c:582 interface_swd_add_transact_out():  0xBB, 0x7A89D0EB
Debug: 1626 922 driver.c:582 interface_swd_add_transact_out():  0xBB, 0xD0E82900
Debug: 1627 922 driver.c:582 interface_swd_add_transact_out():  0xBB, 0x718FF648
Debug: 1628 922 driver.c:582 interface_swd_add_transact_out():  0xBB, 0xF8550612
Debug: 1629 922 driver.c:582 interface_swd_add_transact_out():  0xBB, 0xD5132020
Debug: 1630 922 driver.c:582 interface_swd_add_transact_out():  0xBB, 0x0230F002
Debug: 1631 922 driver.c:582 interface_swd_add_transact_out():  0xBB, 0xD1322A10
Debug: 1632 922 driver.c:582 interface_swd_add_transact_out():  0xBB, 0xF8554602
Debug: 1633 922 driver.c:582 interface_swd_add_transact_out():  0xBB, 0x065B3022
Debug: 1634 922 driver.c:582 interface_swd_add_transact_out():  0xBB, 0xF855D506
Debug: 1635 922 driver.c:582 interface_swd_add_transact_out():  0xBB, 0x40193022
Debug: 1636 922 driver.c:582 interface_swd_add_transact_out():  0xBB, 0x0140F041
Debug: 1637 922 driver.c:582 interface_swd_add_transact_out():  0xBB, 0x1022F845
Debug: 1638 922 driver.c:582 interface_swd_add_transact_out():  0xBB, 0xF0002130
Debug: 1639 922 driver.c:582 interface_swd_add_transact_out():  0xBB, 0xE022FBAF
Debug: 1640 922 driver.c:582 interface_swd_add_transact_out():  0xBB, 0x5240F402
Debug: 1641 922 driver.c:582 interface_swd_add_transact_out():  0xBB, 0x5F80F5B2
Debug: 1642 922 driver.c:582 interface_swd_add_transact_out():  0xBB, 0xF64BD11D
Debug: 1643 922 driver.c:582 interface_swd_add_transact_out():  0xBB, 0xB938768F
Debug: 1644 922 driver.c:582 interface_swd_add_transact_out():  0xBB, 0xFA7CF000
Debug: 1645 922 driver.c:582 interface_swd_add_transact_out():  0xBB, 0x40306828
Debug: 1646 922 driver.c:582 interface_swd_add_transact_out():  0xBB, 0x5040F480
Debug: 1647 922 driver.c:582 interface_swd_add_transact_out():  0xBB, 0xE0126028
Debug: 1648 922 driver.c:582 interface_swd_add_transact_out():  0xBB, 0xF8554602
Debug: 1649 922 driver.c:582 interface_swd_add_transact_out():  0xBB, 0x045B3022
Debug: 1650 922 driver.c:582 interface_swd_add_transact_out():  0xBB, 0xF855D506
Debug: 1651 922 driver.c:582 interface_swd_add_transact_out():  0xBB, 0x40193022
Debug: 1652 922 driver.c:582 interface_swd_add_transact_out():  0xBB, 0x4180F441
Debug: 1653 922 driver.c:582 interface_swd_add_transact_out():  0xBB, 0x1022F845
Debug: 1654 922 driver.c:582 interface_swd_add_transact_out():  0xBB, 0x1020F855
Debug: 1655 922 driver.c:582 interface_swd_add_transact_out():  0xBB, 0xF4814031
Debug: 1656 922 driver.c:582 interface_swd_add_transact_out():  0xBB, 0xF8455140
Debug: 1657 922 driver.c:582 interface_swd_add_transact_out():  0xBB, 0x6A201020
Debug: 1658 922 driver.c:582 interface_swd_add_transact_out():  0xBB, 0x47806940
Debug: 1659 922 driver.c:582 interface_swd_add_transact_out():  0xBB, 0xBD702000
Debug: 1660 922 driver.c:582 interface_swd_add_transact_out():  0xBB, 0x483EB570
Debug: 1661 922 driver.c:582 interface_swd_add_transact_out():  0xBB, 0x795C6983
Debug: 1662 922 driver.c:582 interface_swd_add_transact_out():  0xBB, 0x0180F024
Debug: 1663 922 driver.c:582 interface_swd_add_transact_out():  0xBB, 0x277CF8DF
Debug: 1664 922 driver.c:582 interface_swd_add_transact_out():  0xBB, 0xF8520625
Debug: 1665 922 driver.c:582 interface_swd_add_transact_out():  0xBB, 0xBF4C5021
Debug: 1666 922 driver.c:582 interface_swd_add_transact_out():  0xBB, 0x0530F005
Debug: 1667 922 driver.c:582 interface_swd_add_transact_out():  0xBB, 0x5540F405
Debug: 1668 922 driver.c:582 interface_swd_add_transact_out():  0xBB, 0x42B17806
Debug: 1669 922 driver.c:582 interface_swd_add_transact_out():  0xBB, 0x885ED207
Debug: 1670 922 driver.c:582 interface_swd_add_transact_out():  0xBB, 0xD1042E00
Debug: 1671 922 driver.c:582 interface_swd_add_transact_out():  0xBB, 0xD0022D00
Debug: 1672 922 driver.c:582 interface_swd_add_transact_out():  0xBB, 0x2B007A9B
Debug: 1673 922 driver.c:582 interface_swd_add_transact_out():  0xBB, 0x2002D101
Debug: 1674 922 driver.c:582 interface_swd_add_transact_out():  0xBB, 0x0623BD70
Debug: 1675 922 driver.c:582 interface_swd_add_transact_out():  0xBB, 0x3021F852
Debug: 1676 922 driver.c:582 interface_swd_add_transact_out():  0xBB, 0xF648D505
Debug: 1677 922 driver.c:582 interface_swd_add_transact_out():  0xBB, 0x402374BF
Debug: 1678 922 driver.c:582 interface_swd_add_transact_out():  0xBB, 0x0310F083
Debug: 1679 922 driver.c:582 interface_swd_add_transact_out():  0xBB, 0xF64BE004
Debug: 1680 922 driver.c:582 interface_swd_add_transact_out():  0xBB, 0x4023748F
Debug: 1681 922 driver.c:582 interface_swd_add_transact_out():  0xBB, 0x5380F483
Debug: 1682 922 driver.c:582 interface_swd_add_transact_out():  0xBB, 0x3021F842
Debug: 1683 922 driver.c:582 interface_swd_add_transact_out():  0xBB, 0x69806A00
Debug: 1684 922 driver.c:582 interface_swd_add_transact_out():  0xBB, 0x20004780
Debug: 1685 922 driver.c:582 interface_swd_add_transact_out():  0xBB, 0x4A25BD70
Debug: 1686 922 driver.c:582 interface_swd_add_transact_out():  0xBB, 0x8A536992
Debug: 1687 922 driver.c:582 interface_swd_add_transact_out():  0xBB, 0x8888B920
Debug: 1688 922 driver.c:582 interface_swd_add_transact_out():  0xBB, 0x82101AC0
Debug: 1689 922 driver.c:582 interface_swd_add_transact_out():  0xBB, 0x47702000
Debug: 1690 922 driver.c:582 interface_swd_add_transact_out():  0xBB, 0x18186808
Debug: 1691 922 driver.c:582 interface_swd_add_transact_out():  0xBB, 0xB5F84770
Debug: 1692 922 driver.c:582 interface_swd_add_transact_out():  0xBB, 0x69A84D1E
Debug: 1693 922 driver.c:582 interface_swd_add_transact_out():  0xBB, 0x0610F100
Debug: 1694 922 driver.c:582 interface_swd_add_transact_out():  0xBB, 0x68B18834
Debug: 1695 922 driver.c:582 interface_swd_add_transact_out():  0xBB, 0x00084F85
Debug: 1696 922 driver.c:582 interface_swd_add_transact_out():  0xBB, 0xB1ACD016
Debug: 1697 922 driver.c:582 interface_swd_add_transact_out():  0xBB, 0x428488B0
Debug: 1698 922 driver.c:582 interface_swd_add_transact_out():  0xBB, 0x4604D900
Debug: 1699 922 driver.c:582 interface_swd_add_transact_out():  0xBB, 0x47884620
Debug: 1700 922 driver.c:582 interface_swd_add_transact_out():  0xBB, 0x1B098831
Debug: 1701 922 driver.c:582 interface_swd_add_transact_out():  0xBB, 0x88718031
Debug: 1702 922 driver.c:582 interface_swd_add_transact_out():  0xBB, 0x80711861
Debug: 1703 922 driver.c:582 interface_swd_add_transact_out():  0xBB, 0x46226839
Debug: 1704 922 driver.c:582 interface_swd_add_transact_out():  0xBB, 0xF8DFB289
Debug: 1705 922 driver.c:582 interface_swd_add_transact_out():  0xBB, 0xF8533710
Debug: 1706 922 driver.c:582 interface_swd_add_transact_out():  0xBB, 0xB2891011
Debug: 1707 922 driver.c:582 interface_swd_add_transact_out():  0xBB, 0xFB0CF000
Debug: 1708 922 driver.c:582 interface_swd_add_transact_out():  0xBB, 0xB1408830
Debug: 1709 922 driver.c:582 interface_swd_add_transact_out():  0xBB, 0x5040F44F
Debug: 1710 922 driver.c:582 interface_swd_add_transact_out():  0xBB, 0x210082A8
Debug: 1711 922 driver.c:582 interface_swd_add_transact_out():  0xBB, 0xF0002000
Debug: 1712 922 driver.c:582 interface_swd_add_transact_out():  0xBB, 0x2030FB7B
Debug: 1713 922 driver.c:582 interface_swd_add_transact_out():  0xBB, 0x69A882E8
Debug: 1714 922 driver.c:582 interface_swd_add_transact_out():  0xBB, 0x88B28831
Debug: 1715 922 driver.c:582 interface_swd_add_transact_out():  0xBB, 0xD3024291
Debug: 1716 922 driver.c:582 interface_swd_add_transact_out():  0xBB, 0x72012103
Debug: 1717 922 driver.c:582 interface_swd_add_transact_out():  0xBB, 0x2900BDF1
Debug: 1718 922 driver.c:582 interface_swd_add_transact_out():  0xBB, 0x2105D001
Debug: 1719 922 driver.c:582 interface_swd_add_transact_out():  0xBB, 0x2106E7F9
Debug: 1720 922 driver.c:582 interface_swd_add_transact_out():  0xBB, 0x68387201
Debug: 1721 922 driver.c:582 interface_swd_add_transact_out():  0xBB, 0xF84AF000
Debug: 1722 922 driver.c:582 interface_swd_add_transact_out():  0xBB, 0xBDF182E8
Debug: 1723 922 driver.c:582 interface_swd_add_transact_out():  0xBB, 0x20000558
Debug: 1724 922 driver.c:582 interface_swd_add_transact_out():  0xBB, 0x41F0E92D
Debug: 1725 922 driver.c:582 interface_swd_add_transact_out():  0xBB, 0xF8D2F000
Debug: 1726 922 driver.c:582 interface_swd_add_transact_out():  0xBB, 0x0510F100
Debug: 1727 922 driver.c:582 interface_swd_add_transact_out():  0xBB, 0xF8DF8829
Debug: 1728 922 driver.c:582 interface_swd_add_transact_out():  0xBB, 0xB9798194
Debug: 1729 922 driver.c:582 interface_swd_add_transact_out():  0xBB, 0x28047A00
Debug: 1730 922 driver.c:582 interface_swd_add_transact_out():  0xBB, 0x7A20D10C
Debug: 1731 922 driver.c:582 interface_swd_add_transact_out():  0xBB, 0xD1062801
Debug: 1732 922 driver.c:582 interface_swd_add_transact_out():  0xBB, 0x0000F8D8
Debug: 1733 922 driver.c:582 interface_swd_add_transact_out():  0xBB, 0xF832F000
Debug: 1734 922 driver.c:582 interface_swd_add_transact_out():  0xBB, 0x72222704
Debug: 1735 922 driver.c:582 interface_swd_add_transact_out():  0xBB, 0x2707E027
Debug: 1736 922 driver.c:582 interface_swd_add_transact_out():  0xBB, 0xE0242010
Debug: 1737 922 driver.c:582 interface_swd_add_transact_out():  0xBB, 0x428E88AE
Debug: 1738 922 driver.c:582 interface_swd_add_transact_out():  0xBB, 0x2704D305
Debug: 1739 922 driver.c:582 interface_swd_add_transact_out():  0xBB, 0xD90042B1
Debug: 1740 922 driver.c:582 interface_swd_add_transact_out():  0xBB, 0x460E4631
Debug: 1741 922 driver.c:582 interface_swd_add_transact_out():  0xBB, 0x2702E000
Debug: 1742 922 driver.c:582 interface_swd_add_transact_out():  0xBB, 0x68A9B2B0
Debug: 1743 922 driver.c:582 interface_swd_add_transact_out():  0xBB, 0xF8D84788
Debug: 1744 922 driver.c:582 interface_swd_add_transact_out():  0xBB, 0xB2B21000
Debug: 1745 922 driver.c:582 interface_swd_add_transact_out():  0xBB, 0x4B0CB289
Debug: 1746 922 driver.c:582 interface_swd_add_transact_out():  0xBB, 0x1011F853
Debug: 1747 922 driver.c:582 interface_swd_add_transact_out():  0xBB, 0xF000B289
Debug: 1748 922 driver.c:582 interface_swd_add_transact_out():  0xBB, 0xB2B1FAA5
Debug: 1749 922 driver.c:582 interface_swd_add_transact_out():  0xBB, 0xF0002000
Debug: 1750 922 driver.c:582 interface_swd_add_transact_out():  0xBB, 0x8828FB2F
Debug: 1751 922 driver.c:582 interface_swd_add_transact_out():  0xBB, 0x80281B80
Debug: 1752 922 driver.c:582 interface_swd_add_transact_out():  0xBB, 0x18308868
Debug: 1753 922 driver.c:582 interface_swd_add_transact_out():  0xBB, 0x20308068
Debug: 1754 922 driver.c:582 interface_swd_add_transact_out():  0xBB, 0x5140F44F
Debug: 1755 922 driver.c:582 interface_swd_add_transact_out():  0xBB, 0x82E082A1
Debug: 1756 922 driver.c:582 interface_swd_add_transact_out():  0xBB, 0x720769A0
Debug: 1757 922 driver.c:582 interface_swd_add_transact_out():  0xBB, 0x81F0E8BD
Debug: 1758 922 driver.c:582 interface_swd_add_transact_out():  0xBB, 0x40006000
Debug: 1759 922 driver.c:582 interface_swd_add_transact_out():  0xBB, 0x4946B280
Debug: 1760 922 driver.c:582 interface_swd_add_transact_out():  0xBB, 0xF8412200
Debug: 1761 922 driver.c:582 interface_swd_add_transact_out():  0xBB, 0x20302010
Debug: 1762 922 driver.c:582 interface_swd_add_transact_out():  0xBB, 0xB5384770
Debug: 1763 922 driver.c:582 interface_swd_add_transact_out():  0xBB, 0xF886F000
Debug: 1764 922 driver.c:582 interface_swd_add_transact_out():  0xBB, 0x78017845
Debug: 1765 922 driver.c:582 interface_swd_add_transact_out():  0xBB, 0x4211227F
Debug: 1766 922 driver.c:582 interface_swd_add_transact_out():  0xBB, 0x2D09D13D
Debug: 1767 922 driver.c:582 interface_swd_add_transact_out():  0xBB, 0x78C1D10E
Debug: 1768 922 driver.c:582 interface_swd_add_transact_out():  0xBB, 0x428A7862
Debug: 1769 922 driver.c:582 interface_swd_add_transact_out():  0xBB, 0x7882D35F
Debug: 1770 922 driver.c:582 interface_swd_add_transact_out():  0xBB, 0xD15C2A00
Debug: 1771 922 driver.c:582 interface_swd_add_transact_out():  0xBB, 0x2A008882
Debug: 1772 922 driver.c:582 interface_swd_add_transact_out():  0xBB, 0x7281D159
Debug: 1773 922 driver.c:582 interface_swd_add_transact_out():  0xBB, 0x68406A20
Debug: 1774 922 driver.c:582 interface_swd_add_transact_out():  0xBB, 0xE05E4780
Debug: 1775 922 driver.c:582 interface_swd_add_transact_out():  0xBB, 0xD10B2D05
Debug: 1776 922 driver.c:582 interface_swd_add_transact_out():  0xBB, 0x298078C1
Debug: 1777 922 driver.c:582 interface_swd_add_transact_out():  0xBB, 0x7881D206
Debug: 1778 922 driver.c:582 interface_swd_add_transact_out():  0xBB, 0x8881B921
Debug: 1779 922 driver.c:582 interface_swd_add_transact_out():  0xBB, 0x7A80B911
Debug: 1780 922 driver.c:582 interface_swd_add_transact_out():  0xBB, 0xD0522800
Debug: 1781 922 driver.c:582 interface_swd_add_transact_out():  0xBB, 0xE05A2008
Debug: 1782 922 driver.c:582 interface_swd_add_transact_out():  0xBB, 0xD10F2D03
Debug: 1783 922 driver.c:582 interface_swd_add_transact_out():  0xBB, 0x290178C1
Debug: 1784 922 driver.c:582 interface_swd_add_transact_out():  0xBB, 0x8881D141
Debug: 1785 922 driver.c:582 interface_swd_add_transact_out():  0xBB, 0xD13E2900
Debug: 1786 922 driver.c:582 interface_swd_add_transact_out():  0xBB, 0x068A7A41
Debug: 1787 922 driver.c:582 interface_swd_add_transact_out():  0xBB, 0xF041D53B
Debug: 1788 922 driver.c:582 interface_swd_add_transact_out():  0xBB, 0x72410120
Debug: 1789 922 driver.c:582 interface_swd_add_transact_out():  0xBB, 0x69C06A20
Debug: 1790 922 driver.c:582 interface_swd_add_transact_out():  0xBB, 0xE03E4780
Debug: 1791 922 driver.c:582 interface_swd_add_transact_out():  0xBB, 0xD1322D01
Debug: 1792 922 driver.c:582 interface_swd_add_transact_out():  0xBB, 0x290178C1
Debug: 1793 922 driver.c:582 interface_swd_add_transact_out():  0xBB, 0x8881D12F
Debug: 1794 922 driver.c:582 interface_swd_add_transact_out():  0xBB, 0x7A40BB69
Debug: 1795 922 driver.c:582 interface_swd_add_transact_out():  0xBB, 0xD52A0680
Debug: 1796 922 driver.c:582 interface_swd_add_transact_out():  0xBB, 0xFE81F7FF
Debug: 1797 922 driver.c:582 interface_swd_add_transact_out():  0xBB, 0xF001E026
Debug: 1798 922 driver.c:582 interface_swd_add_transact_out():  0xBB, 0x2A01027F
Debug: 1799 922 driver.c:582 interface_swd_add_transact_out():  0xBB, 0x2D0BD118
Debug: 1800 922 driver.c:582 interface_swd_add_transact_out():  0xBB, 0x78C1D121
Debug: 1801 922 driver.c:582 interface_swd_add_transact_out():  0xBB, 0x69E27940
Debug: 1802 922 driver.c:582 interface_swd_add_transact_out():  0xBB, 0x47906992
Debug: 1803 922 driver.c:582 interface_swd_add_transact_out():  0xBB, 0x7A8A69A1
Debug: 1804 922 driver.c:582 interface_swd_add_transact_out():  0xBB, 0xB9C0B1CA
Debug: 1805 922 driver.c:582 interface_swd_add_transact_out():  0xBB, 0xB9B07908
Debug: 1806 922 driver.c:582 interface_swd_add_transact_out():  0xBB, 0xB9A07888
Debug: 1807 922 driver.c:582 interface_swd_add_transact_out():  0xBB, 0x68C06A20
Debug: 1808 922 driver.c:582 interface_swd_add_transact_out():  0xBB, 0x69A04780
Debug: 1809 922 driver.c:582 interface_swd_add_transact_out():  0xBB, 0x72C17941
Debug: 1810 922 driver.c:582 interface_swd_add_transact_out():  0xBB, 0x78C169A0
Debug: 1811 922 driver.c:582 interface_swd_add_transact_out():  0xBB, 0xE0147301
Debug: 1812 922 driver.c:582 interface_swd_add_transact_out():  0xBB, 0x007FF001
Debug: 1813 922 driver.c:582 interface_swd_add_transact_out():  0xBB, 0xD1062802
Debug: 1814 922 driver.c:582 interface_swd_add_transact_out():  0xBB, 0xD0D92D01
Debug: 1815 922 driver.c:582 interface_swd_add_transact_out():  0xBB, 0xD1022D03
Debug: 1816 922 driver.c:582 interface_swd_add_transact_out():  0xBB, 0xFEC6F7FF
Debug: 1817 922 driver.c:582 interface_swd_add_transact_out():  0xBB, 0x4628B148
Debug: 1818 922 driver.c:582 interface_swd_add_transact_out():  0xBB, 0x694969E1
Debug: 1819 938 driver.c:582 interface_swd_add_transact_out():  0xBB, 0x28034788
Debug: 1820 938 driver.c:582 interface_swd_add_transact_out():  0xBB, 0x2009D101
Debug: 1821 938 driver.c:582 interface_swd_add_transact_out():  0xBB, 0x2800E00B
Debug: 1822 938 driver.c:582 interface_swd_add_transact_out():  0xBB, 0x2006D1AC
Debug: 1823 938 driver.c:582 interface_swd_add_transact_out():  0xBB, 0x68094905
Debug: 1824 938 driver.c:582 interface_swd_add_transact_out():  0xBB, 0x4A05B289
Debug: 1825 938 driver.c:582 interface_swd_add_transact_out():  0xBB, 0xF8422300
Debug: 1826 938 driver.c:582 interface_swd_add_transact_out():  0xBB, 0x21303011
Debug: 1827 938 driver.c:582 interface_swd_add_transact_out():  0xBB, 0x69A182E1
Debug: 1828 938 driver.c:582 interface_swd_add_transact_out():  0xBB, 0xBD317208
Debug: 1829 938 driver.c:582 interface_swd_add_transact_out():  0xBB, 0x40005C50
Debug: 1830 938 driver.c:582 interface_swd_add_transact_out():  0xBB, 0x40006004
Debug: 1831 938 driver.c:582 interface_swd_add_transact_out():  0xBB, 0x69A04C01
Debug: 1832 938 driver.c:582 interface_swd_add_transact_out():  0xBB, 0xBF004770
Debug: 1833 938 driver.c:582 interface_swd_add_transact_out():  0xBB, 0x20000558
Debug: 1834 938 driver.c:582 interface_swd_add_transact_out():  0xBB, 0xF7FFB538
Debug: 1835 938 driver.c:582 interface_swd_add_transact_out():  0xBB, 0x7841FFF7
Debug: 1836 938 driver.c:582 interface_swd_add_transact_out():  0xBB, 0x290669E2
Debug: 1837 938 driver.c:582 interface_swd_add_transact_out():  0xBB, 0x7801D110
Debug: 1838 938 driver.c:582 interface_swd_add_transact_out():  0xBB, 0x4219237F
Debug: 1839 938 driver.c:582 interface_swd_add_transact_out():  0xBB, 0x7880D12A
Debug: 1840 938 driver.c:582 interface_swd_add_transact_out():  0xBB, 0xD1012801
Debug: 1841 938 driver.c:582 interface_swd_add_transact_out():  0xBB, 0xE06A69D1
Debug: 1842 938 driver.c:582 interface_swd_add_transact_out():  0xBB, 0xD1012802
Debug: 1843 938 driver.c:582 interface_swd_add_transact_out():  0xBB, 0xE0666A11
Debug: 1844 938 driver.c:582 interface_swd_add_transact_out():  0xBB, 0xD11F2803
Debug: 1845 938 driver.c:582 interface_swd_add_transact_out():  0xBB, 0xE0626A51
Debug: 1846 938 driver.c:582 interface_swd_add_transact_out():  0xBB, 0xD13E2900
Debug: 1847 938 driver.c:582 interface_swd_add_transact_out():  0xBB, 0xB9C98841
Debug: 1848 938 driver.c:582 interface_swd_add_transact_out():  0xBB, 0x290288C1
Debug: 1849 938 driver.c:582 interface_swd_add_transact_out():  0xBB, 0x7901D116
Debug: 1850 938 driver.c:582 interface_swd_add_transact_out():  0xBB, 0x7801B9A1
Debug: 1851 938 driver.c:582 interface_swd_add_transact_out():  0xBB, 0x4219237F
Debug: 1852 938 driver.c:582 interface_swd_add_transact_out():  0xBB, 0x8883D103
Debug: 1853 938 driver.c:582 interface_swd_add_transact_out():  0xBB, 0x4949B90B
Debug: 1854 938 driver.c:582 interface_swd_add_transact_out():  0xBB, 0xF001E051
Debug: 1855 938 driver.c:582 interface_swd_add_transact_out():  0xBB, 0x2B01037F
Debug: 1856 938 driver.c:582 interface_swd_add_transact_out():  0xBB, 0x2100D113
Debug: 1857 938 driver.c:582 interface_swd_add_transact_out():  0xBB, 0x69927940
Debug: 1858 938 driver.c:582 interface_swd_add_transact_out():  0xBB, 0xB9184790
Debug: 1859 938 driver.c:582 interface_swd_add_transact_out():  0xBB, 0x7A8069A0
Debug: 1860 938 driver.c:582 interface_swd_add_transact_out():  0xBB, 0xD1F02800
Debug: 1861 938 driver.c:582 interface_swd_add_transact_out():  0xBB, 0x784069A0
Debug: 1862 938 driver.c:582 interface_swd_add_transact_out():  0xBB, 0x690969E1
Debug: 1863 938 driver.c:582 interface_swd_add_transact_out():  0xBB, 0x28034788
Debug: 1864 938 driver.c:582 interface_swd_add_transact_out():  0xBB, 0x69A0D146
Debug: 1865 938 driver.c:582 interface_swd_add_transact_out():  0xBB, 0x72012109
Debug: 1866 938 driver.c:582 interface_swd_add_transact_out():  0xBB, 0xF001BD31
Debug: 1867 938 driver.c:582 interface_swd_add_transact_out():  0xBB, 0x2902017F
Debug: 1868 938 driver.c:582 interface_swd_add_transact_out():  0xBB, 0x7940D1F0
Debug: 1869 938 driver.c:582 interface_swd_add_transact_out():  0xBB, 0x010FF000
Debug: 1870 938 driver.c:582 interface_swd_add_transact_out():  0xBB, 0x0270F000
Debug: 1871 938 driver.c:582 interface_swd_add_transact_out():  0xBB, 0xF874F000
Debug: 1872 938 driver.c:582 interface_swd_add_transact_out():  0xBB, 0xF000BF4C
Debug: 1873 938 driver.c:582 interface_swd_add_transact_out():  0xBB, 0xF4000030
Debug: 1874 938 driver.c:582 interface_swd_add_transact_out():  0xBB, 0x78235040
Debug: 1875 938 driver.c:582 interface_swd_add_transact_out():  0xBB, 0xD2E14299
Debug: 1876 938 driver.c:582 interface_swd_add_transact_out():  0xBB, 0xD1DF2A00
Debug: 1877 938 driver.c:582 interface_swd_add_transact_out():  0xBB, 0xD1CE2800
Debug: 1878 938 driver.c:582 interface_swd_add_transact_out():  0xBB, 0x2908E7DC
Debug: 1879 938 driver.c:582 interface_swd_add_transact_out():  0xBB, 0x7800D105
Debug: 1880 938 driver.c:582 interface_swd_add_transact_out():  0xBB, 0x4208217F
Debug: 1881 938 driver.c:582 interface_swd_add_transact_out():  0xBB, 0x492ED1D6
Debug: 1882 938 driver.c:582 interface_swd_add_transact_out():  0xBB, 0x290AE019
Debug: 1883 938 driver.c:582 interface_swd_add_transact_out():  0xBB, 0x7801D1D2
Debug: 1884 938 driver.c:582 interface_swd_add_transact_out():  0xBB, 0x017FF001
Debug: 1885 938 driver.c:582 interface_swd_add_transact_out():  0xBB, 0xD1CD2901
Debug: 1886 938 driver.c:582 interface_swd_add_transact_out():  0xBB, 0x29007A81
Debug: 1887 938 driver.c:582 interface_swd_add_transact_out():  0xBB, 0x8841D0CA
Debug: 1888 938 driver.c:582 interface_swd_add_transact_out():  0xBB, 0xD1C72900
Debug: 1889 938 driver.c:582 interface_swd_add_transact_out():  0xBB, 0x29007901
Debug: 1890 938 driver.c:582 interface_swd_add_transact_out():  0xBB, 0x88C1D1C4
Debug: 1891 938 driver.c:582 interface_swd_add_transact_out():  0xBB, 0xD1C12901
Debug: 1892 938 driver.c:582 interface_swd_add_transact_out():  0xBB, 0x79402100
Debug: 1893 938 driver.c:582 interface_swd_add_transact_out():  0xBB, 0x47906992
Debug: 1894 938 driver.c:582 interface_swd_add_transact_out():  0xBB, 0xD1BB2800
Debug: 1895 938 driver.c:582 interface_swd_add_transact_out():  0xBB, 0x00084921
Debug: 1896 938 driver.c:582 interface_swd_add_transact_out():  0xBB, 0x69A0D0B8
Debug: 1897 938 driver.c:582 interface_swd_add_transact_out():  0xBB, 0x82422200
Debug: 1898 938 driver.c:582 interface_swd_add_transact_out():  0xBB, 0x20006181
Debug: 1899 938 driver.c:582 interface_swd_add_transact_out():  0xBB, 0x20004788
Debug: 1900 938 driver.c:582 interface_swd_add_transact_out():  0xBB, 0x8A0A69A1
Debug: 1901 938 driver.c:582 interface_swd_add_transact_out():  0xBB, 0x73FFF64F
Debug: 1902 938 driver.c:582 interface_swd_add_transact_out():  0xBB, 0xD102429A
Debug: 1903 938 driver.c:582 interface_swd_add_transact_out():  0xBB, 0x72082009
Debug: 1904 938 driver.c:582 interface_swd_add_transact_out():  0xBB, 0x2802BD31
Debug: 1905 938 driver.c:582 interface_swd_add_transact_out():  0xBB, 0x2A00D001
Debug: 1906 938 driver.c:582 interface_swd_add_transact_out():  0xBB, 0x2008D101
Debug: 1907 938 driver.c:582 interface_swd_add_transact_out():  0xBB, 0x7808E7F7
Debug: 1908 938 driver.c:582 interface_swd_add_transact_out():  0xBB, 0xD51D0600
Debug: 1909 938 driver.c:582 interface_swd_add_transact_out():  0xBB, 0x900088C8
Debug: 1910 938 driver.c:582 interface_swd_add_transact_out():  0xBB, 0x9D0069E3
Debug: 1911 938 driver.c:582 interface_swd_add_transact_out():  0xBB, 0xD2024295
Debug: 1912 938 driver.c:582 interface_swd_add_transact_out():  0xBB, 0x82089800
Debug: 1913 938 driver.c:582 interface_swd_add_transact_out():  0xBB, 0x4282E00E
Debug: 1914 938 driver.c:582 interface_swd_add_transact_out():  0xBB, 0xF893D20C
Debug: 1915 938 driver.c:582 interface_swd_add_transact_out():  0xBB, 0x4282002C
Debug: 1916 938 driver.c:582 interface_swd_add_transact_out():  0xBB, 0x2000D201
Debug: 1917 938 driver.c:582 interface_swd_add_transact_out():  0xBB, 0xFB92E005
Debug: 1918 938 driver.c:582 interface_swd_add_transact_out():  0xBB, 0xFB00F5F0
Debug: 1919 938 driver.c:612 interface_swd_add_transact_in():  0x8D
Debug: 1920 1016 driver.c:582 interface_swd_add_transact_out():  0x8B, 0x20001000
Debug: 1921 1016 driver.c:582 interface_swd_add_transact_out():  0xBB, 0xB9082015
Debug: 1922 1016 driver.c:582 interface_swd_add_transact_out():  0xBB, 0x72202001
Debug: 1923 1016 driver.c:582 interface_swd_add_transact_out():  0xBB, 0x002CF893
Debug: 1924 1016 driver.c:582 interface_swd_add_transact_out():  0xBB, 0xE8BD8288
Debug: 1925 1016 driver.c:582 interface_swd_add_transact_out():  0xBB, 0xE66F4031
Debug: 1926 1016 driver.c:582 interface_swd_add_transact_out():  0xBB, 0x72082003
Debug: 1927 1016 driver.c:582 interface_swd_add_transact_out():  0xBB, 0x5040F44F
Debug: 1928 1016 driver.c:582 interface_swd_add_transact_out():  0xBB, 0xBD3182A0
Debug: 1929 1016 driver.c:582 interface_swd_add_transact_out():  0xBB, 0x08000A6B
Debug: 1930 1016 driver.c:582 interface_swd_add_transact_out():  0xBB, 0x08000A35
Debug: 1931 1016 driver.c:582 interface_swd_add_transact_out():  0xBB, 0x08000A4B
Debug: 1932 1016 driver.c:582 interface_swd_add_transact_out():  0xBB, 0x06004B02
Debug: 1933 1016 driver.c:582 interface_swd_add_transact_out():  0xBB, 0x0021F853
Debug: 1934 1031 driver.c:582 interface_swd_add_transact_out():  0xBB, 0xBF004770
Debug: 1935 1031 driver.c:582 interface_swd_add_transact_out():  0xBB, 0x40005C00
Debug: 1936 1031 driver.c:582 interface_swd_add_transact_out():  0xBB, 0xF7FFB510
Debug: 1937 1031 driver.c:582 interface_swd_add_transact_out():  0xBB, 0x7A01FF2F
Debug: 1938 1031 driver.c:582 interface_swd_add_transact_out():  0xBB, 0xD0012902
Debug: 1939 1031 driver.c:582 interface_swd_add_transact_out():  0xBB, 0xD1042904
Debug: 1940 1031 driver.c:582 interface_swd_add_transact_out():  0xBB, 0xFE52F7FF
Debug: 1941 1031 driver.c:582 interface_swd_add_transact_out():  0xBB, 0x7A0069A0
Debug: 1942 1031 driver.c:582 interface_swd_add_transact_out():  0xBB, 0x2906E012
Debug: 1943 1031 driver.c:582 interface_swd_add_transact_out():  0xBB, 0x7841D10F
Debug: 1944 1031 driver.c:582 interface_swd_add_transact_out():  0xBB, 0xD1092905
Debug: 1945 1031 driver.c:582 interface_swd_add_transact_out():  0xBB, 0x227F7801
Debug: 1946 1031 driver.c:582 interface_swd_add_transact_out():  0xBB, 0xD1054211
Debug: 1947 1031 driver.c:582 interface_swd_add_transact_out():  0xBB, 0xF00078C0
Debug: 1948 1031 driver.c:582 interface_swd_add_transact_out():  0xBB, 0x6A20F829
Debug: 1949 1031 driver.c:582 interface_swd_add_transact_out():  0xBB, 0x47806A00
Debug: 1950 1031 driver.c:582 interface_swd_add_transact_out():  0xBB, 0x688069E0
Debug: 1951 1031 driver.c:582 interface_swd_add_transact_out():  0xBB, 0x20084780
Debug: 1952 1031 driver.c:582 interface_swd_add_transact_out():  0xBB, 0x720869A1
Debug: 1953 1031 driver.c:582 interface_swd_add_transact_out():  0xBB, 0x4010E8BD
Debug: 1954 1031 driver.c:582 interface_swd_add_transact_out():  0xBB, 0xF000B580
Debug: 1955 1031 driver.c:582 interface_swd_add_transact_out():  0xBB, 0x4808F813
Debug: 1956 1031 driver.c:582 interface_swd_add_transact_out():  0xBB, 0x7A0A6981
Debug: 1957 1031 driver.c:582 interface_swd_add_transact_out():  0xBB, 0xD1042A08
Debug: 1958 1031 driver.c:582 interface_swd_add_transact_out():  0xBB, 0x5280F44F
Debug: 1959 1031 driver.c:582 interface_swd_add_transact_out():  0xBB, 0x22108282
Debug: 1960 1031 driver.c:582 interface_swd_add_transact_out():  0xBB, 0x7A0882C2
Debug: 1961 1031 driver.c:582 interface_swd_add_transact_out():  0xBB, 0xD1012809
Debug: 1962 1031 driver.c:582 interface_swd_add_transact_out():  0xBB, 0xBD022001
Debug: 1963 1031 driver.c:582 interface_swd_add_transact_out():  0xBB, 0xBD022000
Debug: 1964 1031 driver.c:582 interface_swd_add_transact_out():  0xBB, 0x20000558
Debug: 1965 1031 driver.c:582 interface_swd_add_transact_out():  0xBB, 0xF8904802
Debug: 1966 1031 driver.c:582 interface_swd_add_transact_out():  0xBB, 0x2000102C
Debug: 1967 1031 driver.c:582 interface_swd_add_transact_out():  0xBB, 0xBF00E18C
Debug: 1968 1031 driver.c:582 interface_swd_add_transact_out():  0xBB, 0x2000061C
Debug: 1969 1031 driver.c:582 interface_swd_add_transact_out():  0xBB, 0x490BB570
Debug: 1970 1031 driver.c:582 interface_swd_add_transact_out():  0xBB, 0x22007809
Debug: 1971 1031 driver.c:582 interface_swd_add_transact_out():  0xBB, 0xF6484B0A
Debug: 1972 1031 driver.c:582 interface_swd_add_transact_out():  0xBB, 0xE007768F
Debug: 1973 1031 driver.c:582 interface_swd_add_transact_out():  0xBB, 0xF853B2D4
Debug: 1974 1031 driver.c:582 interface_swd_add_transact_out():  0xBB, 0x40355024
Debug: 1975 1031 driver.c:582 interface_swd_add_transact_out():  0xBB, 0xF8434325
Debug: 1976 1031 driver.c:582 interface_swd_add_transact_out():  0xBB, 0x1C525024
Debug: 1977 1031 driver.c:582 interface_swd_add_transact_out():  0xBB, 0xD3F5428A
Debug: 1978 1031 driver.c:582 interface_swd_add_transact_out():  0xBB, 0x0080F040
Debug: 1979 1031 driver.c:582 interface_swd_add_transact_out():  0xBB, 0x60084903
Debug: 1980 1031 driver.c:582 interface_swd_add_transact_out():  0xBB, 0xBF00BD70
Debug: 1981 1031 driver.c:582 interface_swd_add_transact_out():  0xBB, 0x20000558
Debug: 1982 1031 driver.c:582 interface_swd_add_transact_out():  0xBB, 0x40005C00
Debug: 1983 1031 driver.c:582 interface_swd_add_transact_out():  0xBB, 0x40005C4C
Debug: 1984 1031 driver.c:582 interface_swd_add_transact_out():  0xBB, 0x00004770
Debug: 1985 1031 driver.c:582 interface_swd_add_transact_out():  0xBB, 0x47F0E92D
Debug: 1986 1031 driver.c:582 interface_swd_add_transact_out():  0xBB, 0x74BFF648
Debug: 1987 1031 driver.c:582 interface_swd_add_transact_out():  0xBB, 0x758FF64B
Debug: 1988 1031 driver.c:582 interface_swd_add_transact_out():  0xBB, 0x780FF648
Debug: 1989 1031 driver.c:582 interface_swd_add_transact_out():  0xBB, 0x798FF640
Debug: 1990 1031 driver.c:582 interface_swd_add_transact_out():  0xBB, 0x4F5F4E5E
Debug: 1991 1031 driver.c:582 interface_swd_add_transact_out():  0xBB, 0xF856E01E
Debug: 1992 1031 driver.c:582 interface_swd_add_transact_out():  0xBB, 0xFA1F1020
Debug: 1993 1031 driver.c:582 interface_swd_add_transact_out():  0xBB, 0xEA5FFA81
Debug: 1994 1031 driver.c:582 interface_swd_add_transact_out():  0xBB, 0xD509410A
Debug: 1995 1031 driver.c:582 interface_swd_add_transact_out():  0xBB, 0x1020F856
Debug: 1996 1031 driver.c:582 interface_swd_add_transact_out():  0xBB, 0x0101EA09
Debug: 1997 1031 driver.c:582 interface_swd_add_transact_out():  0xBB, 0x1020F846
Debug: 1998 1031 driver.c:582 interface_swd_add_transact_out():  0xBB, 0x0080EB07
Debug: 1999 1031 driver.c:582 interface_swd_add_transact_out():  0xBB, 0x47806BC0
Debug: 2000 1031 driver.c:582 interface_swd_add_transact_out():  0xBB, 0x600AEA5F
Debug: 2001 1031 driver.c:582 interface_swd_add_transact_out():  0xBB, 0x7A78D50A
Debug: 2002 1031 driver.c:582 interface_swd_add_transact_out():  0xBB, 0x1020F856
Debug: 2003 1031 driver.c:582 interface_swd_add_transact_out():  0xBB, 0x0101EA08
Debug: 2004 1031 driver.c:582 interface_swd_add_transact_out():  0xBB, 0x1020F846
Debug: 2005 1031 driver.c:582 interface_swd_add_transact_out():  0xBB, 0x0080EB07
Debug: 2006 1031 driver.c:582 interface_swd_add_transact_out():  0xBB, 0x47806A00
Debug: 2007 1031 driver.c:582 interface_swd_add_transact_out():  0xBB, 0x82386C70
Debug: 2008 1031 driver.c:582 interface_swd_add_transact_out():  0xBB, 0xF1400400
Debug: 2009 1031 driver.c:582 interface_swd_add_transact_out():  0xBB, 0xF6478094
Debug: 2010 1031 driver.c:582 interface_swd_add_transact_out():  0xBB, 0x647070FF
Debug: 2011 1031 driver.c:582 interface_swd_add_transact_out():  0xBB, 0xF0108A38
Debug: 2012 1031 driver.c:582 interface_swd_add_transact_out():  0xBB, 0x7278000F
Debug: 2013 1031 driver.c:582 interface_swd_add_transact_out():  0xBB, 0x6830D1D3
Debug: 2014 1031 driver.c:582 interface_swd_add_transact_out():  0xBB, 0x5040F400
Debug: 2015 1031 driver.c:582 interface_swd_add_transact_out():  0xBB, 0x683082B8
Debug: 2016 1031 driver.c:582 interface_swd_add_transact_out():  0xBB, 0x0030F000
Debug: 2017 1031 driver.c:582 interface_swd_add_transact_out():  0xBB, 0x683082F8
Debug: 2018 1031 driver.c:582 interface_swd_add_transact_out():  0xBB, 0xF4804028
Debug: 2019 1031 driver.c:582 interface_swd_add_transact_out():  0xBB, 0x60305000
Debug: 2020 1031 driver.c:582 interface_swd_add_transact_out():  0xBB, 0x40206830
Debug: 2021 1031 driver.c:582 interface_swd_add_transact_out():  0xBB, 0x0020F080
Debug: 2022 1031 driver.c:582 interface_swd_add_transact_out():  0xBB, 0x8A386030
Debug: 2023 1031 driver.c:582 interface_swd_add_transact_out():  0xBB, 0x683006C0
Debug: 2024 1031 driver.c:582 interface_swd_add_transact_out():  0xBB, 0xEA08D405
Debug: 2025 1031 driver.c:582 interface_swd_add_transact_out():  0xBB, 0x60300000
Debug: 2026 1031 driver.c:582 interface_swd_add_transact_out():  0xBB, 0xFF4AF7FF
Debug: 2027 1031 driver.c:582 interface_swd_add_transact_out():  0xBB, 0xB281E055
Debug: 2028 1031 driver.c:582 interface_swd_add_transact_out():  0xBB, 0xD5010608
Debug: 2029 1031 driver.c:582 interface_swd_add_transact_out():  0xBB, 0xE7F46830
Debug: 2030 1031 driver.c:582 interface_swd_add_transact_out():  0xBB, 0xD5330508
Debug: 2031 1031 driver.c:582 interface_swd_add_transact_out():  0xBB, 0xEA096830
Debug: 2032 1031 driver.c:582 interface_swd_add_transact_out():  0xBB, 0x60300000
Debug: 2033 1031 driver.c:582 interface_swd_add_transact_out():  0xBB, 0x6D314835
Debug: 2034 1031 driver.c:582 interface_swd_add_transact_out():  0xBB, 0x4A35B289
Debug: 2035 1031 driver.c:582 interface_swd_add_transact_out():  0xBB, 0x1011F832
Debug: 2036 1031 driver.c:582 interface_swd_add_transact_out():  0xBB, 0x0041EB00
Debug: 2037 1031 driver.c:582 interface_swd_add_transact_out():  0xBB, 0x7A0A69B9
Debug: 2038 1031 driver.c:582 interface_swd_add_transact_out():  0xBB, 0xD0172A09
Debug: 2039 1031 driver.c:582 interface_swd_add_transact_out():  0xBB, 0x2B01F810
Debug: 2040 1031 driver.c:582 interface_swd_add_transact_out():  0xBB, 0x69B9700A
Debug: 2041 1031 driver.c:582 interface_swd_add_transact_out():  0xBB, 0x2B01F810
Debug: 2042 1031 driver.c:582 interface_swd_add_transact_out():  0xBB, 0x1C81704A
Debug: 2043 1031 driver.c:582 interface_swd_add_transact_out():  0xBB, 0x2B04F831
Debug: 2044 1031 driver.c:582 interface_swd_add_transact_out():  0xBB, 0x061369B8
Debug: 2045 1031 driver.c:582 interface_swd_add_transact_out():  0xBB, 0xEA430C1B
Debug: 2046 1031 driver.c:582 interface_swd_add_transact_out():  0xBB, 0x80422212
Debug: 2047 1031 driver.c:582 interface_swd_add_transact_out():  0xBB, 0x0613880A
Debug: 2048 1031 driver.c:582 interface_swd_add_transact_out():  0xBB, 0xEA430C1B
Debug: 2049 1031 driver.c:582 interface_swd_add_transact_out():  0xBB, 0x80822212
Debug: 2050 1031 driver.c:582 interface_swd_add_transact_out():  0xBB, 0x80C18889
Debug: 2051 1031 driver.c:582 interface_swd_add_transact_out():  0xBB, 0x210169B8
Debug: 2052 1031 driver.c:582 interface_swd_add_transact_out():  0xBB, 0x69B87201
Debug: 2053 1031 driver.c:582 interface_swd_add_transact_out():  0xBB, 0xB91088C0
Debug: 2054 1031 driver.c:582 interface_swd_add_transact_out():  0xBB, 0xFDBBF7FF
Debug: 2055 1031 driver.c:582 interface_swd_add_transact_out():  0xBB, 0xF7FFE01B
Debug: 2056 1031 driver.c:582 interface_swd_add_transact_out():  0xBB, 0xE018FE47
Debug: 2057 1031 driver.c:582 interface_swd_add_transact_out():  0xBB, 0xD5990408
Debug: 2058 1031 driver.c:582 interface_swd_add_transact_out():  0xBB, 0xEA096830
Debug: 2059 1031 driver.c:582 interface_swd_add_transact_out():  0xBB, 0x60300000
Debug: 2060 1031 driver.c:582 interface_swd_add_transact_out():  0xBB, 0x7A0069B8
Debug: 2061 1031 driver.c:582 interface_swd_add_transact_out():  0xBB, 0xD0012803
Debug: 2062 1031 driver.c:582 interface_swd_add_transact_out():  0xBB, 0xD1042805
Debug: 2063 1031 driver.c:582 interface_swd_add_transact_out():  0xBB, 0xFD1BF7FF
Debug: 2064 1031 driver.c:582 interface_swd_add_transact_out():  0xBB, 0x7A0069B8
Debug: 2065 1031 driver.c:582 interface_swd_add_transact_out():  0xBB, 0x2807E005
Debug: 2066 1031 driver.c:582 interface_swd_add_transact_out():  0xBB, 0x69F8D102
Debug: 2067 1031 driver.c:582 interface_swd_add_transact_out():  0xBB, 0x478068C0
Debug: 2068 1031 driver.c:582 interface_swd_add_transact_out():  0xBB, 0x69B92008
Debug: 2069 1031 driver.c:582 interface_swd_add_transact_out():  0xBB, 0xF7FF7208
Debug: 2070 1031 driver.c:582 interface_swd_add_transact_out():  0xBB, 0x6830FF17
Debug: 2071 1031 driver.c:582 interface_swd_add_transact_out():  0xBB, 0x8AB94028
Debug: 2072 1031 driver.c:582 interface_swd_add_transact_out():  0xBB, 0xD50104CA
Debug: 2073 1031 driver.c:582 interface_swd_add_transact_out():  0xBB, 0x5080F480
Debug: 2074 1031 driver.c:582 interface_swd_add_transact_out():  0xBB, 0xD5020489
Debug: 2075 1031 driver.c:582 interface_swd_add_transact_out():  0xBB, 0x5000F480
Debug: 2076 1031 driver.c:582 interface_swd_add_transact_out():  0xBB, 0x6030B280
Debug: 2077 1031 driver.c:582 interface_swd_add_transact_out():  0xBB, 0x40206830
Debug: 2078 1031 driver.c:582 interface_swd_add_transact_out():  0xBB, 0x06CA8AF9
Debug: 2079 1031 driver.c:582 interface_swd_add_transact_out():  0xBB, 0xF080D501
Debug: 2080 1031 driver.c:582 interface_swd_add_transact_out():  0xBB, 0x06890010
Debug: 2081 1031 driver.c:582 interface_swd_add_transact_out():  0xBB, 0xF080D502
Debug: 2082 1031 driver.c:582 interface_swd_add_transact_out():  0xBB, 0xB2800020
Debug: 2083 1031 driver.c:582 interface_swd_add_transact_out():  0xBB, 0xE8BD6030
Debug: 2084 1031 driver.c:582 interface_swd_add_transact_out():  0xBB, 0xBF0087F0
Debug: 2085 1031 driver.c:582 interface_swd_add_transact_out():  0xBB, 0x40005C00
Debug: 2086 1031 driver.c:582 interface_swd_add_transact_out():  0xBB, 0x20000558
Debug: 2087 1031 driver.c:582 interface_swd_add_transact_out():  0xBB, 0x40006000
Debug: 2088 1031 driver.c:582 interface_swd_add_transact_out():  0xBB, 0x40006008
Debug: 2089 1031 driver.c:582 interface_swd_add_transact_out():  0xBB, 0x4B09B510
Debug: 2090 1031 driver.c:582 interface_swd_add_transact_out():  0xBB, 0x0141EB03
Debug: 2091 1031 driver.c:582 interface_swd_add_transact_out():  0xBB, 0x10521C52
Debug: 2092 1031 driver.c:582 interface_swd_add_transact_out():  0xBB, 0xF810E009
Debug: 2093 1031 driver.c:582 interface_swd_add_transact_out():  0xBB, 0xF8103B01
Debug: 2094 1031 driver.c:582 interface_swd_add_transact_out():  0xBB, 0xEA434B01
Debug: 2095 1031 driver.c:582 interface_swd_add_transact_out():  0xBB, 0xF8212304
Debug: 2096 1031 driver.c:582 interface_swd_add_transact_out():  0xBB, 0x1C893B02
Debug: 2097 1031 driver.c:582 interface_swd_add_transact_out():  0xBB, 0xD1F41E52
Debug: 2098 1031 driver.c:582 interface_swd_add_transact_out():  0xBB, 0xBF00BD10
Debug: 2099 1031 driver.c:582 interface_swd_add_transact_out():  0xBB, 0x40006000
Debug: 2100 1031 driver.c:582 interface_swd_add_transact_out():  0xBB, 0xEB034B06
Debug: 2101 1031 driver.c:582 interface_swd_add_transact_out():  0xBB, 0x1C520141
Debug: 2102 1031 driver.c:582 interface_swd_add_transact_out():  0xBB, 0xE0041052
Debug: 2103 1031 driver.c:582 interface_swd_add_transact_out():  0xBB, 0x3B04F851
Debug: 2104 1031 driver.c:582 interface_swd_add_transact_out():  0xBB, 0x3B02F820
Debug: 2105 1031 driver.c:582 interface_swd_add_transact_out():  0xBB, 0xD1F91E52
Debug: 2106 1031 driver.c:582 interface_swd_add_transact_out():  0xBB, 0xBF004770
Debug: 2107 1031 driver.c:582 interface_swd_add_transact_out():  0xBB, 0x40006000
Debug: 2108 1031 driver.c:582 interface_swd_add_transact_out():  0xBB, 0xF000B510
Debug: 2109 1031 driver.c:582 interface_swd_add_transact_out():  0xBB, 0xF648F817
Debug: 2110 1031 driver.c:582 interface_swd_add_transact_out():  0xBB, 0x4023148F
Debug: 2111 1031 driver.c:582 interface_swd_add_transact_out():  0xBB, 0xF8424319
Debug: 2112 1031 driver.c:582 interface_swd_add_transact_out():  0xBB, 0xBD101020
Debug: 2113 1031 driver.c:582 interface_swd_add_transact_out():  0xBB, 0xF000B510
Debug: 2114 1031 driver.c:582 interface_swd_add_transact_out():  0xBB, 0xF648F80D
Debug: 2115 1031 driver.c:582 interface_swd_add_transact_out():  0xBB, 0x402374BF
Debug: 2116 1031 driver.c:582 interface_swd_add_transact_out():  0xBB, 0xD50106CC
Debug: 2117 1031 driver.c:582 interface_swd_add_transact_out():  0xBB, 0x0310F083
Debug: 2118 1031 driver.c:582 interface_swd_add_transact_out():  0xBB, 0xD5020689
Debug: 2119 1031 driver.c:582 interface_swd_add_transact_out():  0xBB, 0x0320F083
Debug: 2120 1031 driver.c:582 interface_swd_add_transact_out():  0xBB, 0xE014B29B
Debug: 2121 1031 driver.c:582 interface_swd_add_transact_out():  0xBB, 0xF8524A01
Debug: 2122 1031 driver.c:582 interface_swd_add_transact_out():  0xBB, 0x47703020
Debug: 2123 1031 driver.c:582 interface_swd_add_transact_out():  0xBB, 0x40005C00
Debug: 2124 1031 driver.c:582 interface_swd_add_transact_out():  0xBB, 0xF7FFB510
Debug: 2125 1031 driver.c:582 interface_swd_add_transact_out():  0xBB, 0xF64BFFF7
Debug: 2126 1031 driver.c:582 interface_swd_add_transact_out():  0xBB, 0x4023748F
Debug: 2127 1031 driver.c:582 interface_swd_add_transact_out():  0xBB, 0xD50104CC
Debug: 2128 1031 driver.c:582 interface_swd_add_transact_out():  0xBB, 0x5380F483
Debug: 2129 1031 driver.c:582 interface_swd_add_transact_out():  0xBB, 0xD5020489
Debug: 2130 1031 driver.c:582 interface_swd_add_transact_out():  0xBB, 0x5300F483
Debug: 2131 1031 driver.c:582 interface_swd_add_transact_out():  0xBB, 0xF842B29B
Debug: 2132 1031 driver.c:582 interface_swd_add_transact_out():  0xBB, 0xBD103020
Debug: 2133 1031 driver.c:582 interface_swd_add_transact_out():  0xBB, 0xF8514904
Debug: 2134 1031 driver.c:582 interface_swd_add_transact_out():  0xBB, 0xF6482020
Debug: 2135 1031 driver.c:582 interface_swd_add_transact_out():  0xBB, 0x401A73BF
Debug: 2136 1031 driver.c:582 interface_swd_add_transact_out():  0xBB, 0x0230F082
Debug: 2137 1031 driver.c:582 interface_swd_add_transact_out():  0xBB, 0xBF00E00A
Debug: 2138 1031 driver.c:582 interface_swd_add_transact_out():  0xBB, 0x40005C00
Debug: 2139 1031 driver.c:582 interface_swd_add_transact_out():  0xBB, 0xF8514905
Debug: 2140 1031 driver.c:582 interface_swd_add_transact_out():  0xBB, 0xF64B2020
Debug: 2141 1031 driver.c:582 interface_swd_add_transact_out():  0xBB, 0x401A738F
Debug: 2142 1031 driver.c:582 interface_swd_add_transact_out():  0xBB, 0x5240F482
Debug: 2143 1031 driver.c:582 interface_swd_add_transact_out():  0xBB, 0x2020F841
Debug: 2144 1031 driver.c:582 interface_swd_add_transact_out():  0xBB, 0x00004770
Debug: 2145 1031 driver.c:582 interface_swd_add_transact_out():  0xBB, 0x40005C00
Debug: 2146 1031 driver.c:582 interface_swd_add_transact_out():  0xBB, 0x68124A03
Debug: 2147 1031 driver.c:582 interface_swd_add_transact_out():  0xBB, 0xEB02B292
Debug: 2148 1031 driver.c:582 interface_swd_add_transact_out():  0xBB, 0x4A0200C0
Debug: 2149 1031 driver.c:582 interface_swd_add_transact_out():  0xBB, 0xBF00E00A
Debug: 2150 1031 driver.c:582 interface_swd_add_transact_out():  0xBB, 0x40005C50
Debug: 2151 1031 driver.c:582 interface_swd_add_transact_out():  0xBB, 0x40006000
Debug: 2152 1031 driver.c:582 interface_swd_add_transact_out():  0xBB, 0x68124A05
Debug: 2153 1031 driver.c:582 interface_swd_add_transact_out():  0xBB, 0xEB02B292
Debug: 2154 1031 driver.c:582 interface_swd_add_transact_out():  0xBB, 0x4A0400C0
Debug: 2155 1031 driver.c:582 interface_swd_add_transact_out():  0xBB, 0x00490849
Debug: 2156 1031 driver.c:582 interface_swd_add_transact_out():  0xBB, 0x1010F842
Debug: 2157 1031 driver.c:582 interface_swd_add_transact_out():  0xBB, 0x00004770
Debug: 2158 1031 driver.c:582 interface_swd_add_transact_out():  0xBB, 0x40005C50
Debug: 2159 1031 driver.c:582 interface_swd_add_transact_out():  0xBB, 0x40006008
Debug: 2160 1031 driver.c:582 interface_swd_add_transact_out():  0xBB, 0x68124A03
Debug: 2161 1031 driver.c:582 interface_swd_add_transact_out():  0xBB, 0xEB02B292
Debug: 2162 1031 driver.c:582 interface_swd_add_transact_out():  0xBB, 0x4A0200C0
Debug: 2163 1031 driver.c:582 interface_swd_add_transact_out():  0xBB, 0xBF00E7F0
Debug: 2164 1031 driver.c:582 interface_swd_add_transact_out():  0xBB, 0x40005C50
Debug: 2165 1031 driver.c:582 interface_swd_add_transact_out():  0xBB, 0x40006004
Debug: 2166 1031 driver.c:582 interface_swd_add_transact_out():  0xBB, 0x68124A0D
Debug: 2167 1031 driver.c:582 interface_swd_add_transact_out():  0xBB, 0xEB02B292
Debug: 2168 1031 driver.c:582 interface_swd_add_transact_out():  0xBB, 0x4A0C00C0
Debug: 2169 1031 driver.c:582 interface_swd_add_transact_out():  0xBB, 0x0040EB02
Debug: 2170 1031 driver.c:582 interface_swd_add_transact_out():  0xBB, 0xD309293F
Debug: 2171 1031 driver.c:582 interface_swd_add_transact_out():  0xBB, 0x231F094A
Debug: 2172 1031 driver.c:582 interface_swd_add_transact_out():  0xBB, 0xD1014219
Debug: 2173 1031 driver.c:582 interface_swd_add_transact_out():  0xBB, 0xB2921E52
Debug: 2174 1031 driver.c:582 interface_swd_add_transact_out():  0xBB, 0xF4410291
Debug: 2175 1031 driver.c:582 interface_swd_add_transact_out():  0xBB, 0xE0054100
Debug: 2176 1031 driver.c:582 interface_swd_add_transact_out():  0xBB, 0x07C9084A
Debug: 2177 1031 driver.c:582 interface_swd_add_transact_out():  0xBB, 0x1C52D501
Debug: 2178 1031 driver.c:582 interface_swd_add_transact_out():  0xBB, 0x0291B292
Debug: 2179 1031 driver.c:582 interface_swd_add_transact_out():  0xBB, 0x47706001
Debug: 2180 1031 driver.c:582 interface_swd_add_transact_out():  0xBB, 0x40005C50
Debug: 2181 1031 driver.c:582 interface_swd_add_transact_out():  0xBB, 0x4000600C
Debug: 2182 1031 driver.c:582 interface_swd_add_transact_out():  0xBB, 0xE7FE4770
Debug: 2183 1031 driver.c:582 interface_swd_add_transact_out():  0xBB, 0xE7FEE7FE
Debug: 2184 1031 driver.c:582 interface_swd_add_transact_out():  0xBB, 0x4770E7FE
Debug: 2185 1031 driver.c:582 interface_swd_add_transact_out():  0xBB, 0x47704770
Debug: 2186 1031 driver.c:582 interface_swd_add_transact_out():  0xBB, 0x47704770
Debug: 2187 1031 driver.c:582 interface_swd_add_transact_out():  0xBB, 0x47704770
Debug: 2188 1031 driver.c:582 interface_swd_add_transact_out():  0xBB, 0x47704770
Debug: 2189 1031 driver.c:582 interface_swd_add_transact_out():  0xBB, 0x47704770
Debug: 2190 1031 driver.c:582 interface_swd_add_transact_out():  0xBB, 0x47704770
Debug: 2191 1031 driver.c:582 interface_swd_add_transact_out():  0xBB, 0x47704770
Debug: 2192 1031 driver.c:582 interface_swd_add_transact_out():  0xBB, 0x47704770
Debug: 2193 1031 driver.c:582 interface_swd_add_transact_out():  0xBB, 0x47704770
Debug: 2194 1031 driver.c:582 interface_swd_add_transact_out():  0xBB, 0x47704770
Debug: 2195 1031 driver.c:582 interface_swd_add_transact_out():  0xBB, 0x47704770
Debug: 2196 1031 driver.c:582 interface_swd_add_transact_out():  0xBB, 0xF7FF4770
Debug: 2197 1031 driver.c:582 interface_swd_add_transact_out():  0xBB, 0x4770B933
Debug: 2198 1031 driver.c:582 interface_swd_add_transact_out():  0xBB, 0x47704770
Debug: 2199 1031 driver.c:582 interface_swd_add_transact_out():  0xBB, 0x47704770
Debug: 2200 1031 driver.c:582 interface_swd_add_transact_out():  0xBB, 0x47704770
Debug: 2201 1031 driver.c:582 interface_swd_add_transact_out():  0xBB, 0x47704770
Debug: 2202 1031 driver.c:582 interface_swd_add_transact_out():  0xBB, 0x47704770
Debug: 2203 1031 driver.c:582 interface_swd_add_transact_out():  0xBB, 0x47704770
Debug: 2204 1031 driver.c:582 interface_swd_add_transact_out():  0xBB, 0x47704770
Debug: 2205 1031 driver.c:582 interface_swd_add_transact_out():  0xBB, 0x47704770
Debug: 2206 1031 driver.c:582 interface_swd_add_transact_out():  0xBB, 0x47704770
Debug: 2207 1031 driver.c:582 interface_swd_add_transact_out():  0xBB, 0x47704770
Debug: 2208 1031 driver.c:582 interface_swd_add_transact_out():  0xBB, 0x47704770
Debug: 2209 1031 driver.c:582 interface_swd_add_transact_out():  0xBB, 0x47704770
Debug: 2210 1031 driver.c:582 interface_swd_add_transact_out():  0xBB, 0x47704770
Debug: 2211 1031 driver.c:582 interface_swd_add_transact_out():  0xBB, 0x47704770
Debug: 2212 1031 driver.c:582 interface_swd_add_transact_out():  0xBB, 0x47704770
Debug: 2213 1031 driver.c:582 interface_swd_add_transact_out():  0xBB, 0x47704770
Debug: 2214 1031 driver.c:582 interface_swd_add_transact_out():  0xBB, 0x47704770
Debug: 2215 1031 driver.c:582 interface_swd_add_transact_out():  0xBB, 0x47704770
Debug: 2216 1031 driver.c:582 interface_swd_add_transact_out():  0xBB, 0x47704770
Debug: 2217 1031 driver.c:582 interface_swd_add_transact_out():  0xBB, 0x43F8E92D
Debug: 2218 1031 driver.c:582 interface_swd_add_transact_out():  0xBB, 0x68014867
Debug: 2219 1031 driver.c:582 interface_swd_add_transact_out():  0xBB, 0x011DF041
Debug: 2220 1031 driver.c:582 interface_swd_add_transact_out():  0xBB, 0x21016001
Debug: 2221 1031 driver.c:582 interface_swd_add_transact_out():  0xBB, 0x50C0F04F
Debug: 2222 1031 driver.c:582 interface_swd_add_transact_out():  0xBB, 0xFAB4F7FF
Debug: 2223 1031 driver.c:582 interface_swd_add_transact_out():  0xBB, 0x21014863
Debug: 2224 1031 driver.c:582 interface_swd_add_transact_out():  0xBB, 0x48636001
Debug: 2225 1031 driver.c:582 interface_swd_add_transact_out():  0xBB, 0x60012100
Debug: 2226 1031 driver.c:582 interface_swd_add_transact_out():  0xBB, 0x220D4D62
Debug: 2227 1031 driver.c:582 interface_swd_add_transact_out():  0xBB, 0xF0002138
Debug: 2228 1031 driver.c:582 interface_swd_add_transact_out():  0xBB, 0x4C61F8DE
Debug: 2229 1031 driver.c:582 interface_swd_add_transact_out():  0xBB, 0x048068A8
Debug: 2230 1031 driver.c:582 interface_swd_add_transact_out():  0xBB, 0x4860D50C
Debug: 2231 1031 driver.c:582 interface_swd_add_transact_out():  0xBB, 0xF2458800
Debug: 2232 1031 driver.c:582 interface_swd_add_transact_out():  0xBB, 0x428851AA
Debug: 2233 1031 driver.c:582 interface_swd_add_transact_out():  0xBB, 0xF7FED006
Debug: 2234 1031 driver.c:582 interface_swd_add_transact_out():  0xBB, 0x6860FFA1
Debug: 2235 1031 driver.c:582 interface_swd_add_transact_out():  0xBB, 0xF8F4F000
Debug: 2236 1031 driver.c:582 interface_swd_add_transact_out():  0xBB, 0x478068A0
Debug: 2237 1031 driver.c:582 interface_swd_add_transact_out():  0xBB, 0xFFDEF7FE
Debug: 2238 1031 driver.c:582 interface_swd_add_transact_out():  0xBB, 0x68014859
Debug: 2239 1031 driver.c:582 interface_swd_add_transact_out():  0xBB, 0xF0226802
Debug: 2240 1031 driver.c:582 interface_swd_add_transact_out():  0xBB, 0x60026270
Debug: 2241 1031 driver.c:582 interface_swd_add_transact_out():  0xBB, 0x6170F021
Debug: 2242 1031 driver.c:582 interface_swd_add_transact_out():  0xBB, 0x6180F041
Debug: 2243 1031 driver.c:582 interface_swd_add_transact_out():  0xBB, 0x4D556001
Debug: 2244 1031 driver.c:582 interface_swd_add_transact_out():  0xBB, 0x612820C0
Debug: 2245 1031 driver.c:582 interface_swd_add_transact_out():  0xBB, 0xF0002206
Debug: 2246 1031 driver.c:582 interface_swd_add_transact_out():  0xBB, 0x2207F8B9
Debug: 2247 1031 driver.c:582 interface_swd_add_transact_out():  0xBB, 0xF8B6F000
Debug: 2248 1031 driver.c:582 interface_swd_add_transact_out():  0xBB, 0x49524851
Debug: 2249 1031 driver.c:582 interface_swd_add_transact_out():  0xBB, 0x22026181
Debug: 2250 1031 driver.c:582 interface_swd_add_transact_out():  0xBB, 0x4A51720A
Debug: 2251 1031 driver.c:582 interface_swd_add_transact_out():  0xBB, 0xF20161C2
Debug: 2252 1031 driver.c:582 interface_swd_add_transact_out():  0xBB, 0x6201011C
Debug: 2253 1031 driver.c:582 interface_swd_add_transact_out():  0xBB, 0x47806810
Debug: 2254 1031 driver.c:582 interface_swd_add_transact_out():  0xBB, 0x61682040
Debug: 2255 1031 driver.c:582 interface_swd_add_transact_out():  0xBB, 0xF7FF200A
Debug: 2256 1031 driver.c:582 interface_swd_add_transact_out():  0xBB, 0x4E4CF88A
Debug: 2257 1031 driver.c:582 interface_swd_add_transact_out():  0xBB, 0x9130F8DF
Debug: 2258 1031 driver.c:582 interface_swd_add_transact_out():  0xBB, 0x9000F8C6
Debug: 2259 1031 driver.c:582 interface_swd_add_transact_out():  0xBB, 0x812CF8DF
Debug: 2260 1031 driver.c:582 interface_swd_add_transact_out():  0xBB, 0x8000F8C6
Debug: 2261 1031 driver.c:582 interface_swd_add_transact_out():  0xBB, 0x60B02035
Debug: 2262 1031 driver.c:582 interface_swd_add_transact_out():  0xBB, 0x68204F49
Debug: 2263 1031 driver.c:582 interface_swd_add_transact_out():  0xBB, 0x0F01F110
Debug: 2264 1031 driver.c:582 interface_swd_add_transact_out():  0xBB, 0x6838D10F
Debug: 2265 1031 driver.c:582 interface_swd_add_transact_out():  0xBB, 0x18086879
Debug: 2266 1031 driver.c:582 interface_swd_add_transact_out():  0xBB, 0x180968B9
Debug: 2267 1031 driver.c:582 interface_swd_add_transact_out():  0xBB, 0x6000F04F
Debug: 2268 1031 driver.c:582 interface_swd_add_transact_out():  0xBB, 0x2B04F850
Debug: 2269 1031 driver.c:582 interface_swd_add_transact_out():  0xBB, 0x4A431851
Debug: 2270 1031 driver.c:582 interface_swd_add_transact_out():  0xBB, 0xD3F94290
Debug: 2271 1031 driver.c:582 interface_swd_add_transact_out():  0xBB, 0xF7FF4620
Debug: 2272 1031 driver.c:582 interface_swd_add_transact_out():  0xBB, 0x69B0F9E4
Debug: 2273 1031 driver.c:582 interface_swd_add_transact_out():  0xBB, 0xD4300780
Debug: 2274 1031 driver.c:582 interface_swd_add_transact_out():  0xBB, 0x74FFF640
Debug: 2275 1031 driver.c:582 interface_swd_add_transact_out():  0xBB, 0xF7FF4620
Debug: 2276 1047 driver.c:582 interface_swd_add_transact_out():  0xBB, 0x2804FA13
Debug: 2277 1047 driver.c:582 interface_swd_add_transact_out():  0xBB, 0xF8C6D129
Debug: 2278 1047 driver.c:582 interface_swd_add_transact_out():  0xBB, 0xF8C69004
Debug: 2279 1047 driver.c:582 interface_swd_add_transact_out():  0xBB, 0x68F08004
Debug: 2280 1047 driver.c:582 interface_swd_add_transact_out():  0xBB, 0x0020F040
Debug: 2281 1047 driver.c:582 interface_swd_add_transact_out():  0xBB, 0x68F060F0
Debug: 2282 1047 driver.c:582 interface_swd_add_transact_out():  0xBB, 0x0040F040
Debug: 2283 1047 driver.c:582 interface_swd_add_transact_out():  0xBB, 0x462060F0
Debug: 2284 1047 driver.c:582 interface_swd_add_transact_out():  0xBB, 0xFA02F7FF
Debug: 2285 1047 driver.c:582 interface_swd_add_transact_out():  0xBB, 0x71DFF641
Debug: 2286 1047 driver.c:582 interface_swd_add_transact_out():  0xBB, 0xD1112804
Debug: 2287 1047 driver.c:582 interface_swd_add_transact_out():  0xBB, 0x400868F0
Debug: 2288 1047 driver.c:582 interface_swd_add_transact_out():  0xBB, 0x68F060F0
Debug: 2289 1047 driver.c:582 interface_swd_add_transact_out():  0xBB, 0x0010F040
Debug: 2290 1047 driver.c:582 interface_swd_add_transact_out():  0xBB, 0x200060F0
Debug: 2291 1047 driver.c:582 interface_swd_add_transact_out():  0xBB, 0x46208338
Debug: 2292 1047 driver.c:582 interface_swd_add_transact_out():  0xBB, 0xF9F2F7FF
Debug: 2293 1047 driver.c:582 interface_swd_add_transact_out():  0xBB, 0xD0082801
Debug: 2294 1047 driver.c:582 interface_swd_add_transact_out():  0xBB, 0xF64168F0
Debug: 2295 1047 driver.c:582 interface_swd_add_transact_out():  0xBB, 0xE00271EF
Debug: 2296 1047 driver.c:582 interface_swd_add_transact_out():  0xBB, 0xD0022801
Debug: 2297 1047 driver.c:582 interface_swd_add_transact_out():  0xBB, 0x400868F0
Debug: 2298 1047 driver.c:582 interface_swd_add_transact_out():  0xBB, 0x204060F0
Debug: 2299 1047 driver.c:582 interface_swd_add_transact_out():  0xBB, 0x4C266168
Debug: 2300 1047 driver.c:582 interface_swd_add_transact_out():  0xBB, 0xF7FEE001
Debug: 2301 1047 driver.c:582 interface_swd_add_transact_out():  0xBB, 0x2101FDBA
Debug: 2302 1047 driver.c:582 interface_swd_add_transact_out():  0xBB, 0xF7FFA800
Debug: 2303 1047 driver.c:582 interface_swd_add_transact_out():  0xBB, 0xF89DF815
Debug: 2304 1047 driver.c:582 interface_swd_add_transact_out():  0xBB, 0x287F0000
Debug: 2305 1047 driver.c:582 interface_swd_add_transact_out():  0xBB, 0x2101D0F5
Debug: 2306 1047 driver.c:582 interface_swd_add_transact_out():  0xBB, 0x0001F10D
Debug: 2307 1047 driver.c:582 interface_swd_add_transact_out():  0xBB, 0xF80CF7FF
Debug: 2308 1047 driver.c:582 interface_swd_add_transact_out():  0xBB, 0x0000F89D
Debug: 2309 1047 driver.c:582 interface_swd_add_transact_out():  0xBB, 0x1001F89D
Debug: 2310 1047 driver.c:582 interface_swd_add_transact_out():  0xBB, 0x28FF4048
Debug: 2311 1047 driver.c:582 interface_swd_add_transact_out():  0xBB, 0xF89DD1EB
Debug: 2312 1047 driver.c:582 interface_swd_add_transact_out():  0xBB, 0x21000000
Debug: 2313 1047 driver.c:582 interface_swd_add_transact_out():  0xBB, 0x2031F814
Debug: 2314 1047 driver.c:582 interface_swd_add_transact_out():  0xBB, 0xD1064282
Debug: 2315 1047 driver.c:582 interface_swd_add_transact_out():  0xBB, 0x02C1EB04
Debug: 2316 1047 driver.c:582 interface_swd_add_transact_out():  0xBB, 0x00136852
Debug: 2317 1047 driver.c:582 interface_swd_add_transact_out():  0xBB, 0x4790D001
Debug: 2318 1047 driver.c:582 interface_swd_add_transact_out():  0xBB, 0x1C49E7DD
Debug: 2319 1047 driver.c:582 interface_swd_add_transact_out():  0xBB, 0xD3F1290B
Debug: 2320 1047 driver.c:582 interface_swd_add_transact_out():  0xBB, 0xFD90F7FE
Debug: 2321 1047 driver.c:582 interface_swd_add_transact_out():  0xBB, 0xBF00E7D7
Debug: 2322 1047 driver.c:582 interface_swd_add_transact_out():  0xBB, 0x40021018
Debug: 2323 1047 driver.c:582 interface_swd_add_transact_out():  0xBB, 0x420E0020
Debug: 2324 1047 driver.c:582 interface_swd_add_transact_out():  0xBB, 0x420D8600
Debug: 2325 1047 driver.c:582 interface_swd_add_transact_out():  0xBB, 0x40011000
Debug: 2326 1047 driver.c:582 interface_swd_add_transact_out():  0xBB, 0x08001FFC
Debug: 2327 1047 driver.c:582 interface_swd_add_transact_out():  0xBB, 0x40006C04
Debug: 2328 1047 driver.c:582 interface_swd_add_transact_out():  0xBB, 0x40010004
Debug: 2329 1047 driver.c:582 interface_swd_add_transact_out():  0xBB, 0x40010C00
Debug: 2330 1047 driver.c:582 interface_swd_add_transact_out():  0xBB, 0x20000558
Debug: 2331 1047 driver.c:582 interface_swd_add_transact_out():  0xBB, 0x200005DC
Debug: 2332 1047 driver.c:582 interface_swd_add_transact_out():  0xBB, 0x2000061C
Debug: 2333 1047 driver.c:582 interface_swd_add_transact_out():  0xBB, 0x40022004
Debug: 2334 1047 driver.c:582 interface_swd_add_transact_out():  0xBB, 0x45670123
Debug: 2335 1047 driver.c:582 interface_swd_add_transact_out():  0xBB, 0xCDEF89AB
Debug: 2336 1047 driver.c:582 interface_swd_add_transact_out():  0xBB, 0x1FFFF7E8
Debug: 2337 1047 driver.c:582 interface_swd_add_transact_out():  0xBB, 0x08000400
Debug: 2338 1047 driver.c:582 interface_swd_add_transact_out():  0xBB, 0x080016DC
Debug: 2339 1047 driver.c:582 interface_swd_add_transact_out():  0xBB, 0x46282103
Debug: 2340 1047 driver.c:582 interface_swd_add_transact_out():  0xBB, 0xBF78F7FE
Debug: 2341 1047 driver.c:582 interface_swd_add_transact_out():  0xBB, 0x4770BF30
Debug: 2342 1047 driver.c:582 interface_swd_add_transact_out():  0xBB, 0x4770BF20
Debug: 2343 1047 driver.c:582 interface_swd_add_transact_out():  0xBB, 0x4770BF40
Debug: 2344 1047 driver.c:582 interface_swd_add_transact_out():  0xBB, 0x8F6FF3BF
Debug: 2345 1047 driver.c:582 interface_swd_add_transact_out():  0xBB, 0xF3BF4770
Debug: 2346 1047 driver.c:582 interface_swd_add_transact_out():  0xBB, 0x47708F4F
Debug: 2347 1047 driver.c:582 interface_swd_add_transact_out():  0xBB, 0x8F5FF3BF
Debug: 2348 1047 driver.c:582 interface_swd_add_transact_out():  0xBB, 0xDF014770
Debug: 2349 1047 driver.c:582 interface_swd_add_transact_out():  0xBB, 0xF3EF4770
Debug: 2350 1047 driver.c:582 interface_swd_add_transact_out():  0xBB, 0x47708014
Debug: 2351 1047 driver.c:582 interface_swd_add_transact_out():  0xBB, 0x8814F380
Debug: 2352 1047 driver.c:582 interface_swd_add_transact_out():  0xBB, 0x8F6FF3BF
Debug: 2353 1047 driver.c:582 interface_swd_add_transact_out():  0xBB, 0xF3EF4770
Debug: 2354 1047 driver.c:582 interface_swd_add_transact_out():  0xBB, 0x47708009
Debug: 2355 1047 driver.c:582 interface_swd_add_transact_out():  0xBB, 0x8809F380
Debug: 2356 1047 driver.c:582 interface_swd_add_transact_out():  0xBB, 0xF3EF4770
Debug: 2357 1047 driver.c:582 interface_swd_add_transact_out():  0xBB, 0x47708008
Debug: 2358 1047 driver.c:582 interface_swd_add_transact_out():  0xBB, 0x8808F380
Debug: 2359 1047 driver.c:582 interface_swd_add_transact_out():  0xBB, 0xB6624770
Debug: 2360 1047 driver.c:582 interface_swd_add_transact_out():  0xBB, 0xB6724770
Debug: 2361 1047 driver.c:582 interface_swd_add_transact_out():  0xBB, 0xF3EF4770
Debug: 2362 1047 driver.c:582 interface_swd_add_transact_out():  0xBB, 0x47708010
Debug: 2363 1047 driver.c:582 interface_swd_add_transact_out():  0xBB, 0x4770B661
Debug: 2364 1047 driver.c:582 interface_swd_add_transact_out():  0xBB, 0x4770B671
Debug: 2365 1047 driver.c:582 interface_swd_add_transact_out():  0xBB, 0x8013F3EF
Debug: 2366 1047 driver.c:582 interface_swd_add_transact_out():  0xBB, 0xF3804770
Debug: 2367 1047 driver.c:582 interface_swd_add_transact_out():  0xBB, 0x47708811
Debug: 2368 1047 driver.c:582 interface_swd_add_transact_out():  0xBB, 0x8012F3EF
Debug: 2369 1047 driver.c:582 interface_swd_add_transact_out():  0xBB, 0xBA404770
Debug: 2370 1047 driver.c:582 interface_swd_add_transact_out():  0xBB, 0xBA004770
Debug: 2371 1047 driver.c:582 interface_swd_add_transact_out():  0xBB, 0x00004770
Debug: 2372 1047 driver.c:582 interface_swd_add_transact_out():  0xBB, 0x00000000
Debug: 2373 1047 driver.c:582 interface_swd_add_transact_out():  0xBB, 0x0800018D
Debug: 2374 1047 driver.c:582 interface_swd_add_transact_out():  0xBB, 0x00000001
Debug: 2375 1047 driver.c:582 interface_swd_add_transact_out():  0xBB, 0x080001C1
Debug: 2376 1047 driver.c:582 interface_swd_add_transact_out():  0xBB, 0x00000002
Debug: 2377 1047 driver.c:582 interface_swd_add_transact_out():  0xBB, 0x080001DF
Debug: 2378 1047 driver.c:582 interface_swd_add_transact_out():  0xBB, 0x00000011
Debug: 2379 1047 driver.c:582 interface_swd_add_transact_out():  0xBB, 0x08000209
Debug: 2380 1047 driver.c:582 interface_swd_add_transact_out():  0xBB, 0x00000021
Debug: 2381 1047 driver.c:582 interface_swd_add_transact_out():  0xBB, 0x08000259
Debug: 2382 1047 driver.c:582 interface_swd_add_transact_out():  0xBB, 0x00000031
Debug: 2383 1047 driver.c:582 interface_swd_add_transact_out():  0xBB, 0x080002AD
Debug: 2384 1047 driver.c:582 interface_swd_add_transact_out():  0xBB, 0x00000043
Debug: 2385 1047 driver.c:582 interface_swd_add_transact_out():  0xBB, 0x08000359
Debug: 2386 1047 driver.c:582 interface_swd_add_transact_out():  0xBB, 0x00000063
Debug: 2387 1047 driver.c:582 interface_swd_add_transact_out():  0xBB, 0x080003E1
Debug: 2388 1047 driver.c:582 interface_swd_add_transact_out():  0xBB, 0x00000073
Debug: 2389 1047 driver.c:582 interface_swd_add_transact_out():  0xBB, 0x080003E5
Debug: 2390 1047 driver.c:582 interface_swd_add_transact_out():  0xBB, 0x00000082
Debug: 2391 1047 driver.c:582 interface_swd_add_transact_out():  0xBB, 0x080003EF
Debug: 2392 1047 driver.c:582 interface_swd_add_transact_out():  0xBB, 0x00000092
Debug: 2393 1047 driver.c:582 interface_swd_add_transact_out():  0xBB, 0x080003F3
Debug: 2394 1047 driver.c:582 interface_swd_add_transact_out():  0xBB, 0x00430209
Debug: 2395 1047 driver.c:582 interface_swd_add_transact_out():  0xBB, 0xC0000102
Debug: 2396 1047 driver.c:582 interface_swd_add_transact_out():  0xBB, 0x00040900
Debug: 2397 1047 driver.c:582 interface_swd_add_transact_out():  0xBB, 0x02020100
Debug: 2398 1047 driver.c:582 interface_swd_add_transact_out():  0xBB, 0x24050001
Debug: 2399 1047 driver.c:582 interface_swd_add_transact_out():  0xBB, 0x05011000
Debug: 2400 1047 driver.c:582 interface_swd_add_transact_out():  0xBB, 0x01000124
Debug: 2401 1047 driver.c:582 interface_swd_add_transact_out():  0xBB, 0x02022404
Debug: 2402 1047 driver.c:582 interface_swd_add_transact_out():  0xBB, 0x00062405
Debug: 2403 1047 driver.c:582 interface_swd_add_transact_out():  0xBB, 0x82050701
Debug: 2404 1047 driver.c:582 interface_swd_add_transact_out():  0xBB, 0xFF000803
Debug: 2405 1047 driver.c:582 interface_swd_add_transact_out():  0xBB, 0x00010409
Debug: 2406 1047 driver.c:582 interface_swd_add_transact_out():  0xBB, 0x00000A02
Debug: 2407 1047 driver.c:582 interface_swd_add_transact_out():  0xBB, 0x03050700
Debug: 2408 1047 driver.c:582 interface_swd_add_transact_out():  0xBB, 0x00004002
Debug: 2409 1047 driver.c:582 interface_swd_add_transact_out():  0xBB, 0x02810507
Debug: 2410 1047 driver.c:582 interface_swd_add_transact_out():  0xBB, 0x00000040
Debug: 2411 1047 driver.c:582 interface_swd_add_transact_out():  0xBB, 0x00530332
Debug: 2412 1047 driver.c:582 interface_swd_add_transact_out():  0xBB, 0x004D0054
Debug: 2413 1047 driver.c:582 interface_swd_add_transact_out():  0xBB, 0x00320033
Debug: 2414 1047 driver.c:582 interface_swd_add_transact_out():  0xBB, 0x00560020
Debug: 2415 1047 driver.c:582 interface_swd_add_transact_out():  0xBB, 0x00720069
Debug: 2416 1047 driver.c:582 interface_swd_add_transact_out():  0xBB, 0x00750074
Debug: 2417 1047 driver.c:582 interface_swd_add_transact_out():  0xBB, 0x006C0061
Debug: 2418 1047 driver.c:582 interface_swd_add_transact_out():  0xBB, 0x00430020
Debug: 2419 1047 driver.c:582 interface_swd_add_transact_out():  0xBB, 0x004D004F
Debug: 2420 1047 driver.c:582 interface_swd_add_transact_out():  0xBB, 0x00500020
Debug: 2421 1047 driver.c:582 interface_swd_add_transact_out():  0xBB, 0x0072006F
Debug: 2422 1047 driver.c:582 interface_swd_add_transact_out():  0xBB, 0x00200074
Debug: 2423 1047 driver.c:582 interface_swd_add_transact_out():  0xBB, 0x00000020
Debug: 2424 1047 driver.c:582 interface_swd_add_transact_out():  0xBB, 0x00530326
Debug: 2425 1047 driver.c:582 interface_swd_add_transact_out():  0xBB, 0x004D0054
Debug: 2426 1047 driver.c:582 interface_swd_add_transact_out():  0xBB, 0x00630069
Debug: 2427 1047 driver.c:582 interface_swd_add_transact_out():  0xBB, 0x006F0072
Debug: 2428 1047 driver.c:582 interface_swd_add_transact_out():  0xBB, 0x006C0065
Debug: 2429 1047 driver.c:582 interface_swd_add_transact_out():  0xBB, 0x00630065
Debug: 2430 1047 driver.c:582 interface_swd_add_transact_out():  0xBB, 0x00720074
Debug: 2431 1047 driver.c:582 interface_swd_add_transact_out():  0xBB, 0x006E006F
Debug: 2432 1047 driver.c:582 interface_swd_add_transact_out():  0xBB, 0x00630069
Debug: 2433 1047 driver.c:582 interface_swd_add_transact_out():  0xBB, 0x00000073
Debug: 2434 1047 driver.c:582 interface_swd_add_transact_out():  0xBB, 0xE009B410
Debug: 2435 1047 driver.c:582 interface_swd_add_transact_out():  0xBB, 0x1B04F850
Debug: 2436 1047 driver.c:582 interface_swd_add_transact_out():  0xBB, 0x2B04F850
Debug: 2437 1047 driver.c:582 interface_swd_add_transact_out():  0xBB, 0x4B04F851
Debug: 2438 1047 driver.c:582 interface_swd_add_transact_out():  0xBB, 0x4B04F842
Debug: 2439 1047 driver.c:582 interface_swd_add_transact_out():  0xBB, 0xD1F91F1B
Debug: 2440 1047 driver.c:582 interface_swd_add_transact_out():  0xBB, 0x3B04F850
Debug: 2441 1047 driver.c:582 interface_swd_add_transact_out():  0xBB, 0xD1F12B00
Debug: 2442 1047 driver.c:582 interface_swd_add_transact_out():  0xBB, 0x4770BC10
Debug: 2443 1047 driver.c:582 interface_swd_add_transact_out():  0xBB, 0x0800183D
Debug: 2444 1047 driver.c:582 interface_swd_add_transact_out():  0xBB, 0x00000158
Debug: 2445 1047 driver.c:582 interface_swd_add_transact_out():  0xBB, 0x20000400
Debug: 2446 1047 driver.c:582 interface_swd_add_transact_out():  0xBB, 0x00000000
Debug: 2447 1047 driver.c:582 interface_swd_add_transact_out():  0xBB, 0x080017D5
Debug: 2448 1047 driver.c:582 interface_swd_add_transact_out():  0xBB, 0x00000104
Debug: 2449 1047 driver.c:582 interface_swd_add_transact_out():  0xBB, 0x080018C0
Debug: 2450 1047 driver.c:582 interface_swd_add_transact_out():  0xBB, 0x20000558
Debug: 2451 1047 driver.c:582 interface_swd_add_transact_out():  0xBB, 0x00000000
Debug: 2452 1047 driver.c:582 interface_swd_add_transact_out():  0xBB, 0x4805B510
Debug: 2453 1047 driver.c:582 interface_swd_add_transact_out():  0xBB, 0x42A04C05
Debug: 2454 1047 driver.c:582 interface_swd_add_transact_out():  0xBB, 0xF850D004
Debug: 2455 1047 driver.c:582 interface_swd_add_transact_out():  0xBB, 0x47881B04
Debug: 2456 1047 driver.c:582 interface_swd_add_transact_out():  0xBB, 0xD1FA42A0
Debug: 2457 1047 driver.c:582 interface_swd_add_transact_out():  0xBB, 0xBF00BD10
Debug: 2458 1047 driver.c:582 interface_swd_add_transact_out():  0xBB, 0x080017F8
Debug: 2459 1047 driver.c:582 interface_swd_add_transact_out():  0xBB, 0x0800181C
Debug: 2460 1047 driver.c:582 interface_swd_add_transact_out():  0xBB, 0xE0052300
Debug: 2461 1047 driver.c:582 interface_swd_add_transact_out():  0xBB, 0x1B04F850
Debug: 2462 1047 driver.c:582 interface_swd_add_transact_out():  0xBB, 0x3B04F841
Debug: 2463 1047 driver.c:582 interface_swd_add_transact_out():  0xBB, 0xD1FB1F12
Debug: 2464 1047 driver.c:582 interface_swd_add_transact_out():  0xBB, 0x2B04F850
Debug: 2465 1047 driver.c:582 interface_swd_add_transact_out():  0xBB, 0xD1F52A00
Debug: 2466 1047 driver.c:582 interface_swd_add_transact_out():  0xBB, 0x00004770
Debug: 2467 1047 driver.c:582 interface_swd_add_transact_out():  0xBB, 0x00440316
Debug: 2468 1047 driver.c:582 interface_swd_add_transact_out():  0xBB, 0x006D0065
Debug: 2469 1047 driver.c:582 interface_swd_add_transact_out():  0xBB, 0x0020006F
Debug: 2470 1047 driver.c:582 interface_swd_add_transact_out():  0xBB, 0x002E0031
Debug: 2471 1047 driver.c:582 interface_swd_add_transact_out():  0xBB, 0x00300030
Debug: 2472 1047 driver.c:582 interface_swd_add_transact_out():  0xBB, 0x00000030
Debug: 2473 1047 driver.c:582 interface_swd_add_transact_out():  0xBB, 0xF824F000
Debug: 2474 1047 driver.c:582 interface_swd_add_transact_out():  0xBB, 0xD0012800
Debug: 2475 1047 driver.c:582 interface_swd_add_transact_out():  0xBB, 0xFFD0F7FF
Debug: 2476 1047 driver.c:582 interface_swd_add_transact_out():  0xBB, 0xF7FF2000
Debug: 2477 1047 driver.c:582 interface_swd_add_transact_out():  0xBB, 0xF000FDF7
Debug: 2478 1047 driver.c:582 interface_swd_add_transact_out():  0xBB, 0x0000F816
Debug: 2479 1047 driver.c:582 interface_swd_add_transact_out():  0xBB, 0x02000112
Debug: 2480 1047 driver.c:582 interface_swd_add_transact_out():  0xBB, 0x40000002
Debug: 2481 1047 driver.c:582 interface_swd_add_transact_out():  0xBB, 0x57400483
Debug: 2482 1047 driver.c:582 interface_swd_add_transact_out():  0xBB, 0x02010100
Debug: 2483 1047 driver.c:582 interface_swd_add_transact_out():  0xBB, 0x00000103
Debug: 2484 1047 driver.c:582 interface_swd_add_transact_out():  0xBB, 0x20184901
Debug: 2485 1047 driver.c:582 interface_swd_add_transact_out():  0xBB, 0xE7FBBEAB
Debug: 2486 1047 driver.c:582 interface_swd_add_transact_out():  0xBB, 0x00020026
Debug: 2487 1047 driver.c:582 interface_swd_add_transact_out():  0xBB, 0x46384607
Debug: 2488 1047 driver.c:582 interface_swd_add_transact_out():  0xBB, 0xFFF6F7FF
Debug: 2489 1047 driver.c:582 interface_swd_add_transact_out():  0xBB, 0xB580E7FB
Debug: 2490 1047 driver.c:582 interface_swd_add_transact_out():  0xBB, 0xBFF8F7FF
Debug: 2491 1047 driver.c:582 interface_swd_add_transact_out():  0xBB, 0x04090304
Debug: 2492 1047 driver.c:582 interface_swd_add_transact_out():  0xBB, 0x47702001
Debug: 2493 1047 driver.c:582 interface_swd_add_transact_out():  0xBB, 0x00000104
Debug: 2494 1047 driver.c:582 interface_swd_add_transact_out():  0xBB, 0x00000000
Debug: 2495 1047 driver.c:582 interface_swd_add_transact_out():  0xBB, 0x00000000
Debug: 2496 1047 driver.c:582 interface_swd_add_transact_out():  0xBB, 0x00000000
Debug: 2497 1047 driver.c:582 interface_swd_add_transact_out():  0xBB, 0x00000000
Debug: 2498 1047 driver.c:582 interface_swd_add_transact_out():  0xBB, 0x00000000
Debug: 2499 1047 driver.c:582 interface_swd_add_transact_out():  0xBB, 0x00000000
Debug: 2500 1047 driver.c:582 interface_swd_add_transact_out():  0xBB, 0x00000000
Debug: 2501 1047 driver.c:582 interface_swd_add_transact_out():  0xBB, 0x00000000
Debug: 2502 1047 driver.c:582 interface_swd_add_transact_out():  0xBB, 0x0800067D
Debug: 2503 1047 driver.c:582 interface_swd_add_transact_out():  0xBB, 0x080010CD
Debug: 2504 1047 driver.c:582 interface_swd_add_transact_out():  0xBB, 0x080010CD
Debug: 2505 1047 driver.c:582 interface_swd_add_transact_out():  0xBB, 0x080010CD
Debug: 2506 1047 driver.c:582 interface_swd_add_transact_out():  0xBB, 0x080010CD
Debug: 2507 1047 driver.c:582 interface_swd_add_transact_out():  0xBB, 0x080010CD
Debug: 2508 1047 driver.c:582 interface_swd_add_transact_out():  0xBB, 0x080010CD
Debug: 2509 1047 driver.c:582 interface_swd_add_transact_out():  0xBB, 0x080010CD
Debug: 2510 1047 driver.c:582 interface_swd_add_transact_out():  0xBB, 0x080010CD
Debug: 2511 1047 driver.c:582 interface_swd_add_transact_out():  0xBB, 0x08000641
Debug: 2512 1047 driver.c:582 interface_swd_add_transact_out():  0xBB, 0x080010CD
Debug: 2513 1047 driver.c:582 interface_swd_add_transact_out():  0xBB, 0x080010CD
Debug: 2514 1047 driver.c:582 interface_swd_add_transact_out():  0xBB, 0x080010CD
Debug: 2515 1047 driver.c:582 interface_swd_add_transact_out():  0xBB, 0x080010CD
Debug: 2516 1047 driver.c:582 interface_swd_add_transact_out():  0xBB, 0x0001C200
Debug: 2517 1047 driver.c:582 interface_swd_add_transact_out():  0xBB, 0x00080000
Debug: 2518 1047 driver.c:582 interface_swd_add_transact_out():  0xBB, 0x080018B8
Debug: 2519 1047 driver.c:582 interface_swd_add_transact_out():  0xBB, 0x00000004
Debug: 2520 1047 driver.c:582 interface_swd_add_transact_out():  0xBB, 0x080017AC
Debug: 2521 1047 driver.c:582 interface_swd_add_transact_out():  0xBB, 0x00000026
Debug: 2522 1047 driver.c:582 interface_swd_add_transact_out():  0xBB, 0x08001778
Debug: 2523 1047 driver.c:582 interface_swd_add_transact_out():  0xBB, 0x00000032
Debug: 2524 1047 driver.c:582 interface_swd_add_transact_out():  0xBB, 0x08001858
Debug: 2525 1047 driver.c:582 interface_swd_add_transact_out():  0xBB, 0x00000016
Debug: 2526 1047 driver.c:582 interface_swd_add_transact_out():  0xBB, 0x00000000
Debug: 2527 1047 driver.c:582 interface_swd_add_transact_out():  0xBB, 0x00000000
Debug: 2528 1047 driver.c:582 interface_swd_add_transact_out():  0xBB, 0x00000000
Debug: 2529 1047 driver.c:582 interface_swd_add_transact_out():  0xBB, 0x00000000
Debug: 2530 1047 driver.c:582 interface_swd_add_transact_out():  0xBB, 0x00000000
Debug: 2531 1047 driver.c:582 interface_swd_add_transact_out():  0xBB, 0x00000000
Debug: 2532 1047 driver.c:582 interface_swd_add_transact_out():  0xBB, 0x00000000
Debug: 2533 1047 driver.c:582 interface_swd_add_transact_out():  0xBB, 0x080010CD
Debug: 2534 1047 driver.c:582 interface_swd_add_transact_out():  0xBB, 0x080010CD
Debug: 2535 1047 driver.c:582 interface_swd_add_transact_out():  0xBB, 0x080010CD
Debug: 2536 1047 driver.c:582 interface_swd_add_transact_out():  0xBB, 0x080010CD
Debug: 2537 1047 driver.c:582 interface_swd_add_transact_out():  0xBB, 0x080010CD
Debug: 2538 1047 driver.c:582 interface_swd_add_transact_out():  0xBB, 0x080010CD
Debug: 2539 1047 driver.c:582 interface_swd_add_transact_out():  0xBB, 0x080010CD
Debug: 2540 1047 driver.c:582 interface_swd_add_transact_out():  0xBB, 0x080010CD
Debug: 2541 1047 driver.c:582 interface_swd_add_transact_out():  0xBB, 0x080010CD
Debug: 2542 1047 driver.c:582 interface_swd_add_transact_out():  0xBB, 0x080006D5
Debug: 2543 1047 driver.c:582 interface_swd_add_transact_out():  0xBB, 0x08000729
Debug: 2544 1047 driver.c:582 interface_swd_add_transact_out():  0xBB, 0x080007FD
Debug: 2545 1047 driver.c:582 interface_swd_add_transact_out():  0xBB, 0x0800080D
Debug: 2546 1047 driver.c:582 interface_swd_add_transact_out():  0xBB, 0x08000811
Debug: 2547 1047 driver.c:582 interface_swd_add_transact_out():  0xBB, 0x0800085D
Debug: 2548 1047 driver.c:582 interface_swd_add_transact_out():  0xBB, 0x080008A5
Debug: 2549 1047 driver.c:582 interface_swd_add_transact_out():  0xBB, 0x08000885
Debug: 2550 1047 driver.c:582 interface_swd_add_transact_out():  0xBB, 0x0800088D
Debug: 2551 1047 driver.c:582 interface_swd_add_transact_out():  0xBB, 0x08000895
Debug: 2552 1047 driver.c:582 interface_swd_add_transact_out():  0xBB, 0x00000000
Debug: 2553 1047 driver.c:582 interface_swd_add_transact_out():  0xBB, 0x00000040
Debug: 2554 1047 driver.c:582 interface_swd_add_transact_out():  0xBB, 0x08001888
Debug: 2555 1047 driver.c:582 interface_swd_add_transact_out():  0xBB, 0x00000012
Debug: 2556 1047 driver.c:582 interface_swd_add_transact_out():  0xBB, 0x08001734
Debug: 2557 1047 driver.c:582 interface_swd_add_transact_out():  0xBB, 0x00000043
Debug: 2558 1047 driver.c:612 interface_swd_add_transact_in():  0x8D
Debug: 2559 1110 armv7m.c:129 armv7m_restore_context():  
Debug: 2560 1110 driver.c:582 interface_swd_add_transact_out():  0xA3, 0xA2000002
Debug: 2561 1110 driver.c:582 interface_swd_add_transact_out():  0x8B, 0xE000EDF0
Debug: 2562 1110 driver.c:582 interface_swd_add_transact_out():  0xB1, 0x00000010
Debug: 2563 1110 driver.c:612 interface_swd_add_transact_in():  0xB7
Debug: 2564 1110 driver.c:612 interface_swd_add_transact_in():  0xBD
Debug: 2565 1110 driver.c:582 interface_swd_add_transact_out():  0x8B, 0x00000014
Debug: 2566 1110 driver.c:612 interface_swd_add_transact_in():  0xB7
Debug: 2567 1110 driver.c:612 interface_swd_add_transact_in():  0xBD
Debug: 2568 1110 driver.c:612 interface_swd_add_transact_in():  0x8D
Debug: 2569 1110 driver.c:582 interface_swd_add_transact_out():  0x93, 0x00000000
Debug: 2570 1110 driver.c:612 interface_swd_add_transact_in():  0x8D
Debug: 2571 1110 driver.c:612 interface_swd_add_transact_in():  0xB7
Debug: 2572 1110 driver.c:612 interface_swd_add_transact_in():  0xBD
Debug: 2573 1110 driver.c:582 interface_swd_add_transact_out():  0x93, 0x00000001
Debug: 2574 1110 driver.c:582 interface_swd_add_transact_out():  0x8B, 0x00010014
Debug: 2575 1110 driver.c:612 interface_swd_add_transact_in():  0x8D
Debug: 2576 1125 driver.c:582 interface_swd_add_transact_out():  0x93, 0x00000000
Debug: 2577 1125 driver.c:612 interface_swd_add_transact_in():  0x8D
Debug: 2578 1125 cortex_m3.c:1507 cortex_m3_store_core_reg_u32(): write special reg 19 value 0x1 
Debug: 2579 1125 armv7m.c:239 armv7m_write_core_reg(): write core reg 19 value 0x1
Debug: 2580 1125 driver.c:612 interface_swd_add_transact_in():  0xB7
Debug: 2581 1125 driver.c:612 interface_swd_add_transact_in():  0xBD
Debug: 2582 1125 driver.c:582 interface_swd_add_transact_out():  0x93, 0x01000000
Debug: 2583 1125 driver.c:582 interface_swd_add_transact_out():  0x8B, 0x00010010
Debug: 2584 1125 driver.c:612 interface_swd_add_transact_in():  0x8D
Debug: 2585 1125 driver.c:582 interface_swd_add_transact_out():  0x93, 0x00000000
Debug: 2586 1125 driver.c:612 interface_swd_add_transact_in():  0x8D
Debug: 2587 1125 cortex_m3.c:1473 cortex_m3_store_core_reg_u32(): write core reg 16 value 0x1000000
Debug: 2588 1125 armv7m.c:239 armv7m_write_core_reg(): write core reg 16 value 0x1000000
Debug: 2589 1125 driver.c:612 interface_swd_add_transact_in():  0xB7
Debug: 2590 1125 driver.c:612 interface_swd_add_transact_in():  0xBD
Debug: 2591 1125 driver.c:582 interface_swd_add_transact_out():  0x93, 0x20000000
Debug: 2592 1125 driver.c:582 interface_swd_add_transact_out():  0x8B, 0x0001000F
Debug: 2593 1125 driver.c:612 interface_swd_add_transact_in():  0x8D
Debug: 2594 1141 driver.c:582 interface_swd_add_transact_out():  0x93, 0x00000000
Debug: 2595 1141 driver.c:612 interface_swd_add_transact_in():  0x8D
Debug: 2596 1141 cortex_m3.c:1473 cortex_m3_store_core_reg_u32(): write core reg 15 value 0x20000000
Debug: 2597 1141 armv7m.c:239 armv7m_write_core_reg(): write core reg 15 value 0x20000000
Debug: 2598 1141 driver.c:612 interface_swd_add_transact_in():  0xB7
Debug: 2599 1141 driver.c:612 interface_swd_add_transact_in():  0xBD
Debug: 2600 1141 driver.c:582 interface_swd_add_transact_out():  0x93, 0x00E13958
Debug: 2601 1141 driver.c:582 interface_swd_add_transact_out():  0x8B, 0x00010003
Debug: 2602 1141 driver.c:612 interface_swd_add_transact_in():  0x8D
Debug: 2603 1141 driver.c:582 interface_swd_add_transact_out():  0x93, 0x00000000
Debug: 2604 1141 driver.c:612 interface_swd_add_transact_in():  0x8D
Debug: 2605 1156 cortex_m3.c:1473 cortex_m3_store_core_reg_u32(): write core reg 3 value 0xe13958
Debug: 2606 1156 armv7m.c:239 armv7m_write_core_reg(): write core reg 3 value 0xe13958
Debug: 2607 1156 driver.c:612 interface_swd_add_transact_in():  0xB7
Debug: 2608 1156 driver.c:612 interface_swd_add_transact_in():  0xBD
Debug: 2609 1156 driver.c:582 interface_swd_add_transact_out():  0x93, 0x00000CE2
Debug: 2610 1156 driver.c:582 interface_swd_add_transact_out():  0x8B, 0x00010002
Debug: 2611 1156 driver.c:612 interface_swd_add_transact_in():  0x8D
Debug: 2612 1156 driver.c:582 interface_swd_add_transact_out():  0x93, 0x00000000
Debug: 2613 1156 driver.c:612 interface_swd_add_transact_in():  0x8D
Debug: 2614 1156 cortex_m3.c:1473 cortex_m3_store_core_reg_u32(): write core reg 2 value 0xce2
Debug: 2615 1156 armv7m.c:239 armv7m_write_core_reg(): write core reg 2 value 0xce2
Debug: 2616 1156 driver.c:612 interface_swd_add_transact_in():  0xB7
Debug: 2617 1156 driver.c:612 interface_swd_add_transact_in():  0xBD
Debug: 2618 1156 driver.c:582 interface_swd_add_transact_out():  0x93, 0x08000000
Debug: 2619 1156 driver.c:582 interface_swd_add_transact_out():  0x8B, 0x00010001
Debug: 2620 1156 driver.c:612 interface_swd_add_transact_in():  0x8D
Debug: 2621 1156 driver.c:582 interface_swd_add_transact_out():  0x93, 0x00000000
Debug: 2622 1156 driver.c:612 interface_swd_add_transact_in():  0x8D
Debug: 2623 1172 cortex_m3.c:1473 cortex_m3_store_core_reg_u32(): write core reg 1 value 0x8000000
Debug: 2624 1172 armv7m.c:239 armv7m_write_core_reg(): write core reg 1 value 0x8000000
Debug: 2625 1172 driver.c:612 interface_swd_add_transact_in():  0xB7
Debug: 2626 1172 driver.c:612 interface_swd_add_transact_in():  0xBD
Debug: 2627 1172 driver.c:582 interface_swd_add_transact_out():  0x93, 0x20000030
Debug: 2628 1172 driver.c:582 interface_swd_add_transact_out():  0x8B, 0x00010000
Debug: 2629 1172 driver.c:612 interface_swd_add_transact_in():  0x8D
Debug: 2630 1172 driver.c:582 interface_swd_add_transact_out():  0x93, 0x00000000
Debug: 2631 1172 driver.c:612 interface_swd_add_transact_in():  0x8D
Debug: 2632 1172 cortex_m3.c:1473 cortex_m3_store_core_reg_u32(): write core reg 0 value 0x20000030
Debug: 2633 1172 armv7m.c:239 armv7m_write_core_reg(): write core reg 0 value 0x20000030
Debug: 2634 1172 driver.c:582 interface_swd_add_transact_out():  0xA3, 0xA05F0001
Debug: 2635 1172 driver.c:612 interface_swd_add_transact_in():  0x8D
Debug: 2636 1172 target.c:1018 target_call_event_callbacks(): target event 22 (debug-resumed)
Debug: 2637 1172 cortex_m3.c:752 cortex_m3_resume(): target debug resumed at 0x20000000
Debug: 2638 1172 driver.c:612 interface_swd_add_transact_in():  0x87
Debug: 2639 1172 driver.c:612 interface_swd_add_transact_in():  0xBD
Debug: 2640 1172 driver.c:612 interface_swd_add_transact_in():  0x8D
Debug: 2641 1172 target.c:2108 target_wait_state(): waiting for target halted...
Debug: 2642 1172 driver.c:612 interface_swd_add_transact_in():  0x87
Debug: 2643 1172 driver.c:612 interface_swd_add_transact_in():  0xBD
Debug: 2644 1172 driver.c:612 interface_swd_add_transact_in():  0x8D
Debug: 2645 1188 driver.c:612 interface_swd_add_transact_in():  0x87
Debug: 2646 1188 driver.c:612 interface_swd_add_transact_in():  0xBD
Debug: 2647 1188 driver.c:612 interface_swd_add_transact_in():  0x8D
Debug: 2648 1188 driver.c:612 interface_swd_add_transact_in():  0x87
Debug: 2649 1188 driver.c:612 interface_swd_add_transact_in():  0xBD
Debug: 2650 1188 driver.c:612 interface_swd_add_transact_in():  0x8D
Debug: 2651 1188 driver.c:612 interface_swd_add_transact_in():  0x87
Debug: 2652 1188 driver.c:612 interface_swd_add_transact_in():  0xBD
Debug: 2653 1188 driver.c:612 interface_swd_add_transact_in():  0x8D
Debug: 2654 1203 driver.c:612 interface_swd_add_transact_in():  0x87
Debug: 2655 1203 driver.c:612 interface_swd_add_transact_in():  0xBD
Debug: 2656 1203 driver.c:612 interface_swd_add_transact_in():  0x8D
Debug: 2657 1203 driver.c:612 interface_swd_add_transact_in():  0x87
Debug: 2658 1203 driver.c:612 interface_swd_add_transact_in():  0xBD
Debug: 2659 1203 driver.c:612 interface_swd_add_transact_in():  0x8D
Debug: 2660 1203 driver.c:612 interface_swd_add_transact_in():  0x87
Debug: 2661 1203 driver.c:612 interface_swd_add_transact_in():  0xBD
Debug: 2662 1203 driver.c:612 interface_swd_add_transact_in():  0x8D
Debug: 2663 1203 driver.c:612 interface_swd_add_transact_in():  0x87
Debug: 2664 1203 driver.c:612 interface_swd_add_transact_in():  0xBD
Debug: 2665 1203 driver.c:612 interface_swd_add_transact_in():  0x8D
Debug: 2666 1219 driver.c:612 interface_swd_add_transact_in():  0x87
Debug: 2667 1219 driver.c:612 interface_swd_add_transact_in():  0xBD
Debug: 2668 1219 driver.c:612 interface_swd_add_transact_in():  0x8D
Debug: 2669 1219 driver.c:612 interface_swd_add_transact_in():  0x87
Debug: 2670 1219 driver.c:612 interface_swd_add_transact_in():  0xBD
Debug: 2671 1219 driver.c:612 interface_swd_add_transact_in():  0x8D
Debug: 2672 1219 driver.c:612 interface_swd_add_transact_in():  0x87
Debug: 2673 1219 driver.c:612 interface_swd_add_transact_in():  0xBD
Debug: 2674 1219 driver.c:612 interface_swd_add_transact_in():  0x8D
Debug: 2675 1219 driver.c:612 interface_swd_add_transact_in():  0x87
Debug: 2676 1219 driver.c:612 interface_swd_add_transact_in():  0xBD
Debug: 2677 1219 driver.c:612 interface_swd_add_transact_in():  0x8D
Debug: 2678 1235 driver.c:612 interface_swd_add_transact_in():  0x87
Debug: 2679 1235 driver.c:612 interface_swd_add_transact_in():  0xBD
Debug: 2680 1235 driver.c:612 interface_swd_add_transact_in():  0x8D
Debug: 2681 1235 driver.c:612 interface_swd_add_transact_in():  0x87
Debug: 2682 1235 driver.c:612 interface_swd_add_transact_in():  0xBD
Debug: 2683 1235 driver.c:612 interface_swd_add_transact_in():  0x8D
Debug: 2684 1235 driver.c:612 interface_swd_add_transact_in():  0x87
Debug: 2685 1235 driver.c:612 interface_swd_add_transact_in():  0xBD
Debug: 2686 1235 driver.c:612 interface_swd_add_transact_in():  0x8D
Debug: 2687 1235 driver.c:612 interface_swd_add_transact_in():  0x87
Debug: 2688 1235 driver.c:612 interface_swd_add_transact_in():  0xBD
Debug: 2689 1235 driver.c:612 interface_swd_add_transact_in():  0x8D
Debug: 2690 1250 driver.c:612 interface_swd_add_transact_in():  0x87
Debug: 2691 1250 driver.c:612 interface_swd_add_transact_in():  0xBD
Debug: 2692 1250 driver.c:612 interface_swd_add_transact_in():  0x8D
Debug: 2693 1250 driver.c:612 interface_swd_add_transact_in():  0x87
Debug: 2694 1250 driver.c:612 interface_swd_add_transact_in():  0xBD
Debug: 2695 1250 driver.c:612 interface_swd_add_transact_in():  0x8D
Debug: 2696 1250 driver.c:612 interface_swd_add_transact_in():  0x87
Debug: 2697 1250 driver.c:612 interface_swd_add_transact_in():  0xBD
Debug: 2698 1250 driver.c:612 interface_swd_add_transact_in():  0x8D
Debug: 2699 1250 driver.c:612 interface_swd_add_transact_in():  0x87
Debug: 2700 1250 driver.c:612 interface_swd_add_transact_in():  0xBD
Debug: 2701 1250 driver.c:612 interface_swd_add_transact_in():  0x8D
Debug: 2702 1250 driver.c:612 interface_swd_add_transact_in():  0x87
Debug: 2703 1250 driver.c:612 interface_swd_add_transact_in():  0xBD
Debug: 2704 1250 driver.c:612 interface_swd_add_transact_in():  0x8D
Debug: 2705 1266 driver.c:612 interface_swd_add_transact_in():  0x87
Debug: 2706 1266 driver.c:612 interface_swd_add_transact_in():  0xBD
Debug: 2707 1266 driver.c:612 interface_swd_add_transact_in():  0x8D
Debug: 2708 1266 driver.c:612 interface_swd_add_transact_in():  0x87
Debug: 2709 1266 driver.c:612 interface_swd_add_transact_in():  0xBD
Debug: 2710 1266 driver.c:612 interface_swd_add_transact_in():  0x8D
Debug: 2711 1266 driver.c:612 interface_swd_add_transact_in():  0x87
Debug: 2712 1266 driver.c:612 interface_swd_add_transact_in():  0xBD
Debug: 2713 1266 driver.c:612 interface_swd_add_transact_in():  0x8D
Debug: 2714 1266 driver.c:612 interface_swd_add_transact_in():  0x87
Debug: 2715 1266 driver.c:612 interface_swd_add_transact_in():  0xBD
Debug: 2716 1266 driver.c:612 interface_swd_add_transact_in():  0x8D
Debug: 2717 1281 driver.c:612 interface_swd_add_transact_in():  0x87
Debug: 2718 1281 driver.c:612 interface_swd_add_transact_in():  0xBD
Debug: 2719 1281 driver.c:612 interface_swd_add_transact_in():  0x8D
Debug: 2720 1281 driver.c:612 interface_swd_add_transact_in():  0x87
Debug: 2721 1281 driver.c:612 interface_swd_add_transact_in():  0xBD
Debug: 2722 1281 driver.c:612 interface_swd_add_transact_in():  0x8D
Debug: 2723 1281 driver.c:612 interface_swd_add_transact_in():  0x87
Debug: 2724 1281 driver.c:612 interface_swd_add_transact_in():  0xBD
Debug: 2725 1281 driver.c:612 interface_swd_add_transact_in():  0x8D
Debug: 2726 1281 driver.c:612 interface_swd_add_transact_in():  0x87
Debug: 2727 1281 driver.c:612 interface_swd_add_transact_in():  0xBD
Debug: 2728 1281 driver.c:612 interface_swd_add_transact_in():  0x8D
Debug: 2729 1297 driver.c:612 interface_swd_add_transact_in():  0x87
Debug: 2730 1297 driver.c:612 interface_swd_add_transact_in():  0xBD
Debug: 2731 1297 driver.c:612 interface_swd_add_transact_in():  0x8D
Debug: 2732 1297 driver.c:612 interface_swd_add_transact_in():  0x87
Debug: 2733 1297 driver.c:612 interface_swd_add_transact_in():  0xBD
Debug: 2734 1297 driver.c:612 interface_swd_add_transact_in():  0x8D
Debug: 2735 1313 driver.c:612 interface_swd_add_transact_in():  0x87
Debug: 2736 1313 driver.c:612 interface_swd_add_transact_in():  0xBD
Debug: 2737 1313 driver.c:612 interface_swd_add_transact_in():  0x8D
Debug: 2738 1313 driver.c:612 interface_swd_add_transact_in():  0x87
Debug: 2739 1313 driver.c:612 interface_swd_add_transact_in():  0xBD
Debug: 2740 1313 driver.c:612 interface_swd_add_transact_in():  0x8D
Debug: 2741 1313 driver.c:612 interface_swd_add_transact_in():  0x87
Debug: 2742 1313 driver.c:612 interface_swd_add_transact_in():  0xBD
Debug: 2743 1313 driver.c:612 interface_swd_add_transact_in():  0x8D
Debug: 2744 1313 driver.c:612 interface_swd_add_transact_in():  0x87
Debug: 2745 1313 driver.c:612 interface_swd_add_transact_in():  0xBD
Debug: 2746 1313 driver.c:612 interface_swd_add_transact_in():  0x8D
Debug: 2747 1328 driver.c:612 interface_swd_add_transact_in():  0x87
Debug: 2748 1328 driver.c:612 interface_swd_add_transact_in():  0xBD
Debug: 2749 1328 driver.c:612 interface_swd_add_transact_in():  0x8D
Debug: 2750 1328 driver.c:612 interface_swd_add_transact_in():  0x87
Debug: 2751 1328 driver.c:612 interface_swd_add_transact_in():  0xBD
Debug: 2752 1328 driver.c:612 interface_swd_add_transact_in():  0x8D
Debug: 2753 1328 driver.c:612 interface_swd_add_transact_in():  0x87
Debug: 2754 1328 driver.c:612 interface_swd_add_transact_in():  0xBD
Debug: 2755 1328 driver.c:612 interface_swd_add_transact_in():  0x8D
Debug: 2756 1328 driver.c:612 interface_swd_add_transact_in():  0x87
Debug: 2757 1328 driver.c:612 interface_swd_add_transact_in():  0xBD
Debug: 2758 1328 driver.c:612 interface_swd_add_transact_in():  0x8D
Debug: 2759 1344 driver.c:612 interface_swd_add_transact_in():  0x87
Debug: 2760 1344 driver.c:612 interface_swd_add_transact_in():  0xBD
Debug: 2761 1344 driver.c:612 interface_swd_add_transact_in():  0x8D
Debug: 2762 1344 driver.c:612 interface_swd_add_transact_in():  0x87
Debug: 2763 1344 driver.c:612 interface_swd_add_transact_in():  0xBD
Debug: 2764 1344 driver.c:612 interface_swd_add_transact_in():  0x8D
Debug: 2765 1344 driver.c:612 interface_swd_add_transact_in():  0x87
Debug: 2766 1344 driver.c:612 interface_swd_add_transact_in():  0xBD
Debug: 2767 1344 driver.c:612 interface_swd_add_transact_in():  0x8D
Debug: 2768 1344 driver.c:612 interface_swd_add_transact_in():  0x87
Debug: 2769 1344 driver.c:612 interface_swd_add_transact_in():  0xBD
Debug: 2770 1344 driver.c:612 interface_swd_add_transact_in():  0x8D
Debug: 2771 1360 cortex_m3.c:520 cortex_m3_poll():  
Debug: 2772 1360 cortex_m3.c:366 cortex_m3_debug_entry():  
Debug: 2773 1360 driver.c:582 interface_swd_add_transact_out():  0xA3, 0xA05F0003
Debug: 2774 1360 driver.c:612 interface_swd_add_transact_in():  0x8D
Debug: 2775 1360 driver.c:582 interface_swd_add_transact_out():  0xB1, 0x00000000
Debug: 2776 1360 driver.c:582 interface_swd_add_transact_out():  0x8B, 0xE000ED30
Debug: 2777 1360 driver.c:582 interface_swd_add_transact_out():  0xB1, 0x00000010
Debug: 2778 1360 driver.c:612 interface_swd_add_transact_in():  0x87
Debug: 2779 1360 driver.c:612 interface_swd_add_transact_in():  0xBD
Debug: 2780 1360 driver.c:612 interface_swd_add_transact_in():  0x8D
Debug: 2781 1360 driver.c:582 interface_swd_add_transact_out():  0xA3, 0x00000003
Debug: 2782 1360 driver.c:612 interface_swd_add_transact_in():  0x8D
Debug: 2783 1360 cortex_m3.c:155 cortex_m3_clear_halt():  NVIC_DFSR 0x3
Debug: 2784 1360 driver.c:582 interface_swd_add_transact_out():  0xB1, 0x00000000
Debug: 2785 1360 driver.c:582 interface_swd_add_transact_out():  0x8B, 0xE000EDF0
Debug: 2786 1360 driver.c:582 interface_swd_add_transact_out():  0xB1, 0x00000010
Debug: 2787 1360 driver.c:612 interface_swd_add_transact_in():  0x87
Debug: 2788 1360 driver.c:612 interface_swd_add_transact_in():  0xBD
Debug: 2789 1360 driver.c:612 interface_swd_add_transact_in():  0x8D
Debug: 2790 1375 driver.c:612 interface_swd_add_transact_in():  0xB7
Debug: 2791 1375 driver.c:612 interface_swd_add_transact_in():  0xBD
Debug: 2792 1375 driver.c:582 interface_swd_add_transact_out():  0x8B, 0x00000000
Debug: 2793 1375 driver.c:612 interface_swd_add_transact_in():  0xB7
Debug: 2794 1375 driver.c:612 interface_swd_add_transact_in():  0xBD
Debug: 2795 1375 driver.c:612 interface_swd_add_transact_in():  0x8D
Debug: 2796 1375 driver.c:582 interface_swd_add_transact_out():  0x93, 0x00000000
Debug: 2797 1375 driver.c:612 interface_swd_add_transact_in():  0x8D
Debug: 2798 1375 cortex_m3.c:1395 cortex_m3_load_core_reg_u32(): load from core reg 0  value 0x200019f4
Debug: 2799 1375 driver.c:612 interface_swd_add_transact_in():  0xB7
Debug: 2800 1375 driver.c:612 interface_swd_add_transact_in():  0xBD
Debug: 2801 1375 driver.c:582 interface_swd_add_transact_out():  0x8B, 0x00000001
Debug: 2802 1375 driver.c:612 interface_swd_add_transact_in():  0xB7
Debug: 2803 1375 driver.c:612 interface_swd_add_transact_in():  0xBD
Debug: 2804 1375 driver.c:612 interface_swd_add_transact_in():  0x8D
Debug: 2805 1375 driver.c:582 interface_swd_add_transact_out():  0x93, 0x00000000
Debug: 2806 1375 driver.c:612 interface_swd_add_transact_in():  0x8D
Debug: 2807 1391 cortex_m3.c:1395 cortex_m3_load_core_reg_u32(): load from core reg 1  value 0x80019c4
Debug: 2808 1391 driver.c:612 interface_swd_add_transact_in():  0xB7
Debug: 2809 1391 driver.c:612 interface_swd_add_transact_in():  0xBD
Debug: 2810 1391 driver.c:582 interface_swd_add_transact_out():  0x8B, 0x00000002
Debug: 2811 1391 driver.c:612 interface_swd_add_transact_in():  0xB7
Debug: 2812 1391 driver.c:612 interface_swd_add_transact_in():  0xBD
Debug: 2813 1391 driver.c:612 interface_swd_add_transact_in():  0x8D
Debug: 2814 1391 driver.c:582 interface_swd_add_transact_out():  0x93, 0x00000000
Debug: 2815 1391 driver.c:612 interface_swd_add_transact_in():  0x8D
Debug: 2816 1391 cortex_m3.c:1395 cortex_m3_load_core_reg_u32(): load from core reg 2  value 0x0
Debug: 2817 1391 driver.c:612 interface_swd_add_transact_in():  0xB7
Debug: 2818 1391 driver.c:612 interface_swd_add_transact_in():  0xBD
Debug: 2819 1391 driver.c:582 interface_swd_add_transact_out():  0x8B, 0x00000003
Debug: 2820 1391 driver.c:612 interface_swd_add_transact_in():  0xB7
Debug: 2821 1391 driver.c:612 interface_swd_add_transact_in():  0xBD
Debug: 2822 1391 driver.c:612 interface_swd_add_transact_in():  0x8D
Debug: 2823 1406 driver.c:582 interface_swd_add_transact_out():  0x93, 0x00000000
Debug: 2824 1406 driver.c:612 interface_swd_add_transact_in():  0x8D
Debug: 2825 1406 cortex_m3.c:1395 cortex_m3_load_core_reg_u32(): load from core reg 3  value 0x23
Debug: 2826 1406 driver.c:612 interface_swd_add_transact_in():  0xB7
Debug: 2827 1406 driver.c:612 interface_swd_add_transact_in():  0xBD
Debug: 2828 1406 driver.c:582 interface_swd_add_transact_out():  0x8B, 0x00000004
Debug: 2829 1406 driver.c:612 interface_swd_add_transact_in():  0xB7
Debug: 2830 1406 driver.c:612 interface_swd_add_transact_in():  0xBD
Debug: 2831 1406 driver.c:612 interface_swd_add_transact_in():  0x8D
Debug: 2832 1406 driver.c:582 interface_swd_add_transact_out():  0x93, 0x00000000
Debug: 2833 1406 driver.c:612 interface_swd_add_transact_in():  0x8D
Debug: 2834 1422 cortex_m3.c:1395 cortex_m3_load_core_reg_u32(): load from core reg 4  value 0x40022010
Debug: 2835 1422 driver.c:612 interface_swd_add_transact_in():  0xB7
Debug: 2836 1422 driver.c:612 interface_swd_add_transact_in():  0xBD
Debug: 2837 1422 driver.c:582 interface_swd_add_transact_out():  0x8B, 0x00000005
Debug: 2838 1422 driver.c:612 interface_swd_add_transact_in():  0xB7
Debug: 2839 1422 driver.c:612 interface_swd_add_transact_in():  0xBD
Debug: 2840 1422 driver.c:612 interface_swd_add_transact_in():  0x8D
Debug: 2841 1422 driver.c:582 interface_swd_add_transact_out():  0x93, 0x00000000
Debug: 2842 1422 driver.c:612 interface_swd_add_transact_in():  0x8D
Debug: 2843 1422 cortex_m3.c:1395 cortex_m3_load_core_reg_u32(): load from core reg 5  value 0x4002200c
Debug: 2844 1422 driver.c:612 interface_swd_add_transact_in():  0xB7
Debug: 2845 1422 driver.c:612 interface_swd_add_transact_in():  0xBD
Debug: 2846 1422 driver.c:582 interface_swd_add_transact_out():  0x8B, 0x00000006
Debug: 2847 1422 driver.c:612 interface_swd_add_transact_in():  0xB7
Debug: 2848 1422 driver.c:612 interface_swd_add_transact_in():  0xBD
Debug: 2849 1422 driver.c:612 interface_swd_add_transact_in():  0x8D
Debug: 2850 1422 driver.c:582 interface_swd_add_transact_out():  0x93, 0x00000000
Debug: 2851 1422 driver.c:612 interface_swd_add_transact_in():  0x8D
Debug: 2852 1438 cortex_m3.c:1395 cortex_m3_load_core_reg_u32(): load from core reg 6  value 0x6038a07a
Debug: 2853 1438 driver.c:612 interface_swd_add_transact_in():  0xB7
Debug: 2854 1438 driver.c:612 interface_swd_add_transact_in():  0xBD
Debug: 2855 1438 driver.c:582 interface_swd_add_transact_out():  0x8B, 0x00000007
Debug: 2856 1438 driver.c:612 interface_swd_add_transact_in():  0xB7
Debug: 2857 1438 driver.c:612 interface_swd_add_transact_in():  0xBD
Debug: 2858 1438 driver.c:612 interface_swd_add_transact_in():  0x8D
Debug: 2859 1438 driver.c:582 interface_swd_add_transact_out():  0x93, 0x00000000
Debug: 2860 1438 driver.c:612 interface_swd_add_transact_in():  0x8D
Debug: 2861 1438 cortex_m3.c:1395 cortex_m3_load_core_reg_u32(): load from core reg 7  value 0x3dc4b94a
Debug: 2862 1438 driver.c:612 interface_swd_add_transact_in():  0xB7
Debug: 2863 1438 driver.c:612 interface_swd_add_transact_in():  0xBD
Debug: 2864 1438 driver.c:582 interface_swd_add_transact_out():  0x8B, 0x00000008
Debug: 2865 1438 driver.c:612 interface_swd_add_transact_in():  0xB7
Debug: 2866 1438 driver.c:612 interface_swd_add_transact_in():  0xBD
Debug: 2867 1438 driver.c:612 interface_swd_add_transact_in():  0x8D
Debug: 2868 1453 driver.c:582 interface_swd_add_transact_out():  0x93, 0x00000000
Debug: 2869 1453 driver.c:612 interface_swd_add_transact_in():  0x8D
Debug: 2870 1453 cortex_m3.c:1395 cortex_m3_load_core_reg_u32(): load from core reg 8  value 0xb3be9d5c
Debug: 2871 1453 driver.c:612 interface_swd_add_transact_in():  0xB7
Debug: 2872 1453 driver.c:612 interface_swd_add_transact_in():  0xBD
Debug: 2873 1453 driver.c:582 interface_swd_add_transact_out():  0x8B, 0x00000009
Debug: 2874 1453 driver.c:612 interface_swd_add_transact_in():  0xB7
Debug: 2875 1453 driver.c:612 interface_swd_add_transact_in():  0xBD
Debug: 2876 1453 driver.c:612 interface_swd_add_transact_in():  0x8D
Debug: 2877 1453 driver.c:582 interface_swd_add_transact_out():  0x93, 0x00000000
Debug: 2878 1453 driver.c:612 interface_swd_add_transact_in():  0x8D
Debug: 2879 1469 cortex_m3.c:1395 cortex_m3_load_core_reg_u32(): load from core reg 9  value 0xfff7b6dc
Debug: 2880 1469 driver.c:612 interface_swd_add_transact_in():  0xB7
Debug: 2881 1469 driver.c:612 interface_swd_add_transact_in():  0xBD
Debug: 2882 1469 driver.c:582 interface_swd_add_transact_out():  0x8B, 0x0000000A
Debug: 2883 1469 driver.c:612 interface_swd_add_transact_in():  0xB7
Debug: 2884 1469 driver.c:612 interface_swd_add_transact_in():  0xBD
Debug: 2885 1469 driver.c:612 interface_swd_add_transact_in():  0x8D
Debug: 2886 1469 driver.c:582 interface_swd_add_transact_out():  0x93, 0x00000000
Debug: 2887 1469 driver.c:612 interface_swd_add_transact_in():  0x8D
Debug: 2888 1469 cortex_m3.c:1395 cortex_m3_load_core_reg_u32(): load from core reg 10  value 0xe0085aa8
Debug: 2889 1469 driver.c:612 interface_swd_add_transact_in():  0xB7
Debug: 2890 1469 driver.c:612 interface_swd_add_transact_in():  0xBD
Debug: 2891 1469 driver.c:582 interface_swd_add_transact_out():  0x8B, 0x0000000B
Debug: 2892 1469 driver.c:612 interface_swd_add_transact_in():  0xB7
Debug: 2893 1469 driver.c:612 interface_swd_add_transact_in():  0xBD
Debug: 2894 1469 driver.c:612 interface_swd_add_transact_in():  0x8D
Debug: 2895 1485 driver.c:582 interface_swd_add_transact_out():  0x93, 0x00000000
Debug: 2896 1485 driver.c:612 interface_swd_add_transact_in():  0x8D
Debug: 2897 1485 cortex_m3.c:1395 cortex_m3_load_core_reg_u32(): load from core reg 11  value 0x699db600
Debug: 2898 1485 driver.c:612 interface_swd_add_transact_in():  0xB7
Debug: 2899 1485 driver.c:612 interface_swd_add_transact_in():  0xBD
Debug: 2900 1485 driver.c:582 interface_swd_add_transact_out():  0x8B, 0x0000000C
Debug: 2901 1485 driver.c:612 interface_swd_add_transact_in():  0xB7
Debug: 2902 1485 driver.c:612 interface_swd_add_transact_in():  0xBD
Debug: 2903 1485 driver.c:612 interface_swd_add_transact_in():  0x8D
Debug: 2904 1485 driver.c:582 interface_swd_add_transact_out():  0x93, 0x00000000
Debug: 2905 1485 driver.c:612 interface_swd_add_transact_in():  0x8D
Debug: 2906 1485 cortex_m3.c:1395 cortex_m3_load_core_reg_u32(): load from core reg 12  value 0xff3fe7fb
Debug: 2907 1485 driver.c:612 interface_swd_add_transact_in():  0xB7
Debug: 2908 1485 driver.c:612 interface_swd_add_transact_in():  0xBD
Debug: 2909 1485 driver.c:582 interface_swd_add_transact_out():  0x8B, 0x0000000D
Debug: 2910 1485 driver.c:612 interface_swd_add_transact_in():  0xB7
Debug: 2911 1485 driver.c:612 interface_swd_add_transact_in():  0xBD
Debug: 2912 1485 driver.c:612 interface_swd_add_transact_in():  0x8D
Debug: 2913 1485 driver.c:582 interface_swd_add_transact_out():  0x93, 0x00000000
Debug: 2914 1485 driver.c:612 interface_swd_add_transact_in():  0x8D
Debug: 2915 1500 cortex_m3.c:1395 cortex_m3_load_core_reg_u32(): load from core reg 13  value 0x20000400
Debug: 2916 1500 driver.c:612 interface_swd_add_transact_in():  0xB7
Debug: 2917 1500 driver.c:612 interface_swd_add_transact_in():  0xBD
Debug: 2918 1500 driver.c:582 interface_swd_add_transact_out():  0x8B, 0x0000000E
Debug: 2919 1500 driver.c:612 interface_swd_add_transact_in():  0xB7
Debug: 2920 1500 driver.c:612 interface_swd_add_transact_in():  0xBD
Debug: 2921 1500 driver.c:612 interface_swd_add_transact_in():  0x8D
Debug: 2922 1500 driver.c:582 interface_swd_add_transact_out():  0x93, 0x00000000
Debug: 2923 1500 driver.c:612 interface_swd_add_transact_in():  0x8D
Debug: 2924 1500 cortex_m3.c:1395 cortex_m3_load_core_reg_u32(): load from core reg 14  value 0xffffffff
Debug: 2925 1500 driver.c:612 interface_swd_add_transact_in():  0xB7
Debug: 2926 1500 driver.c:612 interface_swd_add_transact_in():  0xBD
Debug: 2927 1500 driver.c:582 interface_swd_add_transact_out():  0x8B, 0x0000000F
Debug: 2928 1500 driver.c:612 interface_swd_add_transact_in():  0xB7
Debug: 2929 1500 driver.c:612 interface_swd_add_transact_in():  0xBD
Debug: 2930 1500 driver.c:612 interface_swd_add_transact_in():  0x8D
Debug: 2931 1500 driver.c:582 interface_swd_add_transact_out():  0x93, 0x00000000
Debug: 2932 1500 driver.c:612 interface_swd_add_transact_in():  0x8D
Debug: 2933 1516 cortex_m3.c:1395 cortex_m3_load_core_reg_u32(): load from core reg 15  value 0x20000026
Debug: 2934 1516 driver.c:612 interface_swd_add_transact_in():  0xB7
Debug: 2935 1516 driver.c:612 interface_swd_add_transact_in():  0xBD
Debug: 2936 1516 driver.c:582 interface_swd_add_transact_out():  0x8B, 0x00000010
Debug: 2937 1516 driver.c:612 interface_swd_add_transact_in():  0xB7
Debug: 2938 1516 driver.c:612 interface_swd_add_transact_in():  0xBD
Debug: 2939 1516 driver.c:612 interface_swd_add_transact_in():  0x8D
Debug: 2940 1516 driver.c:582 interface_swd_add_transact_out():  0x93, 0x00000000
Debug: 2941 1516 driver.c:612 interface_swd_add_transact_in():  0x8D
Debug: 2942 1516 cortex_m3.c:1395 cortex_m3_load_core_reg_u32(): load from core reg 16  value 0x61000000
Debug: 2943 1516 driver.c:612 interface_swd_add_transact_in():  0xB7
Debug: 2944 1516 driver.c:612 interface_swd_add_transact_in():  0xBD
Debug: 2945 1516 driver.c:582 interface_swd_add_transact_out():  0x8B, 0x00000011
Debug: 2946 1516 driver.c:612 interface_swd_add_transact_in():  0xB7
Debug: 2947 1516 driver.c:612 interface_swd_add_transact_in():  0xBD
Debug: 2948 1516 driver.c:612 interface_swd_add_transact_in():  0x8D
Debug: 2949 1531 driver.c:582 interface_swd_add_transact_out():  0x93, 0x00000000
Debug: 2950 1531 driver.c:612 interface_swd_add_transact_in():  0x8D
Debug: 2951 1531 cortex_m3.c:1395 cortex_m3_load_core_reg_u32(): load from core reg 17  value 0x20000400
Debug: 2952 1531 driver.c:612 interface_swd_add_transact_in():  0xB7
Debug: 2953 1531 driver.c:612 interface_swd_add_transact_in():  0xBD
Debug: 2954 1531 driver.c:582 interface_swd_add_transact_out():  0x8B, 0x00000012
Debug: 2955 1531 driver.c:612 interface_swd_add_transact_in():  0xB7
Debug: 2956 1531 driver.c:612 interface_swd_add_transact_in():  0xBD
Debug: 2957 1531 driver.c:612 interface_swd_add_transact_in():  0x8D
Debug: 2958 1531 driver.c:582 interface_swd_add_transact_out():  0x93, 0x00000000
Debug: 2959 1531 driver.c:612 interface_swd_add_transact_in():  0x8D
Debug: 2960 1547 cortex_m3.c:1395 cortex_m3_load_core_reg_u32(): load from core reg 18  value 0xf318303c
Debug: 2961 1547 driver.c:612 interface_swd_add_transact_in():  0xB7
Debug: 2962 1547 driver.c:612 interface_swd_add_transact_in():  0xBD
Debug: 2963 1547 driver.c:582 interface_swd_add_transact_out():  0x8B, 0x00000014
Debug: 2964 1547 driver.c:612 interface_swd_add_transact_in():  0xB7
Debug: 2965 1547 driver.c:612 interface_swd_add_transact_in():  0xBD
Debug: 2966 1547 driver.c:612 interface_swd_add_transact_in():  0x8D
Debug: 2967 1547 driver.c:582 interface_swd_add_transact_out():  0x93, 0x00000000
Debug: 2968 1547 driver.c:612 interface_swd_add_transact_in():  0x8D
Debug: 2969 1547 cortex_m3.c:1427 cortex_m3_load_core_reg_u32(): load from special reg 19 value 0x1
Debug: 2970 1547 driver.c:612 interface_swd_add_transact_in():  0xB7
Debug: 2971 1547 driver.c:612 interface_swd_add_transact_in():  0xBD
Debug: 2972 1547 driver.c:582 interface_swd_add_transact_out():  0x8B, 0x00000014
Debug: 2973 1547 driver.c:612 interface_swd_add_transact_in():  0xB7
Debug: 2974 1547 driver.c:612 interface_swd_add_transact_in():  0xBD
Debug: 2975 1547 driver.c:612 interface_swd_add_transact_in():  0x8D
Debug: 2976 1547 driver.c:582 interface_swd_add_transact_out():  0x93, 0x00000000
Debug: 2977 1547 driver.c:612 interface_swd_add_transact_in():  0x8D
Debug: 2978 1547 cortex_m3.c:1427 cortex_m3_load_core_reg_u32(): load from special reg 20 value 0x0
Debug: 2979 1547 driver.c:612 interface_swd_add_transact_in():  0xB7
Debug: 2980 1547 driver.c:612 interface_swd_add_transact_in():  0xBD
Debug: 2981 1547 driver.c:582 interface_swd_add_transact_out():  0x8B, 0x00000014
Debug: 2982 1547 driver.c:612 interface_swd_add_transact_in():  0xB7
Debug: 2983 1547 driver.c:612 interface_swd_add_transact_in():  0xBD
Debug: 2984 1547 driver.c:612 interface_swd_add_transact_in():  0x8D
Debug: 2985 1563 driver.c:582 interface_swd_add_transact_out():  0x93, 0x00000000
Debug: 2986 1563 driver.c:612 interface_swd_add_transact_in():  0x8D
Debug: 2987 1563 cortex_m3.c:1427 cortex_m3_load_core_reg_u32(): load from special reg 21 value 0x0
Debug: 2988 1563 driver.c:612 interface_swd_add_transact_in():  0xB7
Debug: 2989 1563 driver.c:612 interface_swd_add_transact_in():  0xBD
Debug: 2990 1563 driver.c:582 interface_swd_add_transact_out():  0x8B, 0x00000014
Debug: 2991 1563 driver.c:612 interface_swd_add_transact_in():  0xB7
Debug: 2992 1563 driver.c:612 interface_swd_add_transact_in():  0xBD
Debug: 2993 1563 driver.c:612 interface_swd_add_transact_in():  0x8D
Debug: 2994 1563 driver.c:582 interface_swd_add_transact_out():  0x93, 0x00000000
Debug: 2995 1563 driver.c:612 interface_swd_add_transact_in():  0x8D
Debug: 2996 1578 cortex_m3.c:1427 cortex_m3_load_core_reg_u32(): load from special reg 22 value 0x0
Debug: 2997 1578 cortex_m3.c:442 cortex_m3_debug_entry(): entered debug state in core mode: Thread at PC 0x20000026, target-&gt;state: halted
Debug: 2998 1578 target.c:1018 target_call_event_callbacks(): target event 21 (debug-halted)
Debug: 2999 1578 driver.c:612 interface_swd_add_transact_in():  0xB7
Debug: 3000 1578 driver.c:612 interface_swd_add_transact_in():  0xBD
Debug: 3001 1578 driver.c:582 interface_swd_add_transact_out():  0x8B, 0x0000000F
Debug: 3002 1578 driver.c:612 interface_swd_add_transact_in():  0xB7
Debug: 3003 1578 driver.c:612 interface_swd_add_transact_in():  0xBD
Debug: 3004 1578 driver.c:612 interface_swd_add_transact_in():  0x8D
Debug: 3005 1578 driver.c:582 interface_swd_add_transact_out():  0x93, 0x00000000
Debug: 3006 1578 driver.c:612 interface_swd_add_transact_in():  0x8D
Debug: 3007 1578 cortex_m3.c:1395 cortex_m3_load_core_reg_u32(): load from core reg 15  value 0x20000026
Debug: 3008 1578 armv7m.c:445 armv7m_run_algorithm(): restoring register primask with value 0x00000000
Debug: 3009 1578 armv7m.c:445 armv7m_run_algorithm(): restoring register xPSR with value 0x01000000
Debug: 3010 1578 armv7m.c:445 armv7m_run_algorithm(): restoring register pc with value 0x08001870
Debug: 3011 1578 armv7m.c:445 armv7m_run_algorithm(): restoring register r5 with value 0x40011000
Debug: 3012 1578 armv7m.c:445 armv7m_run_algorithm(): restoring register r4 with value 0x08001ffc
Debug: 3013 1578 armv7m.c:445 armv7m_run_algorithm(): restoring register r3 with value 0x10000000
Debug: 3014 1578 armv7m.c:445 armv7m_run_algorithm(): restoring register r2 with value 0xfef6ffff
Debug: 3015 1578 armv7m.c:445 armv7m_run_algorithm(): restoring register r1 with value 0x00000000
Debug: 3016 1578 armv7m.c:445 armv7m_run_algorithm(): restoring register r0 with value 0xffffffff
Debug: 3017 1578 target.c:1626 target_write_u32(): address: 0x40022010, value: 0x00000080
Debug: 3018 1578 driver.c:582 interface_swd_add_transact_out():  0xB1, 0x00000000
Debug: 3019 1578 driver.c:582 interface_swd_add_transact_out():  0xA3, 0xA2000012
Debug: 3020 1578 driver.c:582 interface_swd_add_transact_out():  0x8B, 0x40022010
Debug: 3021 1578 driver.c:582 interface_swd_add_transact_out():  0xBB, 0x00000080
Debug: 3022 1578 driver.c:612 interface_swd_add_transact_in():  0x8D
User : 3023 1578 command.c:543 command_print(): wrote 6596 bytes from file H:/MyProject/Versaloon/Tools/STM32USBBoot_Mini.hex in 0.703125s (9.161 KiB/s)
Debug: 3024 1578 command.c:133 script_debug(): command - ocd_command ocd_command type ocd_reset run
Debug: 3025 1578 command.c:133 script_debug(): command - reset ocd_reset run
Debug: 3027 1578 driver.c:582 interface_swd_add_transact_out():  0xA3, 0xA2000002
Debug: 3028 1578 driver.c:582 interface_swd_add_transact_out():  0x8B, 0xE000EDF0
Debug: 3029 1578 driver.c:582 interface_swd_add_transact_out():  0xB1, 0x00000010
Debug: 3030 1578 driver.c:612 interface_swd_add_transact_in():  0x87
Debug: 3031 1578 driver.c:612 interface_swd_add_transact_in():  0xBD
Debug: 3032 1578 driver.c:612 interface_swd_add_transact_in():  0x8D
Debug: 3034 1578 command.c:133 script_debug(): command - ocd_command ocd_command type ocd_target names
Debug: 3035 1578 command.c:133 script_debug(): command - ocd_target ocd_target names
Debug: 3036 1578 command.c:133 script_debug(): command - ocd_command ocd_command type ocd_stm32.cpu invoke-event reset-start
Debug: 3037 1578 command.c:133 script_debug(): command - ocd_stm32.cpu ocd_stm32.cpu invoke-event reset-start
Debug: 3038 1578 command.c:133 script_debug(): command - ocd_command ocd_command type ocd_jtag arp_init-reset
Debug: 3039 1594 command.c:133 script_debug(): command - ocd_jtag ocd_jtag arp_init-reset
Debug: 3040 1594 core.c:1470 jtag_init_reset(): Initializing with hard TRST+SRST reset
Debug: 3041 1594 core.c:718 jtag_add_reset(): JTAG reset with TLR instead of TRST
Debug: 3042 1594 core.c:321 jtag_call_event_callbacks(): jtag event: TAP reset
Debug: 3043 1594 command.c:133 script_debug(): command - ocd_command ocd_command type ocd_stm32.cpu cget -chain-position
Debug: 3044 1594 command.c:133 script_debug(): command - ocd_stm32.cpu ocd_stm32.cpu cget -chain-position
Debug: 3045 1594 command.c:133 script_debug(): command - ocd_command ocd_command type ocd_jtag tapisenabled stm32.cpu
Debug: 3046 1594 command.c:133 script_debug(): command - ocd_jtag ocd_jtag tapisenabled stm32.cpu
Debug: 3047 1594 command.c:133 script_debug(): command - ocd_command ocd_command type ocd_stm32.cpu arp_examine
Debug: 3048 1594 command.c:133 script_debug(): command - ocd_stm32.cpu ocd_stm32.cpu arp_examine
Debug: 3049 1594 arm_adi_v5.c:908 ahbap_debugport_init():  
Debug: 3050 1594 driver.c:553 interface_swd_add_sequence():  
Debug: 3051 1594 driver.c:612 interface_swd_add_transact_in():  0xA5
Debug: 3052 1594 arm_adi_v5.c:930 ahbap_debugport_init(): swd_id is 0x1BA01477
Debug: 3053 1594 driver.c:612 interface_swd_add_transact_in():  0x8D
Debug: 3054 1594 driver.c:582 interface_swd_add_transact_out():  0x81, 0x0000001D
Debug: 3055 1594 driver.c:612 interface_swd_add_transact_in():  0x8D
Debug: 3056 1594 driver.c:582 interface_swd_add_transact_out():  0xA9, 0x50000000
Debug: 3057 1594 driver.c:612 interface_swd_add_transact_in():  0x8D
Debug: 3058 1594 driver.c:612 interface_swd_add_transact_in():  0x8D
Debug: 3059 1594 driver.c:612 interface_swd_add_transact_in():  0x8D
Debug: 3060 1594 driver.c:582 interface_swd_add_transact_out():  0xA9, 0x50000001
Debug: 3061 1594 driver.c:612 interface_swd_add_transact_in():  0x8D
Debug: 3062 1594 driver.c:582 interface_swd_add_transact_out():  0xB1, 0x000000F0
Debug: 3063 1594 driver.c:612 interface_swd_add_transact_in():  0x9F
Debug: 3064 1594 driver.c:612 interface_swd_add_transact_in():  0xBD
Debug: 3065 1594 driver.c:612 interface_swd_add_transact_in():  0xB7
Debug: 3066 1594 driver.c:612 interface_swd_add_transact_in():  0xBD
Debug: 3067 1594 driver.c:612 interface_swd_add_transact_in():  0x8D
Debug: 3068 1594 arm_adi_v5.c:1014 ahbap_debugport_init(): MEM-AP #0 ID Register 0x14770011, Debug ROM Address 0xe00ff003
Debug: 3069 1594 command.c:133 script_debug(): command - ocd_command ocd_command type ocd_stm32.cpu invoke-event reset-assert-pre
Debug: 3070 1594 command.c:133 script_debug(): command - ocd_stm32.cpu ocd_stm32.cpu invoke-event reset-assert-pre
Debug: 3071 1594 command.c:133 script_debug(): command - ocd_command ocd_command type ocd_stm32.cpu cget -chain-position
Debug: 3072 1594 command.c:133 script_debug(): command - ocd_stm32.cpu ocd_stm32.cpu cget -chain-position
Debug: 3073 1594 command.c:133 script_debug(): command - ocd_command ocd_command type ocd_jtag tapisenabled stm32.cpu
Debug: 3074 1594 command.c:133 script_debug(): command - ocd_jtag ocd_jtag tapisenabled stm32.cpu
Debug: 3075 1594 command.c:133 script_debug(): command - ocd_command ocd_command type ocd_stm32.cpu arp_reset assert 0
Debug: 3076 1594 command.c:133 script_debug(): command - ocd_stm32.cpu ocd_stm32.cpu arp_reset assert 0
Debug: 3077 1594 cortex_m3.c:833 cortex_m3_assert_reset(): target-&gt;state: halted
Debug: 3078 1594 driver.c:582 interface_swd_add_transact_out():  0xB1, 0x00000000
Debug: 3079 1594 driver.c:582 interface_swd_add_transact_out():  0xA3, 0xA2000002
Debug: 3080 1594 driver.c:582 interface_swd_add_transact_out():  0x8B, 0xE000EDF0
Debug: 3081 1594 driver.c:582 interface_swd_add_transact_out():  0xB1, 0x00000010
Debug: 3082 1594 driver.c:612 interface_swd_add_transact_in():  0x87
Debug: 3083 1594 driver.c:612 interface_swd_add_transact_in():  0xBD
Debug: 3084 1594 driver.c:612 interface_swd_add_transact_in():  0x8D
Debug: 3085 1610 driver.c:582 interface_swd_add_transact_out():  0x93, 0x00000000
Debug: 3086 1610 driver.c:582 interface_swd_add_transact_out():  0xA3, 0xA05F0003
Debug: 3087 1610 driver.c:612 interface_swd_add_transact_in():  0x8D
Debug: 3088 1610 driver.c:582 interface_swd_add_transact_out():  0xB1, 0x00000000
Debug: 3089 1610 driver.c:582 interface_swd_add_transact_out():  0x8B, 0xE000ED30
Debug: 3090 1610 driver.c:582 interface_swd_add_transact_out():  0xB1, 0x00000010
Debug: 3091 1610 driver.c:612 interface_swd_add_transact_in():  0x87
Debug: 3092 1610 driver.c:612 interface_swd_add_transact_in():  0xBD
Debug: 3093 1610 driver.c:612 interface_swd_add_transact_in():  0x8D
Debug: 3094 1610 driver.c:582 interface_swd_add_transact_out():  0xA3, 0x00000001
Debug: 3095 1610 driver.c:612 interface_swd_add_transact_in():  0x8D
Debug: 3096 1610 cortex_m3.c:155 cortex_m3_clear_halt():  NVIC_DFSR 0x1
Debug: 3097 1610 driver.c:582 interface_swd_add_transact_out():  0xB1, 0x00000000
Debug: 3098 1610 driver.c:582 interface_swd_add_transact_out():  0x8B, 0xE000EDF0
Debug: 3099 1610 driver.c:582 interface_swd_add_transact_out():  0xB1, 0x00000010
Debug: 3100 1610 driver.c:582 interface_swd_add_transact_out():  0xA3, 0xA05F0001
Debug: 3101 1610 driver.c:612 interface_swd_add_transact_in():  0x8D
Debug: 3102 1610 driver.c:582 interface_swd_add_transact_out():  0xB1, 0x00000000
Debug: 3103 1610 driver.c:582 interface_swd_add_transact_out():  0x8B, 0xE000ED00
Debug: 3104 1610 driver.c:582 interface_swd_add_transact_out():  0xB1, 0x00000010
Debug: 3105 1610 driver.c:582 interface_swd_add_transact_out():  0xBB, 0x05FA0004
Debug: 3106 1610 driver.c:612 interface_swd_add_transact_in():  0x8D
Debug: 3107 1610 cortex_m3.c:940 cortex_m3_assert_reset(): Using Cortex-M3 SYSRESETREQ
Debug: 3108 1610 driver.c:612 interface_swd_add_transact_in():  0x9F
Debug: 3109 1610 driver.c:612 interface_swd_add_transact_in():  0xBD
Debug: 3110 1610 driver.c:612 interface_swd_add_transact_in():  0x8D
Debug: 3111 1625 command.c:133 script_debug(): command - ocd_command ocd_command type ocd_stm32.cpu invoke-event reset-assert-post
Debug: 3112 1625 command.c:133 script_debug(): command - ocd_stm32.cpu ocd_stm32.cpu invoke-event reset-assert-post
Debug: 3113 1625 command.c:133 script_debug(): command - ocd_command ocd_command type ocd_stm32.cpu invoke-event reset-deassert-pre
Debug: 3114 1625 command.c:133 script_debug(): command - ocd_stm32.cpu ocd_stm32.cpu invoke-event reset-deassert-pre
Debug: 3115 1625 command.c:133 script_debug(): command - ocd_command ocd_command type ocd_stm32.cpu cget -chain-position
Debug: 3116 1625 command.c:133 script_debug(): command - ocd_stm32.cpu ocd_stm32.cpu cget -chain-position
Debug: 3117 1625 command.c:133 script_debug(): command - ocd_command ocd_command type ocd_jtag tapisenabled stm32.cpu
Debug: 3118 1625 command.c:133 script_debug(): command - ocd_jtag ocd_jtag tapisenabled stm32.cpu
Debug: 3119 1625 command.c:133 script_debug(): command - ocd_command ocd_command type ocd_stm32.cpu arp_reset deassert 0
Debug: 3120 1625 command.c:133 script_debug(): command - ocd_stm32.cpu ocd_stm32.cpu arp_reset deassert 0
Debug: 3121 1625 cortex_m3.c:970 cortex_m3_deassert_reset(): target-&gt;state: reset
Debug: 3122 1625 command.c:133 script_debug(): command - ocd_command ocd_command type ocd_stm32.cpu invoke-event reset-deassert-post
Debug: 3123 1625 command.c:133 script_debug(): command - ocd_stm32.cpu ocd_stm32.cpu invoke-event reset-deassert-post
Debug: 3124 1625 command.c:133 script_debug(): command - ocd_command ocd_command type ocd_stm32.cpu invoke-event reset-end
Debug: 3125 1625 command.c:133 script_debug(): command - ocd_stm32.cpu ocd_stm32.cpu invoke-event reset-end
Debug: 3126 1625 driver.c:582 interface_swd_add_transact_out():  0xB1, 0x00000000
Debug: 3127 1625 driver.c:582 interface_swd_add_transact_out():  0x8B, 0xE000EDF0
Debug: 3128 1625 driver.c:582 interface_swd_add_transact_out():  0xB1, 0x00000010
Debug: 3129 1625 driver.c:612 interface_swd_add_transact_in():  0x87
Debug: 3130 1625 driver.c:612 interface_swd_add_transact_in():  0xBD
Debug: 3131 1625 driver.c:612 interface_swd_add_transact_in():  0x8D
Debug: 3132 1688 driver.c:612 interface_swd_add_transact_in():  0x87
Debug: 3133 1688 driver.c:612 interface_swd_add_transact_in():  0xBD
Debug: 3134 1688 driver.c:612 interface_swd_add_transact_in():  0x8D
Debug: 3135 1688 cortex_m3.c:498 cortex_m3_poll(): Exit from reset with dcb_dhcsr 0x1010001
Debug: 3136 1688 driver.c:612 interface_swd_add_transact_in():  0x9F
Debug: 3137 1688 driver.c:612 interface_swd_add_transact_in():  0xBD
Debug: 3138 1688 driver.c:612 interface_swd_add_transact_in():  0x8D
Debug: 3139 1688 cortex_m3.c:200 cortex_m3_endreset_event(): DCB_DEMCR = 0x01000000
Debug: 3140 1688 driver.c:582 interface_swd_add_transact_out():  0x93, 0x00000000
Debug: 3141 1688 driver.c:612 interface_swd_add_transact_in():  0x87
Debug: 3142 1688 driver.c:612 interface_swd_add_transact_in():  0xBD
Debug: 3143 1688 driver.c:612 interface_swd_add_transact_in():  0x8D
Debug: 3144 1688 driver.c:582 interface_swd_add_transact_out():  0xA3, 0xA05F0001
Debug: 3145 1688 driver.c:612 interface_swd_add_transact_in():  0x8D
Debug: 3146 1703 driver.c:582 interface_swd_add_transact_out():  0xBB, 0x01000000
Debug: 3147 1703 target.c:1626 target_write_u32(): address: 0xe0002000, value: 0x00000003
Debug: 3148 1703 driver.c:582 interface_swd_add_transact_out():  0xB1, 0x00000000
Debug: 3149 1703 driver.c:582 interface_swd_add_transact_out():  0xA3, 0xA2000012
Debug: 3150 1703 driver.c:582 interface_swd_add_transact_out():  0x8B, 0xE0002000
Debug: 3151 1703 driver.c:582 interface_swd_add_transact_out():  0xBB, 0x00000003
Debug: 3152 1703 driver.c:612 interface_swd_add_transact_in():  0x8D
Debug: 3153 1703 target.c:1626 target_write_u32(): address: 0xe0002008, value: 0x00000000
Debug: 3154 1703 driver.c:582 interface_swd_add_transact_out():  0x8B, 0xE0002008
Debug: 3155 1703 driver.c:582 interface_swd_add_transact_out():  0xBB, 0x00000000
Debug: 3156 1703 driver.c:612 interface_swd_add_transact_in():  0x8D
Debug: 3157 1703 target.c:1626 target_write_u32(): address: 0xe000200c, value: 0x00000000
Debug: 3158 1703 driver.c:582 interface_swd_add_transact_out():  0x8B, 0xE000200C
Debug: 3159 1703 driver.c:582 interface_swd_add_transact_out():  0xBB, 0x00000000
Debug: 3160 1703 driver.c:612 interface_swd_add_transact_in():  0x8D
Debug: 3161 1703 target.c:1626 target_write_u32(): address: 0xe0002010, value: 0x00000000
Debug: 3162 1703 driver.c:582 interface_swd_add_transact_out():  0x8B, 0xE0002010
Debug: 3163 1703 driver.c:582 interface_swd_add_transact_out():  0xBB, 0x00000000
Debug: 3164 1703 driver.c:612 interface_swd_add_transact_in():  0x8D
Debug: 3165 1719 target.c:1626 target_write_u32(): address: 0xe0002014, value: 0x00000000
Debug: 3166 1719 driver.c:582 interface_swd_add_transact_out():  0x8B, 0xE0002014
Debug: 3167 1719 driver.c:582 interface_swd_add_transact_out():  0xBB, 0x00000000
Debug: 3168 1719 driver.c:612 interface_swd_add_transact_in():  0x8D
Debug: 3169 1719 target.c:1626 target_write_u32(): address: 0xe0002018, value: 0x00000000
Debug: 3170 1719 driver.c:582 interface_swd_add_transact_out():  0x8B, 0xE0002018
Debug: 3171 1719 driver.c:582 interface_swd_add_transact_out():  0xBB, 0x00000000
Debug: 3172 1719 driver.c:612 interface_swd_add_transact_in():  0x8D
Debug: 3173 1719 target.c:1626 target_write_u32(): address: 0xe000201c, value: 0x00000000
Debug: 3174 1719 driver.c:582 interface_swd_add_transact_out():  0x8B, 0xE000201C
Debug: 3175 1719 driver.c:582 interface_swd_add_transact_out():  0xBB, 0x00000000
Debug: 3176 1719 driver.c:612 interface_swd_add_transact_in():  0x8D
Debug: 3177 1735 target.c:1626 target_write_u32(): address: 0xe0002020, value: 0x00000000
Debug: 3178 1735 driver.c:582 interface_swd_add_transact_out():  0x8B, 0xE0002020
Debug: 3179 1735 driver.c:582 interface_swd_add_transact_out():  0xBB, 0x00000000
Debug: 3180 1735 driver.c:612 interface_swd_add_transact_in():  0x8D
Debug: 3181 1735 target.c:1626 target_write_u32(): address: 0xe0002024, value: 0x00000000
Debug: 3182 1735 driver.c:582 interface_swd_add_transact_out():  0x8B, 0xE0002024
Debug: 3183 1735 driver.c:582 interface_swd_add_transact_out():  0xBB, 0x00000000
Debug: 3184 1735 driver.c:612 interface_swd_add_transact_in():  0x8D
Debug: 3185 1735 target.c:1626 target_write_u32(): address: 0xe0001020, value: 0x00000000
Debug: 3186 1735 driver.c:582 interface_swd_add_transact_out():  0x8B, 0xE0001020
Debug: 3187 1735 driver.c:582 interface_swd_add_transact_out():  0xBB, 0x00000000
Debug: 3188 1735 driver.c:612 interface_swd_add_transact_in():  0x8D
Debug: 3189 1735 target.c:1626 target_write_u32(): address: 0xe0001024, value: 0x00000000
Debug: 3190 1735 driver.c:582 interface_swd_add_transact_out():  0x8B, 0xE0001024
Debug: 3191 1735 driver.c:582 interface_swd_add_transact_out():  0xBB, 0x00000000
Debug: 3192 1735 driver.c:612 interface_swd_add_transact_in():  0x8D
Debug: 3193 1750 target.c:1626 target_write_u32(): address: 0xe0001028, value: 0x00000000
Debug: 3194 1750 driver.c:582 interface_swd_add_transact_out():  0x8B, 0xE0001028
Debug: 3195 1750 driver.c:582 interface_swd_add_transact_out():  0xBB, 0x00000000
Debug: 3196 1750 driver.c:612 interface_swd_add_transact_in():  0x8D
Debug: 3197 1750 target.c:1626 target_write_u32(): address: 0xe0001030, value: 0x00000000
Debug: 3198 1750 driver.c:582 interface_swd_add_transact_out():  0x8B, 0xE0001030
Debug: 3199 1750 driver.c:582 interface_swd_add_transact_out():  0xBB, 0x00000000
Debug: 3200 1750 driver.c:612 interface_swd_add_transact_in():  0x8D
Debug: 3201 1750 target.c:1626 target_write_u32(): address: 0xe0001034, value: 0x00000000
Debug: 3202 1750 driver.c:582 interface_swd_add_transact_out():  0x8B, 0xE0001034
Debug: 3203 1750 driver.c:582 interface_swd_add_transact_out():  0xBB, 0x00000000
Debug: 3204 1750 driver.c:612 interface_swd_add_transact_in():  0x8D
Debug: 3205 1750 target.c:1626 target_write_u32(): address: 0xe0001038, value: 0x00000000
Debug: 3206 1750 driver.c:582 interface_swd_add_transact_out():  0x8B, 0xE0001038
Debug: 3207 1750 driver.c:582 interface_swd_add_transact_out():  0xBB, 0x00000000
Debug: 3208 1750 driver.c:612 interface_swd_add_transact_in():  0x8D
Debug: 3209 1766 target.c:1626 target_write_u32(): address: 0xe0001040, value: 0x00000000
Debug: 3210 1766 driver.c:582 interface_swd_add_transact_out():  0x8B, 0xE0001040
Debug: 3211 1766 driver.c:582 interface_swd_add_transact_out():  0xBB, 0x00000000
Debug: 3212 1766 driver.c:612 interface_swd_add_transact_in():  0x8D
Debug: 3213 1766 target.c:1626 target_write_u32(): address: 0xe0001044, value: 0x00000000
Debug: 3214 1766 driver.c:582 interface_swd_add_transact_out():  0x8B, 0xE0001044
Debug: 3215 1766 driver.c:582 interface_swd_add_transact_out():  0xBB, 0x00000000
Debug: 3216 1766 driver.c:612 interface_swd_add_transact_in():  0x8D
Debug: 3217 1766 target.c:1626 target_write_u32(): address: 0xe0001048, value: 0x00000000
Debug: 3218 1766 driver.c:582 interface_swd_add_transact_out():  0x8B, 0xE0001048
Debug: 3219 1766 driver.c:582 interface_swd_add_transact_out():  0xBB, 0x00000000
Debug: 3220 1766 driver.c:612 interface_swd_add_transact_in():  0x8D
Debug: 3221 1766 target.c:1626 target_write_u32(): address: 0xe0001050, value: 0x00000000
Debug: 3222 1766 driver.c:582 interface_swd_add_transact_out():  0x8B, 0xE0001050
Debug: 3223 1766 driver.c:582 interface_swd_add_transact_out():  0xBB, 0x00000000
Debug: 3224 1766 driver.c:612 interface_swd_add_transact_in():  0x8D
Debug: 3225 1781 target.c:1626 target_write_u32(): address: 0xe0001054, value: 0x00000000
Debug: 3226 1781 driver.c:582 interface_swd_add_transact_out():  0x8B, 0xE0001054
Debug: 3227 1781 driver.c:582 interface_swd_add_transact_out():  0xBB, 0x00000000
Debug: 3228 1781 driver.c:612 interface_swd_add_transact_in():  0x8D
Debug: 3229 1781 target.c:1626 target_write_u32(): address: 0xe0001058, value: 0x00000000
Debug: 3230 1781 driver.c:582 interface_swd_add_transact_out():  0x8B, 0xE0001058
Debug: 3231 1781 driver.c:582 interface_swd_add_transact_out():  0xBB, 0x00000000
Debug: 3232 1781 driver.c:612 interface_swd_add_transact_in():  0x8D
Debug: 3233 1781 driver.c:612 interface_swd_add_transact_in():  0x8D
Debug: 3234 1781 driver.c:582 interface_swd_add_transact_out():  0xA3, 0xA2000002
Debug: 3235 1781 driver.c:582 interface_swd_add_transact_out():  0x8B, 0xE000EDF0
Debug: 3236 1781 driver.c:582 interface_swd_add_transact_out():  0xB1, 0x00000010
Debug: 3237 1781 driver.c:612 interface_swd_add_transact_in():  0x87
Debug: 3238 1781 driver.c:612 interface_swd_add_transact_in():  0xBD
Debug: 3239 1781 driver.c:612 interface_swd_add_transact_in():  0x8D
Debug: 3240 1797 command.c:133 script_debug(): command - ocd_command ocd_command type ocd_shutdown
Debug: 3241 1797 command.c:133 script_debug(): command - shutdown ocd_shutdown
Debug: 3242 1797 driver.c:612 interface_swd_add_transact_in():  0x87
Debug: 3243 1797 driver.c:612 interface_swd_add_transact_in():  0xBD
Debug: 3244 1797 driver.c:612 interface_swd_add_transact_in():  0x8D
User : 3246 1797 server.c:538 handle_shutdown_command(): shutdown command invoked
Debug: 3247 1797 httpd_stubs.c:28 httpd_start(): libocdserver was built without HTTPD support
Debug: 3248 1797 command.c:133 script_debug(): command - ocd_command ocd_command type ocd_init
Debug: 3249 1797 command.c:133 script_debug(): command - init ocd_init
Debug: 3250 1797 driver.c:612 interface_swd_add_transact_in():  0x87
Debug: 3251 1797 driver.c:612 interface_swd_add_transact_in():  0xBD
Debug: 3252 1797 driver.c:612 interface_swd_add_transact_in():  0x8D
-------------- next part --------------
A non-text attachment was scrubbed...
Name: swd_support.patch
Type: application/octet-stream
Size: 28387 bytes
Desc: not available
URL: &lt;<A HREF="https://lists.berlios.de/pipermail/openocd-development/attachments/20100604/b207a163/attachment.obj">https://lists.berlios.de/pipermail/openocd-development/attachments/20100604/b207a163/attachment.obj</A>&gt;
-------------- next part --------------
Debug: 14 15 configuration.c:45 add_script_search_dir(): adding C:\msys\1.0\local\bin\..
Debug: 15 15 configuration.c:45 add_script_search_dir(): adding C:/msys/1.0/local/bin/../share/openocd/scripts
Debug: 16 31 configuration.c:87 find_file(): found test_lpc1700.cfg
Debug: 17 31 command.c:133 script_debug(): command - ocd_command ocd_command type ocd_interface vsllink
Debug: 18 31 command.c:133 script_debug(): command - interface ocd_interface vsllink
Debug: 20 31 command.c:350 register_command_handler(): registering 'ocd_vsllink_usb_vid'...
Debug: 21 31 command.c:350 register_command_handler(): registering 'ocd_vsllink_usb_pid'...
Debug: 22 31 command.c:350 register_command_handler(): registering 'ocd_vsllink_usb_bulkin'...
Debug: 23 31 command.c:350 register_command_handler(): registering 'ocd_vsllink_usb_bulkout'...
Debug: 24 31 command.c:350 register_command_handler(): registering 'ocd_vsllink_usb_interface'...
Debug: 25 31 command.c:350 register_command_handler(): registering 'ocd_vsllink_mode'...
Debug: 26 31 command.c:133 script_debug(): command - ocd_command ocd_command type ocd_vsllink_usb_vid 0x0483
Debug: 27 31 command.c:133 script_debug(): command - vsllink_usb_vid ocd_vsllink_usb_vid 0x0483
Debug: 29 31 command.c:133 script_debug(): command - ocd_command ocd_command type ocd_vsllink_usb_pid 0x5740
Debug: 30 31 command.c:133 script_debug(): command - vsllink_usb_pid ocd_vsllink_usb_pid 0x5740
Debug: 32 31 command.c:133 script_debug(): command - ocd_command ocd_command type ocd_vsllink_usb_bulkin 0x02
Debug: 33 31 command.c:133 script_debug(): command - vsllink_usb_bulkin ocd_vsllink_usb_bulkin 0x02
Debug: 35 31 command.c:133 script_debug(): command - ocd_command ocd_command type ocd_vsllink_usb_bulkout 0x03
Debug: 36 31 command.c:133 script_debug(): command - vsllink_usb_bulkout ocd_vsllink_usb_bulkout 0x03
Debug: 38 31 command.c:133 script_debug(): command - ocd_command ocd_command type ocd_vsllink_usb_interface 1
Debug: 39 31 command.c:133 script_debug(): command - vsllink_usb_interface ocd_vsllink_usb_interface 1
Debug: 41 31 command.c:133 script_debug(): command - ocd_command ocd_command type ocd_swd_mode 2
Debug: 42 31 command.c:133 script_debug(): command - swd_mode ocd_swd_mode 2
Info : 44 31 tcl.c:953 handle_swd_mode_command(): OpenOCD runs in SWD mode
Debug: 45 31 command.c:133 script_debug(): command - ocd_command ocd_command type ocd_adapter_nsrst_delay 200
Debug: 46 31 command.c:133 script_debug(): command - adapter_nsrst_delay ocd_adapter_nsrst_delay 200
User : 48 31 command.c:543 command_print(): adapter_nsrst_delay: 200
Debug: 49 31 command.c:133 script_debug(): command - ocd_command ocd_command type ocd_jtag_ntrst_delay 200
Debug: 50 31 command.c:133 script_debug(): command - jtag_ntrst_delay ocd_jtag_ntrst_delay 200
User : 52 31 command.c:543 command_print(): jtag_ntrst_delay: 200
Debug: 53 31 command.c:133 script_debug(): command - ocd_command ocd_command type ocd_reset_config srst_pulls_trst
Debug: 54 31 command.c:133 script_debug(): command - reset_config ocd_reset_config srst_pulls_trst
User : 56 31 command.c:543 command_print(): none srst_pulls_trst
Debug: 57 31 command.c:133 script_debug(): command - ocd_command ocd_command type ocd_jtag newtap lpc1768 cpu -irlen 4 -expected-id 0x4ba00477
Debug: 58 31 command.c:133 script_debug(): command - ocd_jtag ocd_jtag newtap lpc1768 cpu -irlen 4 -expected-id 0x4ba00477
Debug: 59 31 tcl.c:573 jim_newtap_cmd(): Creating New Tap, Chip: lpc1768, Tap: cpu, Dotted: lpc1768.cpu, 4 params
Debug: 60 31 tcl.c:590 jim_newtap_cmd(): Processing option: -irlen
Debug: 61 31 tcl.c:590 jim_newtap_cmd(): Processing option: -expected-id
Debug: 62 31 core.c:1313 jtag_tap_init(): Created Tap: lpc1768.cpu @ abs position 0, irlen 4, capture: 0x1 mask: 0x3
Debug: 63 31 command.c:133 script_debug(): command - ocd_command ocd_command type ocd_target create lpc1768.cpu cortex_m3 -chain-position lpc1768.cpu
Debug: 64 31 command.c:133 script_debug(): command - ocd_target ocd_target create lpc1768.cpu cortex_m3 -chain-position lpc1768.cpu
Debug: 65 31 command.c:350 register_command_handler(): registering 'ocd_arm'...
Debug: 66 31 command.c:350 register_command_handler(): registering 'ocd_arm'...
Debug: 67 31 command.c:350 register_command_handler(): registering 'ocd_arm'...
Debug: 68 31 command.c:350 register_command_handler(): registering 'ocd_arm'...
Debug: 69 31 command.c:350 register_command_handler(): registering 'ocd_arm'...
Debug: 70 31 command.c:350 register_command_handler(): registering 'ocd_arm'...
Debug: 71 31 command.c:350 register_command_handler(): registering 'ocd_dap'...
Debug: 72 31 command.c:350 register_command_handler(): registering 'ocd_dap'...
Debug: 73 31 command.c:350 register_command_handler(): registering 'ocd_dap'...
Debug: 74 31 command.c:350 register_command_handler(): registering 'ocd_dap'...
Debug: 75 31 command.c:350 register_command_handler(): registering 'ocd_dap'...
Debug: 76 31 command.c:350 register_command_handler(): registering 'ocd_cortex_m3'...
Debug: 77 31 command.c:350 register_command_handler(): registering 'ocd_cortex_m3'...
Debug: 78 31 command.c:350 register_command_handler(): registering 'ocd_lpc1768.cpu'...
Debug: 79 31 command.c:350 register_command_handler(): registering 'ocd_lpc1768.cpu'...
Debug: 80 31 command.c:350 register_command_handler(): registering 'ocd_lpc1768.cpu'...
Debug: 81 31 command.c:350 register_command_handler(): registering 'ocd_lpc1768.cpu'...
Debug: 82 31 command.c:350 register_command_handler(): registering 'ocd_lpc1768.cpu'...
Debug: 83 31 command.c:350 register_command_handler(): registering 'ocd_lpc1768.cpu'...
Debug: 84 31 command.c:350 register_command_handler(): registering 'ocd_lpc1768.cpu'...
Debug: 85 31 command.c:350 register_command_handler(): registering 'ocd_lpc1768.cpu'...
Debug: 86 31 command.c:350 register_command_handler(): registering 'ocd_lpc1768.cpu'...
Debug: 87 31 command.c:350 register_command_handler(): registering 'ocd_lpc1768.cpu'...
Debug: 88 31 command.c:350 register_command_handler(): registering 'ocd_lpc1768.cpu'...
Debug: 89 31 command.c:350 register_command_handler(): registering 'ocd_lpc1768.cpu'...
Debug: 90 31 command.c:350 register_command_handler(): registering 'ocd_lpc1768.cpu'...
Debug: 91 31 command.c:350 register_command_handler(): registering 'ocd_lpc1768.cpu'...
Debug: 92 31 command.c:350 register_command_handler(): registering 'ocd_lpc1768.cpu'...
Debug: 93 31 command.c:350 register_command_handler(): registering 'ocd_lpc1768.cpu'...
Debug: 94 31 command.c:350 register_command_handler(): registering 'ocd_lpc1768.cpu'...
Debug: 95 31 command.c:350 register_command_handler(): registering 'ocd_lpc1768.cpu'...
Debug: 96 31 command.c:350 register_command_handler(): registering 'ocd_lpc1768.cpu'...
Debug: 97 31 command.c:350 register_command_handler(): registering 'ocd_lpc1768.cpu'...
Debug: 98 31 command.c:350 register_command_handler(): registering 'ocd_lpc1768.cpu'...
Debug: 99 31 command.c:350 register_command_handler(): registering 'ocd_lpc1768.cpu'...
Debug: 100 31 command.c:350 register_command_handler(): registering 'ocd_lpc1768.cpu'...
Debug: 101 31 command.c:350 register_command_handler(): registering 'ocd_lpc1768.cpu'...
Debug: 102 31 command.c:350 register_command_handler(): registering 'ocd_lpc1768.cpu'...
Debug: 103 31 command.c:350 register_command_handler(): registering 'ocd_lpc1768.cpu'...
Debug: 104 31 command.c:350 register_command_handler(): registering 'ocd_lpc1768.cpu'...
Debug: 105 31 command.c:350 register_command_handler(): registering 'ocd_lpc1768.cpu'...
Debug: 106 31 command.c:350 register_command_handler(): registering 'ocd_lpc1768.cpu'...
Debug: 107 31 command.c:350 register_command_handler(): registering 'ocd_lpc1768.cpu'...
Debug: 108 31 command.c:350 register_command_handler(): registering 'ocd_lpc1768.cpu'...
Debug: 109 31 command.c:350 register_command_handler(): registering 'ocd_lpc1768.cpu'...
Debug: 110 31 command.c:350 register_command_handler(): registering 'ocd_lpc1768.cpu'...
Debug: 111 31 command.c:350 register_command_handler(): registering 'ocd_lpc1768.cpu'...
Debug: 112 31 command.c:350 register_command_handler(): registering 'ocd_lpc1768.cpu'...
Debug: 113 31 command.c:133 script_debug(): command - ocd_command ocd_command type ocd_lpc1768.cpu configure -work-area-phys 0x10000000 -work-area-size 0x8000
Debug: 114 46 command.c:133 script_debug(): command - ocd_lpc1768.cpu ocd_lpc1768.cpu configure -work-area-phys 0x10000000 -work-area-size 0x8000
Debug: 115 46 command.c:133 script_debug(): command - ocd_command ocd_command type ocd_flash bank lpc1768.flash lpc2000 0x0 0x80000 0 0 lpc1768.cpu lpc1700 4000 calc_checksum
Debug: 116 46 command.c:133 script_debug(): command - ocd_flash ocd_flash bank lpc1768.flash lpc2000 0x0 0x80000 0 0 lpc1768.cpu lpc1700 4000 calc_checksum
Debug: 118 46 command.c:350 register_command_handler(): registering 'ocd_lpc2000'...
Debug: 119 46 command.c:133 script_debug(): command - ocd_command ocd_command type ocd_jtag_rclk 666
Debug: 120 46 command.c:133 script_debug(): command - jtag_rclk ocd_jtag_rclk 666
Debug: 122 46 core.c:1593 jtag_config_rclk(): handle jtag rclk
Debug: 123 46 core.c:1547 adapter_khz_to_speed(): convert khz to interface specific speed value
User : 124 46 command.c:543 command_print(): RCLK - adaptive
Debug: 125 46 command.c:133 script_debug(): command - ocd_command ocd_command type ocd_lpc1768.cpu configure -event reset-start  jtag_rclk [ expr 4000 / 6]  
Debug: 126 46 command.c:133 script_debug(): command - ocd_lpc1768.cpu ocd_lpc1768.cpu configure -event reset-start  jtag_rclk [ expr 4000 / 6]  
Debug: 127 46 command.c:133 script_debug(): command - ocd_command ocd_command type ocd_telnet_port 4444
Debug: 128 46 command.c:133 script_debug(): command - telnet_port ocd_telnet_port 4444
Debug: 130 46 command.c:133 script_debug(): command - ocd_command ocd_command type ocd_gdb_port 3333
Debug: 131 46 command.c:133 script_debug(): command - gdb_port ocd_gdb_port 3333
Debug: 133 46 command.c:133 script_debug(): command - ocd_command ocd_command type ocd_tcl_port 6666
Debug: 134 46 command.c:133 script_debug(): command - tcl_port ocd_tcl_port 6666
Debug: 136 46 command.c:133 script_debug(): command - ocd_command ocd_command type ocd_init
Debug: 137 46 command.c:133 script_debug(): command - init ocd_init
Debug: 139 46 command.c:133 script_debug(): command - ocd_command ocd_command type ocd_target init
Debug: 140 46 command.c:133 script_debug(): command - ocd_target ocd_target init
Debug: 142 46 target.c:885 handle_target_init_command(): Initializing targets...
Debug: 143 46 command.c:350 register_command_handler(): registering 'ocd_target_request'...
Debug: 144 46 command.c:350 register_command_handler(): registering 'ocd_trace'...
Debug: 145 46 command.c:350 register_command_handler(): registering 'ocd_trace'...
Debug: 146 46 command.c:350 register_command_handler(): registering 'ocd_fast_load_image'...
Debug: 147 46 command.c:350 register_command_handler(): registering 'ocd_fast_load'...
Debug: 148 46 command.c:350 register_command_handler(): registering 'ocd_profile'...
Debug: 149 46 command.c:350 register_command_handler(): registering 'ocd_virt2phys'...
Debug: 150 46 command.c:350 register_command_handler(): registering 'ocd_reg'...
Debug: 151 46 command.c:350 register_command_handler(): registering 'ocd_poll'...
Debug: 152 46 command.c:350 register_command_handler(): registering 'ocd_wait_halt'...
Debug: 153 46 command.c:350 register_command_handler(): registering 'ocd_halt'...
Debug: 154 46 command.c:350 register_command_handler(): registering 'ocd_resume'...
Debug: 155 46 command.c:350 register_command_handler(): registering 'ocd_reset'...
Debug: 156 46 command.c:350 register_command_handler(): registering 'ocd_soft_reset_halt'...
Debug: 157 46 command.c:350 register_command_handler(): registering 'ocd_step'...
Debug: 158 46 command.c:350 register_command_handler(): registering 'ocd_mdw'...
Debug: 159 46 command.c:350 register_command_handler(): registering 'ocd_mdh'...
Debug: 160 46 command.c:350 register_command_handler(): registering 'ocd_mdb'...
Debug: 161 46 command.c:350 register_command_handler(): registering 'ocd_mww'...
Debug: 162 46 command.c:350 register_command_handler(): registering 'ocd_mwh'...
Debug: 163 46 command.c:350 register_command_handler(): registering 'ocd_mwb'...
Debug: 164 46 command.c:350 register_command_handler(): registering 'ocd_bp'...
Debug: 165 46 command.c:350 register_command_handler(): registering 'ocd_rbp'...
Debug: 166 46 command.c:350 register_command_handler(): registering 'ocd_wp'...
Debug: 167 46 command.c:350 register_command_handler(): registering 'ocd_rwp'...
Debug: 168 46 command.c:350 register_command_handler(): registering 'ocd_load_image'...
Debug: 169 46 command.c:350 register_command_handler(): registering 'ocd_dump_image'...
Debug: 170 46 command.c:350 register_command_handler(): registering 'ocd_verify_image'...
Debug: 171 46 command.c:350 register_command_handler(): registering 'ocd_test_image'...
Debug: 172 46 command.c:350 register_command_handler(): registering 'ocd_reset_nag'...
Debug: 173 78 vsllink.c:395 vsllink_init(): vsllink found on 0483:5740
Info : 174 78 vsllink.c:415 vsllink_init(): Versaloon(0x15)by Simon(compiled on May 25 2010)
Info : 175 78 vsllink.c:432 vsllink_init(): buffer size for USB is 12288 bytes
Info : 176 78 vsllink.c:465 vsllink_init(): Target runs at 117 mV
Info : 177 78 vsllink.c:474 vsllink_init(): VSLLink_20080905 by Simon(compiled on May 25 2010)
Debug: 178 78 vsllink.c:723 vsllink_reset(): trst: 0, srst: 0
Info : 179 93 vsllink.c:489 vsllink_init(): VSLLink Interface ready
Debug: 180 93 core.c:1547 adapter_khz_to_speed(): convert khz to interface specific speed value
Debug: 181 93 core.c:1551 adapter_khz_to_speed(): have interface set up
Info : 182 93 core.c:1372 adapter_init(): RCLK (adaptive clock speed)
Debug: 183 93 openocd.c:123 handle_init_command(): Debug Adapter init complete
Debug: 184 93 command.c:133 script_debug(): command - ocd_command ocd_command type ocd_jtag init
Debug: 185 93 command.c:133 script_debug(): command - ocd_jtag ocd_jtag init
Debug: 187 93 tcl.c:844 handle_jtag_init_command(): Initializing jtag devices...
Debug: 188 93 vsllink.c:723 vsllink_reset(): trst: 0, srst: 0
Debug: 189 93 core.c:705 jtag_add_reset(): SRST line released
Debug: 190 93 core.c:729 jtag_add_reset(): TRST line released
Debug: 191 93 core.c:321 jtag_call_event_callbacks(): jtag event: TAP reset
Debug: 193 515 command.c:133 script_debug(): command - ocd_command ocd_command type ocd_jtag arp_init
Debug: 194 515 command.c:133 script_debug(): command - ocd_jtag ocd_jtag arp_init
Debug: 195 515 openocd.c:133 handle_init_command(): Examining targets...
Debug: 196 515 arm_adi_v5.c:908 ahbap_debugport_init():  
Debug: 197 515 driver.c:553 interface_swd_add_sequence():  
Debug: 198 515 driver.c:612 interface_swd_add_transact_in():  0xA5
Debug: 199 531 arm_adi_v5.c:930 ahbap_debugport_init(): swd_id is 0x2BA01477
Debug: 200 531 driver.c:612 interface_swd_add_transact_in():  0x8D
Debug: 201 531 driver.c:582 interface_swd_add_transact_out():  0x81, 0x0000001D
Debug: 202 531 driver.c:612 interface_swd_add_transact_in():  0x8D
Debug: 203 531 driver.c:582 interface_swd_add_transact_out():  0xA9, 0x50000000
Debug: 204 531 driver.c:612 interface_swd_add_transact_in():  0x8D
Debug: 205 531 driver.c:612 interface_swd_add_transact_in():  0x8D
Debug: 206 531 driver.c:612 interface_swd_add_transact_in():  0x8D
Debug: 207 531 driver.c:612 interface_swd_add_transact_in():  0x8D
Debug: 208 531 driver.c:612 interface_swd_add_transact_in():  0x8D
Debug: 209 531 driver.c:582 interface_swd_add_transact_out():  0xA9, 0x50000001
Debug: 210 531 driver.c:612 interface_swd_add_transact_in():  0x8D
Debug: 211 531 driver.c:582 interface_swd_add_transact_out():  0xB1, 0x000000F0
Debug: 212 531 driver.c:612 interface_swd_add_transact_in():  0x9F
Debug: 213 531 driver.c:612 interface_swd_add_transact_in():  0xBD
Debug: 214 531 driver.c:612 interface_swd_add_transact_in():  0xB7
Debug: 215 531 driver.c:612 interface_swd_add_transact_in():  0xBD
Debug: 216 531 driver.c:612 interface_swd_add_transact_in():  0x8D
Debug: 217 531 arm_adi_v5.c:1014 ahbap_debugport_init(): MEM-AP #0 ID Register 0x24770011, Debug ROM Address 0xe00ff003
Debug: 218 531 driver.c:582 interface_swd_add_transact_out():  0xB1, 0x00000000
Debug: 219 531 driver.c:582 interface_swd_add_transact_out():  0xA3, 0xA2000012
Debug: 220 531 driver.c:582 interface_swd_add_transact_out():  0x8B, 0xE000ED00
Debug: 221 531 driver.c:612 interface_swd_add_transact_in():  0x9F
Debug: 222 531 driver.c:612 interface_swd_add_transact_in():  0xBD
Debug: 223 531 driver.c:612 interface_swd_add_transact_in():  0x8D
Debug: 224 546 target.c:1549 target_read_u32(): address: 0xe000ed00, value: 0x412fc230
Debug: 225 546 cortex_m3.c:1743 cortex_m3_examine(): Cortex-M3 r2p0 processor detected
Debug: 226 546 cortex_m3.c:1744 cortex_m3_examine(): cpuid: 0x412fc230
Debug: 227 546 driver.c:582 interface_swd_add_transact_out():  0x8B, 0xE0002000
Debug: 228 546 driver.c:612 interface_swd_add_transact_in():  0x9F
Debug: 229 546 driver.c:612 interface_swd_add_transact_in():  0xBD
Debug: 230 546 driver.c:612 interface_swd_add_transact_in():  0x8D
Debug: 231 546 target.c:1549 target_read_u32(): address: 0xe0002000, value: 0x00000260
Debug: 232 546 cortex_m3.c:1761 cortex_m3_examine(): FPB fpcr 0x260, numcode 6, numlit 2
Debug: 233 546 driver.c:582 interface_swd_add_transact_out():  0x8B, 0xE0001000
Debug: 234 546 driver.c:612 interface_swd_add_transact_in():  0x9F
Debug: 235 546 driver.c:612 interface_swd_add_transact_in():  0xBD
Debug: 236 546 driver.c:612 interface_swd_add_transact_in():  0x8D
Debug: 237 546 target.c:1549 target_read_u32(): address: 0xe0001000, value: 0x40000000
Debug: 238 546 cortex_m3.c:1713 cortex_m3_dwt_setup(): DWT dwtcr 0x40000000, comp 4, watch/trigger
Info : 239 546 cortex_m3.c:1770 cortex_m3_examine(): lpc1768.cpu: hardware has 6 breakpoints, 4 watchpoints
Debug: 240 546 command.c:133 script_debug(): command - ocd_command ocd_command type ocd_flash init
Debug: 241 546 command.c:133 script_debug(): command - ocd_flash ocd_flash init
Debug: 242 546 driver.c:582 interface_swd_add_transact_out():  0xA3, 0xA2000002
Debug: 243 546 driver.c:582 interface_swd_add_transact_out():  0x8B, 0xE000EDF0
Debug: 244 546 driver.c:582 interface_swd_add_transact_out():  0xB1, 0x00000010
Debug: 245 546 driver.c:612 interface_swd_add_transact_in():  0x87
Debug: 246 546 driver.c:612 interface_swd_add_transact_in():  0xBD
Debug: 247 546 driver.c:612 interface_swd_add_transact_in():  0x8D
Debug: 248 546 driver.c:612 interface_swd_add_transact_in():  0x87
Debug: 249 546 driver.c:612 interface_swd_add_transact_in():  0xBD
Debug: 250 546 driver.c:612 interface_swd_add_transact_in():  0x8D
Debug: 252 562 tcl.c:911 handle_flash_init_command(): Initializing flash devices...
Debug: 253 562 command.c:350 register_command_handler(): registering 'ocd_flash'...
Debug: 254 562 command.c:350 register_command_handler(): registering 'ocd_flash'...
Debug: 255 562 command.c:350 register_command_handler(): registering 'ocd_flash'...
Debug: 256 562 command.c:350 register_command_handler(): registering 'ocd_flash'...
Debug: 257 562 command.c:350 register_command_handler(): registering 'ocd_flash'...
Debug: 258 562 command.c:350 register_command_handler(): registering 'ocd_flash'...
Debug: 259 562 command.c:350 register_command_handler(): registering 'ocd_flash'...
Debug: 260 562 command.c:350 register_command_handler(): registering 'ocd_flash'...
Debug: 261 562 command.c:350 register_command_handler(): registering 'ocd_flash'...
Debug: 262 562 command.c:350 register_command_handler(): registering 'ocd_flash'...
Debug: 263 562 command.c:350 register_command_handler(): registering 'ocd_flash'...
Debug: 264 562 command.c:133 script_debug(): command - ocd_command ocd_command type ocd_mflash init
Debug: 265 562 command.c:133 script_debug(): command - ocd_mflash ocd_mflash init
Debug: 266 562 driver.c:612 interface_swd_add_transact_in():  0x87
Debug: 267 562 driver.c:612 interface_swd_add_transact_in():  0xBD
Debug: 268 562 driver.c:612 interface_swd_add_transact_in():  0x8D
Debug: 270 562 mflash.c:1325 handle_mflash_init_command(): Initializing mflash devices...
Debug: 271 562 command.c:133 script_debug(): command - ocd_command ocd_command type ocd_nand init
Debug: 272 562 command.c:133 script_debug(): command - ocd_nand ocd_nand init
Debug: 273 562 driver.c:612 interface_swd_add_transact_in():  0x87
Debug: 274 562 driver.c:612 interface_swd_add_transact_in():  0xBD
Debug: 275 562 driver.c:612 interface_swd_add_transact_in():  0x8D
Debug: 277 562 tcl.c:536 handle_nand_init_command(): Initializing NAND devices...
Debug: 278 562 command.c:133 script_debug(): command - ocd_command ocd_command type ocd_pld init
Debug: 279 562 command.c:133 script_debug(): command - ocd_pld ocd_pld init
Debug: 280 562 driver.c:612 interface_swd_add_transact_in():  0x87
Debug: 281 562 driver.c:612 interface_swd_add_transact_in():  0xBD
Debug: 282 562 driver.c:612 interface_swd_add_transact_in():  0x8D
Debug: 284 578 pld.c:232 handle_pld_init_command(): Initializing PLDs...
Debug: 285 578 gdb_server.c:2422 gdb_target_start(): gdb service for target 'lpc1768.cpu' on TCP port 3333
Debug: 286 578 command.c:133 script_debug(): command - ocd_command ocd_command type ocd_adapter_khz 680
Debug: 287 578 command.c:133 script_debug(): command - adapter_khz ocd_adapter_khz 680
Debug: 288 578 driver.c:612 interface_swd_add_transact_in():  0x87
Debug: 289 578 driver.c:612 interface_swd_add_transact_in():  0xBD
Debug: 290 578 driver.c:612 interface_swd_add_transact_in():  0x8D
Debug: 292 593 core.c:1584 jtag_config_khz(): handle jtag khz
Debug: 293 593 core.c:1547 adapter_khz_to_speed(): convert khz to interface specific speed value
Debug: 294 593 core.c:1551 adapter_khz_to_speed(): have interface set up
Debug: 295 593 core.c:1547 adapter_khz_to_speed(): convert khz to interface specific speed value
Debug: 296 593 core.c:1551 adapter_khz_to_speed(): have interface set up
User : 297 593 command.c:543 command_print(): 680 kHz
Debug: 298 593 command.c:133 script_debug(): command - ocd_command ocd_command type ocd_reset init
Debug: 299 593 command.c:133 script_debug(): command - reset ocd_reset init
Debug: 300 593 driver.c:612 interface_swd_add_transact_in():  0x87
Debug: 301 593 driver.c:612 interface_swd_add_transact_in():  0xBD
Debug: 302 593 driver.c:612 interface_swd_add_transact_in():  0x8D
Debug: 304 593 command.c:133 script_debug(): command - ocd_command ocd_command type ocd_target names
Debug: 305 593 command.c:133 script_debug(): command - ocd_target ocd_target names
Debug: 306 593 command.c:133 script_debug(): command - ocd_command ocd_command type ocd_lpc1768.cpu invoke-event reset-start
Debug: 307 593 command.c:133 script_debug(): command - ocd_lpc1768.cpu ocd_lpc1768.cpu invoke-event reset-start
Debug: 308 593 target.c:3591 target_handle_event(): target: (0) lpc1768.cpu (cortex_m3) event: 9 (reset-start) action:  jtag_rclk [ expr 4000 / 6]  
Debug: 309 593 command.c:133 script_debug(): command - ocd_command ocd_command type ocd_jtag_rclk 666
Debug: 310 593 command.c:133 script_debug(): command - jtag_rclk ocd_jtag_rclk 666
Debug: 312 593 core.c:1593 jtag_config_rclk(): handle jtag rclk
Debug: 313 593 core.c:1547 adapter_khz_to_speed(): convert khz to interface specific speed value
Debug: 314 593 core.c:1551 adapter_khz_to_speed(): have interface set up
Debug: 315 593 core.c:1547 adapter_khz_to_speed(): convert khz to interface specific speed value
Debug: 316 593 core.c:1551 adapter_khz_to_speed(): have interface set up
User : 317 593 command.c:543 command_print(): RCLK - adaptive
Debug: 318 593 command.c:133 script_debug(): command - ocd_command ocd_command type ocd_jtag arp_init-reset
Debug: 319 593 command.c:133 script_debug(): command - ocd_jtag ocd_jtag arp_init-reset
Debug: 320 593 core.c:1470 jtag_init_reset(): Initializing with hard TRST+SRST reset
Debug: 321 593 core.c:718 jtag_add_reset(): JTAG reset with TLR instead of TRST
Debug: 322 593 core.c:321 jtag_call_event_callbacks(): jtag event: TAP reset
Debug: 323 593 command.c:133 script_debug(): command - ocd_command ocd_command type ocd_lpc1768.cpu cget -chain-position
Debug: 324 593 command.c:133 script_debug(): command - ocd_lpc1768.cpu ocd_lpc1768.cpu cget -chain-position
Debug: 325 593 command.c:133 script_debug(): command - ocd_command ocd_command type ocd_jtag tapisenabled lpc1768.cpu
Debug: 326 593 command.c:133 script_debug(): command - ocd_jtag ocd_jtag tapisenabled lpc1768.cpu
Debug: 327 593 command.c:133 script_debug(): command - ocd_command ocd_command type ocd_lpc1768.cpu arp_examine
Debug: 328 593 command.c:133 script_debug(): command - ocd_lpc1768.cpu ocd_lpc1768.cpu arp_examine
Debug: 329 593 arm_adi_v5.c:908 ahbap_debugport_init():  
Debug: 330 593 driver.c:553 interface_swd_add_sequence():  
Debug: 331 593 driver.c:612 interface_swd_add_transact_in():  0xA5
Debug: 332 609 arm_adi_v5.c:930 ahbap_debugport_init(): swd_id is 0x2BA01477
Debug: 333 609 driver.c:612 interface_swd_add_transact_in():  0x8D
Debug: 334 609 driver.c:582 interface_swd_add_transact_out():  0x81, 0x0000001D
Debug: 335 609 driver.c:612 interface_swd_add_transact_in():  0x8D
Debug: 336 609 driver.c:582 interface_swd_add_transact_out():  0xA9, 0x50000000
Debug: 337 609 driver.c:612 interface_swd_add_transact_in():  0x8D
Debug: 338 609 driver.c:612 interface_swd_add_transact_in():  0x8D
Debug: 339 609 driver.c:612 interface_swd_add_transact_in():  0x8D
Debug: 340 609 driver.c:582 interface_swd_add_transact_out():  0xA9, 0x50000001
Debug: 341 609 driver.c:612 interface_swd_add_transact_in():  0x8D
Debug: 342 609 driver.c:582 interface_swd_add_transact_out():  0xB1, 0x000000F0
Debug: 343 609 driver.c:612 interface_swd_add_transact_in():  0x9F
Debug: 344 609 driver.c:612 interface_swd_add_transact_in():  0xBD
Debug: 345 609 driver.c:612 interface_swd_add_transact_in():  0xB7
Debug: 346 609 driver.c:612 interface_swd_add_transact_in():  0xBD
Debug: 347 609 driver.c:612 interface_swd_add_transact_in():  0x8D
Debug: 348 609 arm_adi_v5.c:1014 ahbap_debugport_init(): MEM-AP #0 ID Register 0x24770011, Debug ROM Address 0xe00ff003
Debug: 349 609 command.c:133 script_debug(): command - ocd_command ocd_command type ocd_lpc1768.cpu invoke-event reset-assert-pre
Debug: 350 609 command.c:133 script_debug(): command - ocd_lpc1768.cpu ocd_lpc1768.cpu invoke-event reset-assert-pre
Debug: 351 609 command.c:133 script_debug(): command - ocd_command ocd_command type ocd_lpc1768.cpu cget -chain-position
Debug: 352 609 command.c:133 script_debug(): command - ocd_lpc1768.cpu ocd_lpc1768.cpu cget -chain-position
Debug: 353 609 command.c:133 script_debug(): command - ocd_command ocd_command type ocd_jtag tapisenabled lpc1768.cpu
Debug: 354 609 command.c:133 script_debug(): command - ocd_jtag ocd_jtag tapisenabled lpc1768.cpu
Debug: 355 609 command.c:133 script_debug(): command - ocd_command ocd_command type ocd_lpc1768.cpu arp_reset assert 1
Debug: 356 609 command.c:133 script_debug(): command - ocd_lpc1768.cpu ocd_lpc1768.cpu arp_reset assert 1
Debug: 357 609 cortex_m3.c:833 cortex_m3_assert_reset(): target-&gt;state: running
Debug: 358 609 driver.c:582 interface_swd_add_transact_out():  0xB1, 0x00000000
Debug: 359 609 driver.c:582 interface_swd_add_transact_out():  0xA3, 0xA2000002
Debug: 360 609 driver.c:582 interface_swd_add_transact_out():  0x8B, 0xE000EDF0
Debug: 361 609 driver.c:582 interface_swd_add_transact_out():  0xB1, 0x00000010
Debug: 362 609 driver.c:612 interface_swd_add_transact_in():  0x87
Debug: 363 609 driver.c:612 interface_swd_add_transact_in():  0xBD
Debug: 364 609 driver.c:612 interface_swd_add_transact_in():  0x8D
Debug: 365 625 driver.c:582 interface_swd_add_transact_out():  0xA3, 0xA05F0001
Debug: 366 625 driver.c:582 interface_swd_add_transact_out():  0x93, 0x00000000
Debug: 367 625 driver.c:582 interface_swd_add_transact_out():  0xBB, 0x01000501
Debug: 368 625 driver.c:612 interface_swd_add_transact_in():  0x8D
Debug: 369 625 driver.c:582 interface_swd_add_transact_out():  0xB1, 0x00000000
Debug: 370 625 driver.c:582 interface_swd_add_transact_out():  0x8B, 0xE000ED00
Debug: 371 625 driver.c:582 interface_swd_add_transact_out():  0xB1, 0x00000010
Debug: 372 625 driver.c:582 interface_swd_add_transact_out():  0xBB, 0x05FA0004
Debug: 373 625 driver.c:612 interface_swd_add_transact_in():  0x8D
Debug: 374 625 cortex_m3.c:940 cortex_m3_assert_reset(): Using Cortex-M3 SYSRESETREQ
Debug: 375 625 driver.c:612 interface_swd_add_transact_in():  0x9F
Debug: 376 625 driver.c:612 interface_swd_add_transact_in():  0xBD
Debug: 377 625 driver.c:612 interface_swd_add_transact_in():  0x8D
Debug: 378 640 cortex_m3.c:548 cortex_m3_halt(): target-&gt;state: reset
Debug: 379 640 command.c:133 script_debug(): command - ocd_command ocd_command type ocd_lpc1768.cpu invoke-event reset-assert-post
Debug: 380 640 command.c:133 script_debug(): command - ocd_lpc1768.cpu ocd_lpc1768.cpu invoke-event reset-assert-post
Debug: 381 640 command.c:133 script_debug(): command - ocd_command ocd_command type ocd_lpc1768.cpu invoke-event reset-deassert-pre
Debug: 382 640 command.c:133 script_debug(): command - ocd_lpc1768.cpu ocd_lpc1768.cpu invoke-event reset-deassert-pre
Debug: 383 640 command.c:133 script_debug(): command - ocd_command ocd_command type ocd_lpc1768.cpu cget -chain-position
Debug: 384 640 command.c:133 script_debug(): command - ocd_lpc1768.cpu ocd_lpc1768.cpu cget -chain-position
Debug: 385 640 command.c:133 script_debug(): command - ocd_command ocd_command type ocd_jtag tapisenabled lpc1768.cpu
Debug: 386 640 command.c:133 script_debug(): command - ocd_jtag ocd_jtag tapisenabled lpc1768.cpu
Debug: 387 640 command.c:133 script_debug(): command - ocd_command ocd_command type ocd_lpc1768.cpu arp_reset deassert 1
Debug: 388 640 command.c:133 script_debug(): command - ocd_lpc1768.cpu ocd_lpc1768.cpu arp_reset deassert 1
Debug: 389 640 cortex_m3.c:970 cortex_m3_deassert_reset(): target-&gt;state: reset
Debug: 390 640 command.c:133 script_debug(): command - ocd_command ocd_command type ocd_lpc1768.cpu invoke-event reset-deassert-post
Debug: 391 640 command.c:133 script_debug(): command - ocd_lpc1768.cpu ocd_lpc1768.cpu invoke-event reset-deassert-post
Debug: 392 640 command.c:133 script_debug(): command - ocd_command ocd_command type ocd_lpc1768.cpu cget -chain-position
Debug: 393 640 command.c:133 script_debug(): command - ocd_lpc1768.cpu ocd_lpc1768.cpu cget -chain-position
Debug: 394 640 command.c:133 script_debug(): command - ocd_command ocd_command type ocd_jtag tapisenabled lpc1768.cpu
Debug: 395 640 command.c:133 script_debug(): command - ocd_jtag ocd_jtag tapisenabled lpc1768.cpu
Debug: 396 640 command.c:133 script_debug(): command - ocd_command ocd_command type ocd_lpc1768.cpu arp_waitstate halted 1000
Debug: 397 640 command.c:133 script_debug(): command - ocd_lpc1768.cpu ocd_lpc1768.cpu arp_waitstate halted 1000
Debug: 398 640 driver.c:582 interface_swd_add_transact_out():  0xB1, 0x00000000
Debug: 399 640 driver.c:582 interface_swd_add_transact_out():  0x8B, 0xE000EDF0
Debug: 400 640 driver.c:582 interface_swd_add_transact_out():  0xB1, 0x00000010
Debug: 401 640 driver.c:612 interface_swd_add_transact_in():  0x87
Debug: 402 640 driver.c:612 interface_swd_add_transact_in():  0xBD
Debug: 403 640 driver.c:612 interface_swd_add_transact_in():  0x8D
Debug: 404 703 driver.c:612 interface_swd_add_transact_in():  0x87
Debug: 405 703 driver.c:612 interface_swd_add_transact_in():  0xBD
Debug: 406 703 driver.c:612 interface_swd_add_transact_in():  0x8D
Debug: 407 703 cortex_m3.c:498 cortex_m3_poll(): Exit from reset with dcb_dhcsr 0x30003
Debug: 408 703 driver.c:612 interface_swd_add_transact_in():  0x9F
Debug: 409 703 driver.c:612 interface_swd_add_transact_in():  0xBD
Debug: 410 703 driver.c:612 interface_swd_add_transact_in():  0x8D
Debug: 411 703 cortex_m3.c:200 cortex_m3_endreset_event(): DCB_DEMCR = 0x01000501
Debug: 412 703 driver.c:582 interface_swd_add_transact_out():  0x93, 0x00000000
Debug: 413 703 driver.c:612 interface_swd_add_transact_in():  0x87
Debug: 414 703 driver.c:612 interface_swd_add_transact_in():  0xBD
Debug: 415 703 driver.c:612 interface_swd_add_transact_in():  0x8D
Debug: 416 718 driver.c:582 interface_swd_add_transact_out():  0xA3, 0xA05F0003
Debug: 417 718 driver.c:612 interface_swd_add_transact_in():  0x8D
Debug: 418 718 driver.c:582 interface_swd_add_transact_out():  0xBB, 0x01000000
Debug: 419 718 target.c:1626 target_write_u32(): address: 0xe0002000, value: 0x00000003
Debug: 420 718 driver.c:582 interface_swd_add_transact_out():  0xB1, 0x00000000
Debug: 421 718 driver.c:582 interface_swd_add_transact_out():  0xA3, 0xA2000012
Debug: 422 718 driver.c:582 interface_swd_add_transact_out():  0x8B, 0xE0002000
Debug: 423 718 driver.c:582 interface_swd_add_transact_out():  0xBB, 0x00000003
Debug: 424 718 driver.c:612 interface_swd_add_transact_in():  0x8D
Debug: 425 718 target.c:1626 target_write_u32(): address: 0xe0002008, value: 0x00000000
Debug: 426 718 driver.c:582 interface_swd_add_transact_out():  0x8B, 0xE0002008
Debug: 427 718 driver.c:582 interface_swd_add_transact_out():  0xBB, 0x00000000
Debug: 428 718 driver.c:612 interface_swd_add_transact_in():  0x8D
Debug: 429 718 target.c:1626 target_write_u32(): address: 0xe000200c, value: 0x00000000
Debug: 430 718 driver.c:582 interface_swd_add_transact_out():  0x8B, 0xE000200C
Debug: 431 718 driver.c:582 interface_swd_add_transact_out():  0xBB, 0x00000000
Debug: 432 718 driver.c:612 interface_swd_add_transact_in():  0x8D
Debug: 433 734 target.c:1626 target_write_u32(): address: 0xe0002010, value: 0x00000000
Debug: 434 734 driver.c:582 interface_swd_add_transact_out():  0x8B, 0xE0002010
Debug: 435 734 driver.c:582 interface_swd_add_transact_out():  0xBB, 0x00000000
Debug: 436 734 driver.c:612 interface_swd_add_transact_in():  0x8D
Debug: 437 734 target.c:1626 target_write_u32(): address: 0xe0002014, value: 0x00000000
Debug: 438 734 driver.c:582 interface_swd_add_transact_out():  0x8B, 0xE0002014
Debug: 439 734 driver.c:582 interface_swd_add_transact_out():  0xBB, 0x00000000
Debug: 440 734 driver.c:612 interface_swd_add_transact_in():  0x8D
Debug: 441 734 target.c:1626 target_write_u32(): address: 0xe0002018, value: 0x00000000
Debug: 442 734 driver.c:582 interface_swd_add_transact_out():  0x8B, 0xE0002018
Debug: 443 734 driver.c:582 interface_swd_add_transact_out():  0xBB, 0x00000000
Debug: 444 734 driver.c:612 interface_swd_add_transact_in():  0x8D
Debug: 445 734 target.c:1626 target_write_u32(): address: 0xe000201c, value: 0x00000000
Debug: 446 734 driver.c:582 interface_swd_add_transact_out():  0x8B, 0xE000201C
Debug: 447 734 driver.c:582 interface_swd_add_transact_out():  0xBB, 0x00000000
Debug: 448 734 driver.c:612 interface_swd_add_transact_in():  0x8D
Debug: 449 734 target.c:1626 target_write_u32(): address: 0xe0002020, value: 0x00000000
Debug: 450 734 driver.c:582 interface_swd_add_transact_out():  0x8B, 0xE0002020
Debug: 451 734 driver.c:582 interface_swd_add_transact_out():  0xBB, 0x00000000
Debug: 452 734 driver.c:612 interface_swd_add_transact_in():  0x8D
Debug: 453 750 target.c:1626 target_write_u32(): address: 0xe0002024, value: 0x00000000
Debug: 454 750 driver.c:582 interface_swd_add_transact_out():  0x8B, 0xE0002024
Debug: 455 750 driver.c:582 interface_swd_add_transact_out():  0xBB, 0x00000000
Debug: 456 750 driver.c:612 interface_swd_add_transact_in():  0x8D
Debug: 457 750 target.c:1626 target_write_u32(): address: 0xe0001020, value: 0x00000000
Debug: 458 750 driver.c:582 interface_swd_add_transact_out():  0x8B, 0xE0001020
Debug: 459 750 driver.c:582 interface_swd_add_transact_out():  0xBB, 0x00000000
Debug: 460 750 driver.c:612 interface_swd_add_transact_in():  0x8D
Debug: 461 750 target.c:1626 target_write_u32(): address: 0xe0001024, value: 0x00000000
Debug: 462 750 driver.c:582 interface_swd_add_transact_out():  0x8B, 0xE0001024
Debug: 463 750 driver.c:582 interface_swd_add_transact_out():  0xBB, 0x00000000
Debug: 464 750 driver.c:612 interface_swd_add_transact_in():  0x8D
Debug: 465 750 target.c:1626 target_write_u32(): address: 0xe0001028, value: 0x00000000
Debug: 466 750 driver.c:582 interface_swd_add_transact_out():  0x8B, 0xE0001028
Debug: 467 750 driver.c:582 interface_swd_add_transact_out():  0xBB, 0x00000000
Debug: 468 750 driver.c:612 interface_swd_add_transact_in():  0x8D
Debug: 469 765 target.c:1626 target_write_u32(): address: 0xe0001030, value: 0x00000000
Debug: 470 765 driver.c:582 interface_swd_add_transact_out():  0x8B, 0xE0001030
Debug: 471 765 driver.c:582 interface_swd_add_transact_out():  0xBB, 0x00000000
Debug: 472 765 driver.c:612 interface_swd_add_transact_in():  0x8D
Debug: 473 765 target.c:1626 target_write_u32(): address: 0xe0001034, value: 0x00000000
Debug: 474 765 driver.c:582 interface_swd_add_transact_out():  0x8B, 0xE0001034
Debug: 475 765 driver.c:582 interface_swd_add_transact_out():  0xBB, 0x00000000
Debug: 476 765 driver.c:612 interface_swd_add_transact_in():  0x8D
Debug: 477 765 target.c:1626 target_write_u32(): address: 0xe0001038, value: 0x00000000
Debug: 478 765 driver.c:582 interface_swd_add_transact_out():  0x8B, 0xE0001038
Debug: 479 765 driver.c:582 interface_swd_add_transact_out():  0xBB, 0x00000000
Debug: 480 765 driver.c:612 interface_swd_add_transact_in():  0x8D
Debug: 481 781 target.c:1626 target_write_u32(): address: 0xe0001040, value: 0x00000000
Debug: 482 781 driver.c:582 interface_swd_add_transact_out():  0x8B, 0xE0001040
Debug: 483 781 driver.c:582 interface_swd_add_transact_out():  0xBB, 0x00000000
Debug: 484 781 driver.c:612 interface_swd_add_transact_in():  0x8D
Debug: 485 781 target.c:1626 target_write_u32(): address: 0xe0001044, value: 0x00000000
Debug: 486 781 driver.c:582 interface_swd_add_transact_out():  0x8B, 0xE0001044
Debug: 487 781 driver.c:582 interface_swd_add_transact_out():  0xBB, 0x00000000
Debug: 488 781 driver.c:612 interface_swd_add_transact_in():  0x8D
Debug: 489 781 target.c:1626 target_write_u32(): address: 0xe0001048, value: 0x00000000
Debug: 490 781 driver.c:582 interface_swd_add_transact_out():  0x8B, 0xE0001048
Debug: 491 781 driver.c:582 interface_swd_add_transact_out():  0xBB, 0x00000000
Debug: 492 781 driver.c:612 interface_swd_add_transact_in():  0x8D
Debug: 493 781 target.c:1626 target_write_u32(): address: 0xe0001050, value: 0x00000000
Debug: 494 781 driver.c:582 interface_swd_add_transact_out():  0x8B, 0xE0001050
Debug: 495 781 driver.c:582 interface_swd_add_transact_out():  0xBB, 0x00000000
Debug: 496 781 driver.c:612 interface_swd_add_transact_in():  0x8D
Debug: 497 781 target.c:1626 target_write_u32(): address: 0xe0001054, value: 0x00000000
Debug: 498 781 driver.c:582 interface_swd_add_transact_out():  0x8B, 0xE0001054
Debug: 499 781 driver.c:582 interface_swd_add_transact_out():  0xBB, 0x00000000
Debug: 500 781 driver.c:612 interface_swd_add_transact_in():  0x8D
Debug: 501 796 target.c:1626 target_write_u32(): address: 0xe0001058, value: 0x00000000
Debug: 502 796 driver.c:582 interface_swd_add_transact_out():  0x8B, 0xE0001058
Debug: 503 796 driver.c:582 interface_swd_add_transact_out():  0xBB, 0x00000000
Debug: 504 796 driver.c:612 interface_swd_add_transact_in():  0x8D
Debug: 505 796 driver.c:612 interface_swd_add_transact_in():  0x8D
Debug: 506 796 driver.c:582 interface_swd_add_transact_out():  0xA3, 0xA2000002
Debug: 507 796 driver.c:582 interface_swd_add_transact_out():  0x8B, 0xE000EDF0
Debug: 508 796 driver.c:582 interface_swd_add_transact_out():  0xB1, 0x00000010
Debug: 509 796 driver.c:612 interface_swd_add_transact_in():  0x87
Debug: 510 796 driver.c:612 interface_swd_add_transact_in():  0xBD
Debug: 511 796 driver.c:612 interface_swd_add_transact_in():  0x8D
Debug: 512 812 cortex_m3.c:366 cortex_m3_debug_entry():  
Debug: 513 812 driver.c:582 interface_swd_add_transact_out():  0xA3, 0xA05F0003
Debug: 514 812 driver.c:612 interface_swd_add_transact_in():  0x8D
Debug: 515 812 driver.c:582 interface_swd_add_transact_out():  0xB1, 0x00000000
Debug: 516 812 driver.c:582 interface_swd_add_transact_out():  0x8B, 0xE000ED30
Debug: 517 812 driver.c:582 interface_swd_add_transact_out():  0xB1, 0x00000010
Debug: 518 812 driver.c:612 interface_swd_add_transact_in():  0x87
Debug: 519 812 driver.c:612 interface_swd_add_transact_in():  0xBD
Debug: 520 812 driver.c:612 interface_swd_add_transact_in():  0x8D
Debug: 521 812 driver.c:582 interface_swd_add_transact_out():  0xA3, 0x00000009
Debug: 522 812 driver.c:612 interface_swd_add_transact_in():  0x8D
Debug: 523 812 cortex_m3.c:155 cortex_m3_clear_halt():  NVIC_DFSR 0x9
Debug: 524 812 driver.c:582 interface_swd_add_transact_out():  0xB1, 0x00000000
Debug: 525 812 driver.c:582 interface_swd_add_transact_out():  0x8B, 0xE000EDF0
Debug: 526 812 driver.c:582 interface_swd_add_transact_out():  0xB1, 0x00000010
Debug: 527 812 driver.c:612 interface_swd_add_transact_in():  0x87
Debug: 528 812 driver.c:612 interface_swd_add_transact_in():  0xBD
Debug: 529 812 driver.c:612 interface_swd_add_transact_in():  0x8D
Debug: 530 812 driver.c:612 interface_swd_add_transact_in():  0xB7
Debug: 531 812 driver.c:612 interface_swd_add_transact_in():  0xBD
Debug: 532 812 driver.c:582 interface_swd_add_transact_out():  0x8B, 0x00000000
Debug: 533 812 driver.c:612 interface_swd_add_transact_in():  0xB7
Debug: 534 812 driver.c:612 interface_swd_add_transact_in():  0xBD
Debug: 535 812 driver.c:612 interface_swd_add_transact_in():  0x8D
Debug: 536 828 driver.c:582 interface_swd_add_transact_out():  0x93, 0x00000000
Debug: 537 828 driver.c:612 interface_swd_add_transact_in():  0x8D
Debug: 538 828 cortex_m3.c:1395 cortex_m3_load_core_reg_u32(): load from core reg 0  value 0xf0000000
Debug: 539 828 driver.c:612 interface_swd_add_transact_in():  0xB7
Debug: 540 828 driver.c:612 interface_swd_add_transact_in():  0xBD
Debug: 541 828 driver.c:582 interface_swd_add_transact_out():  0x8B, 0x00000001
Debug: 542 828 driver.c:612 interface_swd_add_transact_in():  0xB7
Debug: 543 828 driver.c:612 interface_swd_add_transact_in():  0xBD
Debug: 544 828 driver.c:612 interface_swd_add_transact_in():  0x8D
Debug: 545 828 driver.c:582 interface_swd_add_transact_out():  0x93, 0x00000000
Debug: 546 828 driver.c:612 interface_swd_add_transact_in():  0x8D
Debug: 547 828 cortex_m3.c:1395 cortex_m3_load_core_reg_u32(): load from core reg 1  value 0x10000124
Debug: 548 828 driver.c:612 interface_swd_add_transact_in():  0xB7
Debug: 549 828 driver.c:612 interface_swd_add_transact_in():  0xBD
Debug: 550 828 driver.c:582 interface_swd_add_transact_out():  0x8B, 0x00000002
Debug: 551 828 driver.c:612 interface_swd_add_transact_in():  0xB7
Debug: 552 828 driver.c:612 interface_swd_add_transact_in():  0xBD
Debug: 553 828 driver.c:612 interface_swd_add_transact_in():  0x8D
Debug: 554 843 driver.c:582 interface_swd_add_transact_out():  0x93, 0x00000000
Debug: 555 843 driver.c:612 interface_swd_add_transact_in():  0x8D
Debug: 556 843 cortex_m3.c:1395 cortex_m3_load_core_reg_u32(): load from core reg 2  value 0x105
Debug: 557 843 driver.c:612 interface_swd_add_transact_in():  0xB7
Debug: 558 843 driver.c:612 interface_swd_add_transact_in():  0xBD
Debug: 559 843 driver.c:582 interface_swd_add_transact_out():  0x8B, 0x00000003
Debug: 560 843 driver.c:612 interface_swd_add_transact_in():  0xB7
Debug: 561 843 driver.c:612 interface_swd_add_transact_in():  0xBD
Debug: 562 843 driver.c:612 interface_swd_add_transact_in():  0x8D
Debug: 563 843 driver.c:582 interface_swd_add_transact_out():  0x93, 0x00000000
Debug: 564 843 driver.c:612 interface_swd_add_transact_in():  0x8D
Debug: 565 843 cortex_m3.c:1395 cortex_m3_load_core_reg_u32(): load from core reg 3  value 0x40084000
Debug: 566 843 driver.c:612 interface_swd_add_transact_in():  0xB7
Debug: 567 843 driver.c:612 interface_swd_add_transact_in():  0xBD
Debug: 568 843 driver.c:582 interface_swd_add_transact_out():  0x8B, 0x00000004
Debug: 569 843 driver.c:612 interface_swd_add_transact_in():  0xB7
Debug: 570 843 driver.c:612 interface_swd_add_transact_in():  0xBD
Debug: 571 843 driver.c:612 interface_swd_add_transact_in():  0x8D
Debug: 572 859 driver.c:582 interface_swd_add_transact_out():  0x93, 0x00000000
Debug: 573 859 driver.c:612 interface_swd_add_transact_in():  0x8D
Debug: 574 859 cortex_m3.c:1395 cortex_m3_load_core_reg_u32(): load from core reg 4  value 0x2009c000
Debug: 575 859 driver.c:612 interface_swd_add_transact_in():  0xB7
Debug: 576 859 driver.c:612 interface_swd_add_transact_in():  0xBD
Debug: 577 859 driver.c:582 interface_swd_add_transact_out():  0x8B, 0x00000005
Debug: 578 859 driver.c:612 interface_swd_add_transact_in():  0xB7
Debug: 579 859 driver.c:612 interface_swd_add_transact_in():  0xBD
Debug: 580 859 driver.c:612 interface_swd_add_transact_in():  0x8D
Debug: 581 859 driver.c:582 interface_swd_add_transact_out():  0x93, 0x00000000
Debug: 582 859 driver.c:612 interface_swd_add_transact_in():  0x8D
Debug: 583 859 cortex_m3.c:1395 cortex_m3_load_core_reg_u32(): load from core reg 5  value 0x2
Debug: 584 859 driver.c:612 interface_swd_add_transact_in():  0xB7
Debug: 585 859 driver.c:612 interface_swd_add_transact_in():  0xBD
Debug: 586 859 driver.c:582 interface_swd_add_transact_out():  0x8B, 0x00000006
Debug: 587 859 driver.c:612 interface_swd_add_transact_in():  0xB7
Debug: 588 859 driver.c:612 interface_swd_add_transact_in():  0xBD
Debug: 589 859 driver.c:612 interface_swd_add_transact_in():  0x8D
Debug: 590 875 driver.c:582 interface_swd_add_transact_out():  0x93, 0x00000000
Debug: 591 875 driver.c:612 interface_swd_add_transact_in():  0x8D
Debug: 592 875 cortex_m3.c:1395 cortex_m3_load_core_reg_u32(): load from core reg 6  value 0x40008000
Debug: 593 875 driver.c:612 interface_swd_add_transact_in():  0xB7
Debug: 594 875 driver.c:612 interface_swd_add_transact_in():  0xBD
Debug: 595 875 driver.c:582 interface_swd_add_transact_out():  0x8B, 0x00000007
Debug: 596 875 driver.c:612 interface_swd_add_transact_in():  0xB7
Debug: 597 875 driver.c:612 interface_swd_add_transact_in():  0xBD
Debug: 598 875 driver.c:612 interface_swd_add_transact_in():  0x8D
Debug: 599 875 driver.c:582 interface_swd_add_transact_out():  0x93, 0x00000000
Debug: 600 875 driver.c:612 interface_swd_add_transact_in():  0x8D
Debug: 601 875 cortex_m3.c:1395 cortex_m3_load_core_reg_u32(): load from core reg 7  value 0x0
Debug: 602 875 driver.c:612 interface_swd_add_transact_in():  0xB7
Debug: 603 875 driver.c:612 interface_swd_add_transact_in():  0xBD
Debug: 604 875 driver.c:582 interface_swd_add_transact_out():  0x8B, 0x00000008
Debug: 605 875 driver.c:612 interface_swd_add_transact_in():  0xB7
Debug: 606 875 driver.c:612 interface_swd_add_transact_in():  0xBD
Debug: 607 875 driver.c:612 interface_swd_add_transact_in():  0x8D
Debug: 608 890 driver.c:582 interface_swd_add_transact_out():  0x93, 0x00000000
Debug: 609 890 driver.c:612 interface_swd_add_transact_in():  0x8D
Debug: 610 890 cortex_m3.c:1395 cortex_m3_load_core_reg_u32(): load from core reg 8  value 0x4002c000
Debug: 611 890 driver.c:612 interface_swd_add_transact_in():  0xB7
Debug: 612 890 driver.c:612 interface_swd_add_transact_in():  0xBD
Debug: 613 890 driver.c:582 interface_swd_add_transact_out():  0x8B, 0x00000009
Debug: 614 890 driver.c:612 interface_swd_add_transact_in():  0xB7
Debug: 615 890 driver.c:612 interface_swd_add_transact_in():  0xBD
Debug: 616 890 driver.c:612 interface_swd_add_transact_in():  0x8D
Debug: 617 890 driver.c:582 interface_swd_add_transact_out():  0x93, 0x00000000
Debug: 618 890 driver.c:612 interface_swd_add_transact_in():  0x8D
Debug: 619 890 cortex_m3.c:1395 cortex_m3_load_core_reg_u32(): load from core reg 9  value 0x37037368
Debug: 620 890 driver.c:612 interface_swd_add_transact_in():  0xB7
Debug: 621 890 driver.c:612 interface_swd_add_transact_in():  0xBD
Debug: 622 890 driver.c:582 interface_swd_add_transact_out():  0x8B, 0x0000000A
Debug: 623 890 driver.c:612 interface_swd_add_transact_in():  0xB7
Debug: 624 890 driver.c:612 interface_swd_add_transact_in():  0xBD
Debug: 625 890 driver.c:612 interface_swd_add_transact_in():  0x8D
Debug: 626 906 driver.c:582 interface_swd_add_transact_out():  0x93, 0x00000000
Debug: 627 906 driver.c:612 interface_swd_add_transact_in():  0x8D
Debug: 628 906 cortex_m3.c:1395 cortex_m3_load_core_reg_u32(): load from core reg 10  value 0x3fffa7ca
Debug: 629 906 driver.c:612 interface_swd_add_transact_in():  0xB7
Debug: 630 906 driver.c:612 interface_swd_add_transact_in():  0xBD
Debug: 631 906 driver.c:582 interface_swd_add_transact_out():  0x8B, 0x0000000B
Debug: 632 906 driver.c:612 interface_swd_add_transact_in():  0xB7
Debug: 633 906 driver.c:612 interface_swd_add_transact_in():  0xBD
Debug: 634 906 driver.c:612 interface_swd_add_transact_in():  0x8D
Debug: 635 906 driver.c:582 interface_swd_add_transact_out():  0x93, 0x00000000
Debug: 636 906 driver.c:612 interface_swd_add_transact_in():  0x8D
Debug: 637 906 cortex_m3.c:1395 cortex_m3_load_core_reg_u32(): load from core reg 11  value 0xf59f28df
Debug: 638 906 driver.c:612 interface_swd_add_transact_in():  0xB7
Debug: 639 906 driver.c:612 interface_swd_add_transact_in():  0xBD
Debug: 640 906 driver.c:582 interface_swd_add_transact_out():  0x8B, 0x0000000C
Debug: 641 906 driver.c:612 interface_swd_add_transact_in():  0xB7
Debug: 642 906 driver.c:612 interface_swd_add_transact_in():  0xBD
Debug: 643 906 driver.c:612 interface_swd_add_transact_in():  0x8D
Debug: 644 921 driver.c:582 interface_swd_add_transact_out():  0x93, 0x00000000
Debug: 645 921 driver.c:612 interface_swd_add_transact_in():  0x8D
Debug: 646 921 cortex_m3.c:1395 cortex_m3_load_core_reg_u32(): load from core reg 12  value 0x3f1bd5a4
Debug: 647 921 driver.c:612 interface_swd_add_transact_in():  0xB7
Debug: 648 921 driver.c:612 interface_swd_add_transact_in():  0xBD
Debug: 649 921 driver.c:582 interface_swd_add_transact_out():  0x8B, 0x0000000D
Debug: 650 921 driver.c:612 interface_swd_add_transact_in():  0xB7
Debug: 651 921 driver.c:612 interface_swd_add_transact_in():  0xBD
Debug: 652 921 driver.c:612 interface_swd_add_transact_in():  0x8D
Debug: 653 937 driver.c:582 interface_swd_add_transact_out():  0x93, 0x00000000
Debug: 654 937 driver.c:612 interface_swd_add_transact_in():  0x8D
Debug: 655 937 cortex_m3.c:1395 cortex_m3_load_core_reg_u32(): load from core reg 13  value 0x10001ffc
Debug: 656 937 driver.c:612 interface_swd_add_transact_in():  0xB7
Debug: 657 937 driver.c:612 interface_swd_add_transact_in():  0xBD
Debug: 658 937 driver.c:582 interface_swd_add_transact_out():  0x8B, 0x0000000E
Debug: 659 937 driver.c:612 interface_swd_add_transact_in():  0xB7
Debug: 660 937 driver.c:612 interface_swd_add_transact_in():  0xBD
Debug: 661 937 driver.c:612 interface_swd_add_transact_in():  0x8D
Debug: 662 937 driver.c:582 interface_swd_add_transact_out():  0x93, 0x00000000
Debug: 663 937 driver.c:612 interface_swd_add_transact_in():  0x8D
Debug: 664 937 cortex_m3.c:1395 cortex_m3_load_core_reg_u32(): load from core reg 14  value 0xffffffff
Debug: 665 937 driver.c:612 interface_swd_add_transact_in():  0xB7
Debug: 666 937 driver.c:612 interface_swd_add_transact_in():  0xBD
Debug: 667 937 driver.c:582 interface_swd_add_transact_out():  0x8B, 0x0000000F
Debug: 668 937 driver.c:612 interface_swd_add_transact_in():  0xB7
Debug: 669 937 driver.c:612 interface_swd_add_transact_in():  0xBD
Debug: 670 937 driver.c:612 interface_swd_add_transact_in():  0x8D
Debug: 671 937 driver.c:582 interface_swd_add_transact_out():  0x93, 0x00000000
Debug: 672 937 driver.c:612 interface_swd_add_transact_in():  0x8D
Debug: 673 953 cortex_m3.c:1395 cortex_m3_load_core_reg_u32(): load from core reg 15  value 0x1fff0080
Debug: 674 953 driver.c:612 interface_swd_add_transact_in():  0xB7
Debug: 675 953 driver.c:612 interface_swd_add_transact_in():  0xBD
Debug: 676 953 driver.c:582 interface_swd_add_transact_out():  0x8B, 0x00000010
Debug: 677 953 driver.c:612 interface_swd_add_transact_in():  0xB7
Debug: 678 953 driver.c:612 interface_swd_add_transact_in():  0xBD
Debug: 679 953 driver.c:612 interface_swd_add_transact_in():  0x8D
Debug: 680 953 driver.c:582 interface_swd_add_transact_out():  0x93, 0x00000000
Debug: 681 953 driver.c:612 interface_swd_add_transact_in():  0x8D
Debug: 682 953 cortex_m3.c:1395 cortex_m3_load_core_reg_u32(): load from core reg 16  value 0x1000000
Debug: 683 953 driver.c:612 interface_swd_add_transact_in():  0xB7
Debug: 684 953 driver.c:612 interface_swd_add_transact_in():  0xBD
Debug: 685 953 driver.c:582 interface_swd_add_transact_out():  0x8B, 0x00000011
Debug: 686 953 driver.c:612 interface_swd_add_transact_in():  0xB7
Debug: 687 953 driver.c:612 interface_swd_add_transact_in():  0xBD
Debug: 688 953 driver.c:612 interface_swd_add_transact_in():  0x8D
Debug: 689 953 driver.c:582 interface_swd_add_transact_out():  0x93, 0x00000000
Debug: 690 953 driver.c:612 interface_swd_add_transact_in():  0x8D
Debug: 691 968 cortex_m3.c:1395 cortex_m3_load_core_reg_u32(): load from core reg 17  value 0x10001ffc
Debug: 692 968 driver.c:612 interface_swd_add_transact_in():  0xB7
Debug: 693 968 driver.c:612 interface_swd_add_transact_in():  0xBD
Debug: 694 968 driver.c:582 interface_swd_add_transact_out():  0x8B, 0x00000012
Debug: 695 968 driver.c:612 interface_swd_add_transact_in():  0xB7
Debug: 696 968 driver.c:612 interface_swd_add_transact_in():  0xBD
Debug: 697 968 driver.c:612 interface_swd_add_transact_in():  0x8D
Debug: 698 968 driver.c:582 interface_swd_add_transact_out():  0x93, 0x00000000
Debug: 699 968 driver.c:612 interface_swd_add_transact_in():  0x8D
Debug: 700 968 cortex_m3.c:1395 cortex_m3_load_core_reg_u32(): load from core reg 18  value 0x1896ec24
Debug: 701 968 driver.c:612 interface_swd_add_transact_in():  0xB7
Debug: 702 968 driver.c:612 interface_swd_add_transact_in():  0xBD
Debug: 703 968 driver.c:582 interface_swd_add_transact_out():  0x8B, 0x00000014
Debug: 704 968 driver.c:612 interface_swd_add_transact_in():  0xB7
Debug: 705 968 driver.c:612 interface_swd_add_transact_in():  0xBD
Debug: 706 968 driver.c:612 interface_swd_add_transact_in():  0x8D
Debug: 707 968 driver.c:582 interface_swd_add_transact_out():  0x93, 0x00000000
Debug: 708 968 driver.c:612 interface_swd_add_transact_in():  0x8D
Debug: 709 984 cortex_m3.c:1427 cortex_m3_load_core_reg_u32(): load from special reg 19 value 0x0
Debug: 710 984 driver.c:612 interface_swd_add_transact_in():  0xB7
Debug: 711 984 driver.c:612 interface_swd_add_transact_in():  0xBD
Debug: 712 984 driver.c:582 interface_swd_add_transact_out():  0x8B, 0x00000014
Debug: 713 984 driver.c:612 interface_swd_add_transact_in():  0xB7
Debug: 714 984 driver.c:612 interface_swd_add_transact_in():  0xBD
Debug: 715 984 driver.c:612 interface_swd_add_transact_in():  0x8D
Debug: 716 984 driver.c:582 interface_swd_add_transact_out():  0x93, 0x00000000
Debug: 717 984 driver.c:612 interface_swd_add_transact_in():  0x8D
Debug: 718 984 cortex_m3.c:1427 cortex_m3_load_core_reg_u32(): load from special reg 20 value 0x0
Debug: 719 984 driver.c:612 interface_swd_add_transact_in():  0xB7
Debug: 720 984 driver.c:612 interface_swd_add_transact_in():  0xBD
Debug: 721 984 driver.c:582 interface_swd_add_transact_out():  0x8B, 0x00000014
Debug: 722 984 driver.c:612 interface_swd_add_transact_in():  0xB7
Debug: 723 984 driver.c:612 interface_swd_add_transact_in():  0xBD
Debug: 724 984 driver.c:612 interface_swd_add_transact_in():  0x8D
Debug: 725 984 driver.c:582 interface_swd_add_transact_out():  0x93, 0x00000000
Debug: 726 984 driver.c:612 interface_swd_add_transact_in():  0x8D
Debug: 727 1000 cortex_m3.c:1427 cortex_m3_load_core_reg_u32(): load from special reg 21 value 0x0
Debug: 728 1000 driver.c:612 interface_swd_add_transact_in():  0xB7
Debug: 729 1000 driver.c:612 interface_swd_add_transact_in():  0xBD
Debug: 730 1000 driver.c:582 interface_swd_add_transact_out():  0x8B, 0x00000014
Debug: 731 1000 driver.c:612 interface_swd_add_transact_in():  0xB7
Debug: 732 1000 driver.c:612 interface_swd_add_transact_in():  0xBD
Debug: 733 1000 driver.c:612 interface_swd_add_transact_in():  0x8D
Debug: 734 1000 driver.c:582 interface_swd_add_transact_out():  0x93, 0x00000000
Debug: 735 1000 driver.c:612 interface_swd_add_transact_in():  0x8D
Debug: 736 1000 cortex_m3.c:1427 cortex_m3_load_core_reg_u32(): load from special reg 22 value 0x0
Debug: 737 1000 cortex_m3.c:442 cortex_m3_debug_entry(): entered debug state in core mode: Thread at PC 0x1fff0080, target-&gt;state: halted
Debug: 738 1000 target.c:1018 target_call_event_callbacks(): target event 2 (gdb-halt)
Debug: 739 1000 target.c:1018 target_call_event_callbacks(): target event 3 (halted)
User : 740 1000 target.c:1295 target_arch_state(): target state: halted
User : 741 1000 armv7m.c:477 armv7m_arch_state(): target halted due to debug-request, current mode: Thread 
xPSR: 0x01000000 pc: 0x1fff0080 msp: 0x10001ffc
Debug: 742 1000 command.c:133 script_debug(): command - ocd_command ocd_command type ocd_lpc1768.cpu curstate
Debug: 743 1000 command.c:133 script_debug(): command - ocd_lpc1768.cpu ocd_lpc1768.cpu curstate
Debug: 744 1000 command.c:133 script_debug(): command - ocd_command ocd_command type ocd_lpc1768.cpu cget -chain-position
Debug: 745 1000 command.c:133 script_debug(): command - ocd_lpc1768.cpu ocd_lpc1768.cpu cget -chain-position
Debug: 746 1000 command.c:133 script_debug(): command - ocd_command ocd_command type ocd_jtag tapisenabled lpc1768.cpu
Debug: 747 1000 command.c:133 script_debug(): command - ocd_jtag ocd_jtag tapisenabled lpc1768.cpu
Debug: 748 1000 command.c:133 script_debug(): command - ocd_command ocd_command type ocd_lpc1768.cpu arp_waitstate halted 5000
Debug: 749 1000 command.c:133 script_debug(): command - ocd_lpc1768.cpu ocd_lpc1768.cpu arp_waitstate halted 5000
Debug: 750 1000 driver.c:612 interface_swd_add_transact_in():  0x87
Debug: 751 1000 driver.c:612 interface_swd_add_transact_in():  0xBD
Debug: 752 1000 driver.c:612 interface_swd_add_transact_in():  0x8D
Debug: 753 1000 command.c:133 script_debug(): command - ocd_command ocd_command type ocd_lpc1768.cpu invoke-event reset-init
Debug: 754 1000 command.c:133 script_debug(): command - ocd_lpc1768.cpu ocd_lpc1768.cpu invoke-event reset-init
Debug: 755 1000 command.c:133 script_debug(): command - ocd_command ocd_command type ocd_lpc1768.cpu invoke-event reset-end
Debug: 756 1000 command.c:133 script_debug(): command - ocd_lpc1768.cpu ocd_lpc1768.cpu invoke-event reset-end
Debug: 757 1015 driver.c:612 interface_swd_add_transact_in():  0x87
Debug: 758 1015 driver.c:612 interface_swd_add_transact_in():  0xBD
Debug: 759 1015 driver.c:612 interface_swd_add_transact_in():  0x8D
Debug: 760 1015 command.c:133 script_debug(): command - ocd_command ocd_command type ocd_verify_ircapture disable
Debug: 761 1015 command.c:133 script_debug(): command - verify_ircapture ocd_verify_ircapture disable
Debug: 762 1015 driver.c:612 interface_swd_add_transact_in():  0x87
Debug: 763 1015 driver.c:612 interface_swd_add_transact_in():  0xBD
Debug: 764 1015 driver.c:612 interface_swd_add_transact_in():  0x8D
User : 766 1015 command.c:543 command_print(): verify Capture-IR is disabled
Debug: 767 1015 command.c:133 script_debug(): command - ocd_command ocd_command type ocd_halt
Debug: 768 1015 command.c:133 script_debug(): command - halt ocd_halt
Debug: 769 1015 driver.c:612 interface_swd_add_transact_in():  0x87
Debug: 770 1015 driver.c:612 interface_swd_add_transact_in():  0xBD
Debug: 771 1015 driver.c:612 interface_swd_add_transact_in():  0x8D
Debug: 773 1015 target.c:2129 handle_halt_command(): -
Debug: 774 1015 cortex_m3.c:548 cortex_m3_halt(): target-&gt;state: halted
Debug: 775 1015 cortex_m3.c:552 cortex_m3_halt(): target was already halted
Debug: 776 1015 driver.c:612 interface_swd_add_transact_in():  0x87
Debug: 777 1015 driver.c:612 interface_swd_add_transact_in():  0xBD
Debug: 778 1015 driver.c:612 interface_swd_add_transact_in():  0x8D
Debug: 779 1031 command.c:133 script_debug(): command - ocd_command ocd_command type ocd_poll
Debug: 780 1031 command.c:133 script_debug(): command - poll ocd_poll
Debug: 782 1031 driver.c:612 interface_swd_add_transact_in():  0x87
Debug: 783 1031 driver.c:612 interface_swd_add_transact_in():  0xBD
Debug: 784 1031 driver.c:612 interface_swd_add_transact_in():  0x8D
User : 786 1031 command.c:543 command_print(): background polling: on
User : 787 1031 command.c:543 command_print(): TAP: lpc1768.cpu (enabled)
Debug: 788 1031 driver.c:612 interface_swd_add_transact_in():  0x87
Debug: 789 1031 driver.c:612 interface_swd_add_transact_in():  0xBD
Debug: 790 1031 driver.c:612 interface_swd_add_transact_in():  0x8D
User : 791 1031 target.c:1295 target_arch_state(): target state: halted
User : 792 1031 armv7m.c:477 armv7m_arch_state(): target halted due to debug-request, current mode: Thread 
xPSR: 0x01000000 pc: 0x1fff0080 msp: 0x10001ffc
Debug: 793 1031 command.c:133 script_debug(): command - ocd_command ocd_command type ocd_flash erase_sector 0 0 21
Debug: 794 1031 command.c:133 script_debug(): command - ocd_flash ocd_flash erase_sector 0 0 21
Debug: 795 1031 driver.c:612 interface_swd_add_transact_in():  0x87
Debug: 796 1031 driver.c:612 interface_swd_add_transact_in():  0xBD
Debug: 797 1031 driver.c:612 interface_swd_add_transact_in():  0x8D
Debug: 799 1031 target.c:1122 target_alloc_working_area_try(): MMU disabled, using physical address for working memory 0x10000000
Debug: 800 1031 target.c:1182 target_alloc_working_area_try(): allocated new working area at address 0x10000000
Debug: 801 1031 driver.c:582 interface_swd_add_transact_out():  0xB1, 0x00000000
Debug: 802 1031 driver.c:582 interface_swd_add_transact_out():  0xA3, 0xA2000012
Debug: 803 1031 driver.c:582 interface_swd_add_transact_out():  0x8B, 0x10000000
Debug: 804 1031 driver.c:582 interface_swd_add_transact_out():  0xBB, 0x47604760
Debug: 805 1031 driver.c:582 interface_swd_add_transact_out():  0xBB, 0xBE00BE00
Debug: 806 1031 driver.c:612 interface_swd_add_transact_in():  0x8D
Debug: 807 1046 target.c:1312 target_write_buffer(): writing buffer of 24 byte at 0x10000008
Debug: 808 1046 driver.c:582 interface_swd_add_transact_out():  0x8B, 0x10000008
Debug: 809 1046 driver.c:582 interface_swd_add_transact_out():  0xBB, 0x00000032
Debug: 810 1046 driver.c:582 interface_swd_add_transact_out():  0xBB, 0x00000000
Debug: 811 1046 driver.c:582 interface_swd_add_transact_out():  0xBB, 0x00000015
Debug: 812 1046 driver.c:582 interface_swd_add_transact_out():  0xBB, 0x00000FA0
Debug: 813 1046 driver.c:582 interface_swd_add_transact_out():  0xBB, 0x0022F098
Debug: 814 1046 driver.c:582 interface_swd_add_transact_out():  0xBB, 0x8A53C484
Debug: 815 1046 driver.c:612 interface_swd_add_transact_in():  0x8D
Debug: 816 1046 target.c:1312 target_write_buffer(): writing buffer of 20 byte at 0x10000020
Debug: 817 1046 driver.c:582 interface_swd_add_transact_out():  0x8B, 0x10000020
Debug: 818 1046 driver.c:582 interface_swd_add_transact_out():  0xBB, 0x00DF0990
Debug: 819 1046 driver.c:582 interface_swd_add_transact_out():  0xBB, 0x00DEE528
Debug: 820 1046 driver.c:582 interface_swd_add_transact_out():  0xBB, 0x0000016D
Debug: 821 1046 driver.c:582 interface_swd_add_transact_out():  0xBB, 0x00000005
Debug: 822 1046 driver.c:582 interface_swd_add_transact_out():  0xBB, 0x00DEE558
Debug: 823 1046 driver.c:612 interface_swd_add_transact_in():  0x8D
Debug: 824 1046 armv7m.c:129 armv7m_restore_context():  
Debug: 825 1046 driver.c:582 interface_swd_add_transact_out():  0xA3, 0xA2000002
Debug: 826 1046 driver.c:582 interface_swd_add_transact_out():  0x8B, 0xE000EDF0
Debug: 827 1046 driver.c:582 interface_swd_add_transact_out():  0xB1, 0x00000010
Debug: 828 1046 driver.c:612 interface_swd_add_transact_in():  0xB7
Debug: 829 1046 driver.c:612 interface_swd_add_transact_in():  0xBD
Debug: 830 1046 driver.c:582 interface_swd_add_transact_out():  0x8B, 0x00000014
Debug: 831 1046 driver.c:612 interface_swd_add_transact_in():  0xB7
Debug: 832 1046 driver.c:612 interface_swd_add_transact_in():  0xBD
Debug: 833 1046 driver.c:612 interface_swd_add_transact_in():  0x8D
Debug: 834 1062 driver.c:582 interface_swd_add_transact_out():  0x93, 0x00000000
Debug: 835 1062 driver.c:612 interface_swd_add_transact_in():  0x8D
Debug: 836 1062 driver.c:612 interface_swd_add_transact_in():  0xB7
Debug: 837 1062 driver.c:612 interface_swd_add_transact_in():  0xBD
Debug: 838 1062 driver.c:582 interface_swd_add_transact_out():  0x93, 0x00000001
Debug: 839 1062 driver.c:582 interface_swd_add_transact_out():  0x8B, 0x00010014
Debug: 840 1062 driver.c:612 interface_swd_add_transact_in():  0x8D
Debug: 841 1062 driver.c:582 interface_swd_add_transact_out():  0x93, 0x00000000
Debug: 842 1062 driver.c:612 interface_swd_add_transact_in():  0x8D
Debug: 843 1062 cortex_m3.c:1507 cortex_m3_store_core_reg_u32(): write special reg 19 value 0x1 
Debug: 844 1062 armv7m.c:239 armv7m_write_core_reg(): write core reg 19 value 0x1
Debug: 845 1062 driver.c:612 interface_swd_add_transact_in():  0xB7
Debug: 846 1062 driver.c:612 interface_swd_add_transact_in():  0xBD
Debug: 847 1062 driver.c:582 interface_swd_add_transact_out():  0x93, 0x01000000
Debug: 848 1062 driver.c:582 interface_swd_add_transact_out():  0x8B, 0x00010010
Debug: 849 1062 driver.c:612 interface_swd_add_transact_in():  0x8D
Debug: 850 1062 driver.c:582 interface_swd_add_transact_out():  0x93, 0x00000000
Debug: 851 1062 driver.c:612 interface_swd_add_transact_in():  0x8D
Debug: 852 1078 cortex_m3.c:1473 cortex_m3_store_core_reg_u32(): write core reg 16 value 0x1000000
Debug: 853 1078 armv7m.c:239 armv7m_write_core_reg(): write core reg 16 value 0x1000000
Debug: 854 1078 driver.c:612 interface_swd_add_transact_in():  0xB7
Debug: 855 1078 driver.c:612 interface_swd_add_transact_in():  0xBD
Debug: 856 1078 driver.c:582 interface_swd_add_transact_out():  0x93, 0x10000000
Debug: 857 1078 driver.c:582 interface_swd_add_transact_out():  0x8B, 0x0001000F
Debug: 858 1078 driver.c:612 interface_swd_add_transact_in():  0x8D
Debug: 859 1078 driver.c:582 interface_swd_add_transact_out():  0x93, 0x00000000
Debug: 860 1078 driver.c:612 interface_swd_add_transact_in():  0x8D
Debug: 861 1078 cortex_m3.c:1473 cortex_m3_store_core_reg_u32(): write core reg 15 value 0x10000000
Debug: 862 1078 armv7m.c:239 armv7m_write_core_reg(): write core reg 15 value 0x10000000
Debug: 863 1078 driver.c:612 interface_swd_add_transact_in():  0xB7
Debug: 864 1078 driver.c:612 interface_swd_add_transact_in():  0xBD
Debug: 865 1078 driver.c:582 interface_swd_add_transact_out():  0x93, 0x10000005
Debug: 866 1078 driver.c:582 interface_swd_add_transact_out():  0x8B, 0x0001000E
Debug: 867 1078 driver.c:612 interface_swd_add_transact_in():  0x8D
Debug: 868 1078 driver.c:582 interface_swd_add_transact_out():  0x93, 0x00000000
Debug: 869 1078 driver.c:612 interface_swd_add_transact_in():  0x8D
Debug: 870 1093 cortex_m3.c:1473 cortex_m3_store_core_reg_u32(): write core reg 14 value 0x10000005
Debug: 871 1093 armv7m.c:239 armv7m_write_core_reg(): write core reg 14 value 0x10000005
Debug: 872 1093 driver.c:612 interface_swd_add_transact_in():  0xB7
Debug: 873 1093 driver.c:612 interface_swd_add_transact_in():  0xBD
Debug: 874 1093 driver.c:582 interface_swd_add_transact_out():  0x93, 0x100000B4
Debug: 875 1093 driver.c:582 interface_swd_add_transact_out():  0x8B, 0x0001000D
Debug: 876 1093 driver.c:612 interface_swd_add_transact_in():  0x8D
Debug: 877 1093 driver.c:582 interface_swd_add_transact_out():  0x93, 0x00000000
Debug: 878 1093 driver.c:612 interface_swd_add_transact_in():  0x8D
Debug: 879 1093 cortex_m3.c:1473 cortex_m3_store_core_reg_u32(): write core reg 13 value 0x100000b4
Debug: 880 1093 armv7m.c:239 armv7m_write_core_reg(): write core reg 13 value 0x100000b4
Debug: 881 1093 driver.c:612 interface_swd_add_transact_in():  0xB7
Debug: 882 1093 driver.c:612 interface_swd_add_transact_in():  0xBD
Debug: 883 1093 driver.c:582 interface_swd_add_transact_out():  0x93, 0x1FFF1FF1
Debug: 884 1093 driver.c:582 interface_swd_add_transact_out():  0x8B, 0x0001000C
Debug: 885 1093 driver.c:612 interface_swd_add_transact_in():  0x8D
Debug: 886 1093 driver.c:582 interface_swd_add_transact_out():  0x93, 0x00000000
Debug: 887 1109 driver.c:612 interface_swd_add_transact_in():  0x8D
Debug: 888 1109 cortex_m3.c:1473 cortex_m3_store_core_reg_u32(): write core reg 12 value 0x1fff1ff1
Debug: 889 1109 armv7m.c:239 armv7m_write_core_reg(): write core reg 12 value 0x1fff1ff1
Debug: 890 1109 driver.c:612 interface_swd_add_transact_in():  0xB7
Debug: 891 1109 driver.c:612 interface_swd_add_transact_in():  0xBD
Debug: 892 1109 driver.c:582 interface_swd_add_transact_out():  0x93, 0x10000020
Debug: 893 1109 driver.c:582 interface_swd_add_transact_out():  0x8B, 0x00010001
Debug: 894 1109 driver.c:612 interface_swd_add_transact_in():  0x8D
Debug: 895 1109 driver.c:582 interface_swd_add_transact_out():  0x93, 0x00000000
Debug: 896 1109 driver.c:612 interface_swd_add_transact_in():  0x8D
Debug: 897 1109 cortex_m3.c:1473 cortex_m3_store_core_reg_u32(): write core reg 1 value 0x10000020
Debug: 898 1109 armv7m.c:239 armv7m_write_core_reg(): write core reg 1 value 0x10000020
Debug: 899 1109 driver.c:612 interface_swd_add_transact_in():  0xB7
Debug: 900 1109 driver.c:612 interface_swd_add_transact_in():  0xBD
Debug: 901 1109 driver.c:582 interface_swd_add_transact_out():  0x93, 0x10000008
Debug: 902 1109 driver.c:582 interface_swd_add_transact_out():  0x8B, 0x00010000
Debug: 903 1109 driver.c:612 interface_swd_add_transact_in():  0x8D
Debug: 904 1109 driver.c:582 interface_swd_add_transact_out():  0x93, 0x00000000
Debug: 905 1109 driver.c:612 interface_swd_add_transact_in():  0x8D
Debug: 906 1125 cortex_m3.c:1473 cortex_m3_store_core_reg_u32(): write core reg 0 value 0x10000008
Debug: 907 1125 armv7m.c:239 armv7m_write_core_reg(): write core reg 0 value 0x10000008
Debug: 908 1125 driver.c:582 interface_swd_add_transact_out():  0xA3, 0xA05F0001
Debug: 909 1125 driver.c:612 interface_swd_add_transact_in():  0x8D
Debug: 910 1125 target.c:1018 target_call_event_callbacks(): target event 22 (debug-resumed)
Debug: 911 1125 cortex_m3.c:752 cortex_m3_resume(): target debug resumed at 0x10000000
Debug: 912 1125 driver.c:612 interface_swd_add_transact_in():  0x87
Debug: 913 1125 driver.c:612 interface_swd_add_transact_in():  0xBD
Debug: 914 1125 driver.c:612 interface_swd_add_transact_in():  0x8D
Debug: 915 1125 cortex_m3.c:520 cortex_m3_poll():  
Debug: 916 1125 cortex_m3.c:366 cortex_m3_debug_entry():  
Debug: 917 1125 driver.c:582 interface_swd_add_transact_out():  0xA3, 0xA05F0003
Debug: 918 1125 driver.c:612 interface_swd_add_transact_in():  0x8D
Debug: 919 1140 driver.c:582 interface_swd_add_transact_out():  0xB1, 0x00000000
Debug: 920 1140 driver.c:582 interface_swd_add_transact_out():  0x8B, 0xE000ED30
Debug: 921 1140 driver.c:582 interface_swd_add_transact_out():  0xB1, 0x00000010
Debug: 922 1140 driver.c:612 interface_swd_add_transact_in():  0x87
Debug: 923 1140 driver.c:612 interface_swd_add_transact_in():  0xBD
Debug: 924 1140 driver.c:612 interface_swd_add_transact_in():  0x8D
Debug: 925 1140 driver.c:582 interface_swd_add_transact_out():  0xA3, 0x00000003
Debug: 926 1140 driver.c:612 interface_swd_add_transact_in():  0x8D
Debug: 927 1140 cortex_m3.c:155 cortex_m3_clear_halt():  NVIC_DFSR 0x3
Debug: 928 1140 driver.c:582 interface_swd_add_transact_out():  0xB1, 0x00000000
Debug: 929 1140 driver.c:582 interface_swd_add_transact_out():  0x8B, 0xE000EDF0
Debug: 930 1140 driver.c:582 interface_swd_add_transact_out():  0xB1, 0x00000010
Debug: 931 1140 driver.c:612 interface_swd_add_transact_in():  0x87
Debug: 932 1140 driver.c:612 interface_swd_add_transact_in():  0xBD
Debug: 933 1140 driver.c:612 interface_swd_add_transact_in():  0x8D
Debug: 934 1140 driver.c:612 interface_swd_add_transact_in():  0xB7
Debug: 935 1140 driver.c:612 interface_swd_add_transact_in():  0xBD
Debug: 936 1140 driver.c:582 interface_swd_add_transact_out():  0x8B, 0x00000000
Debug: 937 1140 driver.c:612 interface_swd_add_transact_in():  0xB7
Debug: 938 1140 driver.c:612 interface_swd_add_transact_in():  0xBD
Debug: 939 1140 driver.c:612 interface_swd_add_transact_in():  0x8D
Debug: 940 1156 driver.c:582 interface_swd_add_transact_out():  0x93, 0x00000000
Debug: 941 1156 driver.c:612 interface_swd_add_transact_in():  0x8D
Debug: 942 1156 cortex_m3.c:1395 cortex_m3_load_core_reg_u32(): load from core reg 0  value 0x0
Debug: 943 1156 driver.c:612 interface_swd_add_transact_in():  0xB7
Debug: 944 1156 driver.c:612 interface_swd_add_transact_in():  0xBD
Debug: 945 1156 driver.c:582 interface_swd_add_transact_out():  0x8B, 0x00000001
Debug: 946 1156 driver.c:612 interface_swd_add_transact_in():  0xB7
Debug: 947 1156 driver.c:612 interface_swd_add_transact_in():  0xBD
Debug: 948 1156 driver.c:612 interface_swd_add_transact_in():  0x8D
Debug: 949 1156 driver.c:582 interface_swd_add_transact_out():  0x93, 0x00000000
Debug: 950 1156 driver.c:612 interface_swd_add_transact_in():  0x8D
Debug: 951 1171 cortex_m3.c:1395 cortex_m3_load_core_reg_u32(): load from core reg 1  value 0x0
Debug: 952 1171 driver.c:612 interface_swd_add_transact_in():  0xB7
Debug: 953 1171 driver.c:612 interface_swd_add_transact_in():  0xBD
Debug: 954 1171 driver.c:582 interface_swd_add_transact_out():  0x8B, 0x00000002
Debug: 955 1171 driver.c:612 interface_swd_add_transact_in():  0xB7
Debug: 956 1171 driver.c:612 interface_swd_add_transact_in():  0xBD
Debug: 957 1171 driver.c:612 interface_swd_add_transact_in():  0x8D
Debug: 958 1171 driver.c:582 interface_swd_add_transact_out():  0x93, 0x00000000
Debug: 959 1171 driver.c:612 interface_swd_add_transact_in():  0x8D
Debug: 960 1171 cortex_m3.c:1395 cortex_m3_load_core_reg_u32(): load from core reg 2  value 0x0
Debug: 961 1171 driver.c:612 interface_swd_add_transact_in():  0xB7
Debug: 962 1171 driver.c:612 interface_swd_add_transact_in():  0xBD
Debug: 963 1171 driver.c:582 interface_swd_add_transact_out():  0x8B, 0x00000003
Debug: 964 1171 driver.c:612 interface_swd_add_transact_in():  0xB7
Debug: 965 1171 driver.c:612 interface_swd_add_transact_in():  0xBD
Debug: 966 1171 driver.c:612 interface_swd_add_transact_in():  0x8D
Debug: 967 1171 driver.c:582 interface_swd_add_transact_out():  0x93, 0x00000000
Debug: 968 1171 driver.c:612 interface_swd_add_transact_in():  0x8D
Debug: 969 1187 cortex_m3.c:1395 cortex_m3_load_core_reg_u32(): load from core reg 3  value 0x0
Debug: 970 1187 driver.c:612 interface_swd_add_transact_in():  0xB7
Debug: 971 1187 driver.c:612 interface_swd_add_transact_in():  0xBD
Debug: 972 1187 driver.c:582 interface_swd_add_transact_out():  0x8B, 0x00000004
Debug: 973 1187 driver.c:612 interface_swd_add_transact_in():  0xB7
Debug: 974 1187 driver.c:612 interface_swd_add_transact_in():  0xBD
Debug: 975 1187 driver.c:612 interface_swd_add_transact_in():  0x8D
Debug: 976 1187 driver.c:582 interface_swd_add_transact_out():  0x93, 0x00000000
Debug: 977 1187 driver.c:612 interface_swd_add_transact_in():  0x8D
Debug: 978 1187 cortex_m3.c:1395 cortex_m3_load_core_reg_u32(): load from core reg 4  value 0x2009c000
Debug: 979 1187 driver.c:612 interface_swd_add_transact_in():  0xB7
Debug: 980 1187 driver.c:612 interface_swd_add_transact_in():  0xBD
Debug: 981 1187 driver.c:582 interface_swd_add_transact_out():  0x8B, 0x00000005
Debug: 982 1187 driver.c:612 interface_swd_add_transact_in():  0xB7
Debug: 983 1187 driver.c:612 interface_swd_add_transact_in():  0xBD
Debug: 984 1187 driver.c:612 interface_swd_add_transact_in():  0x8D
Debug: 985 1187 driver.c:582 interface_swd_add_transact_out():  0x93, 0x00000000
Debug: 986 1187 driver.c:612 interface_swd_add_transact_in():  0x8D
Debug: 987 1203 cortex_m3.c:1395 cortex_m3_load_core_reg_u32(): load from core reg 5  value 0x2
Debug: 988 1203 driver.c:612 interface_swd_add_transact_in():  0xB7
Debug: 989 1203 driver.c:612 interface_swd_add_transact_in():  0xBD
Debug: 990 1203 driver.c:582 interface_swd_add_transact_out():  0x8B, 0x00000006
Debug: 991 1203 driver.c:612 interface_swd_add_transact_in():  0xB7
Debug: 992 1203 driver.c:612 interface_swd_add_transact_in():  0xBD
Debug: 993 1203 driver.c:612 interface_swd_add_transact_in():  0x8D
Debug: 994 1203 driver.c:582 interface_swd_add_transact_out():  0x93, 0x00000000
Debug: 995 1203 driver.c:612 interface_swd_add_transact_in():  0x8D
Debug: 996 1203 cortex_m3.c:1395 cortex_m3_load_core_reg_u32(): load from core reg 6  value 0x40008000
Debug: 997 1203 driver.c:612 interface_swd_add_transact_in():  0xB7
Debug: 998 1203 driver.c:612 interface_swd_add_transact_in():  0xBD
Debug: 999 1203 driver.c:582 interface_swd_add_transact_out():  0x8B, 0x00000007
Debug: 1000 1203 driver.c:612 interface_swd_add_transact_in():  0xB7
Debug: 1001 1203 driver.c:612 interface_swd_add_transact_in():  0xBD
Debug: 1002 1203 driver.c:612 interface_swd_add_transact_in():  0x8D
Debug: 1003 1203 driver.c:582 interface_swd_add_transact_out():  0x93, 0x00000000
Debug: 1004 1203 driver.c:612 interface_swd_add_transact_in():  0x8D
Debug: 1005 1218 cortex_m3.c:1395 cortex_m3_load_core_reg_u32(): load from core reg 7  value 0x0
Debug: 1006 1218 driver.c:612 interface_swd_add_transact_in():  0xB7
Debug: 1007 1218 driver.c:612 interface_swd_add_transact_in():  0xBD
Debug: 1008 1218 driver.c:582 interface_swd_add_transact_out():  0x8B, 0x00000008
Debug: 1009 1218 driver.c:612 interface_swd_add_transact_in():  0xB7
Debug: 1010 1218 driver.c:612 interface_swd_add_transact_in():  0xBD
Debug: 1011 1218 driver.c:612 interface_swd_add_transact_in():  0x8D
Debug: 1012 1218 driver.c:582 interface_swd_add_transact_out():  0x93, 0x00000000
Debug: 1013 1218 driver.c:612 interface_swd_add_transact_in():  0x8D
Debug: 1014 1218 cortex_m3.c:1395 cortex_m3_load_core_reg_u32(): load from core reg 8  value 0x4002c000
Debug: 1015 1218 driver.c:612 interface_swd_add_transact_in():  0xB7
Debug: 1016 1218 driver.c:612 interface_swd_add_transact_in():  0xBD
Debug: 1017 1218 driver.c:582 interface_swd_add_transact_out():  0x8B, 0x00000009
Debug: 1018 1218 driver.c:612 interface_swd_add_transact_in():  0xB7
Debug: 1019 1218 driver.c:612 interface_swd_add_transact_in():  0xBD
Debug: 1020 1218 driver.c:612 interface_swd_add_transact_in():  0x8D
Debug: 1021 1218 driver.c:582 interface_swd_add_transact_out():  0x93, 0x00000000
Debug: 1022 1218 driver.c:612 interface_swd_add_transact_in():  0x8D
Debug: 1023 1234 cortex_m3.c:1395 cortex_m3_load_core_reg_u32(): load from core reg 9  value 0x37037368
Debug: 1024 1234 driver.c:612 interface_swd_add_transact_in():  0xB7
Debug: 1025 1234 driver.c:612 interface_swd_add_transact_in():  0xBD
Debug: 1026 1234 driver.c:582 interface_swd_add_transact_out():  0x8B, 0x0000000A
Debug: 1027 1234 driver.c:612 interface_swd_add_transact_in():  0xB7
Debug: 1028 1234 driver.c:612 interface_swd_add_transact_in():  0xBD
Debug: 1029 1234 driver.c:612 interface_swd_add_transact_in():  0x8D
Debug: 1030 1234 driver.c:582 interface_swd_add_transact_out():  0x93, 0x00000000
Debug: 1031 1234 driver.c:612 interface_swd_add_transact_in():  0x8D
Debug: 1032 1234 cortex_m3.c:1395 cortex_m3_load_core_reg_u32(): load from core reg 10  value 0x3fffa7ca
Debug: 1033 1234 driver.c:612 interface_swd_add_transact_in():  0xB7
Debug: 1034 1234 driver.c:612 interface_swd_add_transact_in():  0xBD
Debug: 1035 1234 driver.c:582 interface_swd_add_transact_out():  0x8B, 0x0000000B
Debug: 1036 1234 driver.c:612 interface_swd_add_transact_in():  0xB7
Debug: 1037 1234 driver.c:612 interface_swd_add_transact_in():  0xBD
Debug: 1038 1234 driver.c:612 interface_swd_add_transact_in():  0x8D
Debug: 1039 1234 driver.c:582 interface_swd_add_transact_out():  0x93, 0x00000000
Debug: 1040 1234 driver.c:612 interface_swd_add_transact_in():  0x8D
Debug: 1041 1250 cortex_m3.c:1395 cortex_m3_load_core_reg_u32(): load from core reg 11  value 0xf59f28df
Debug: 1042 1250 driver.c:612 interface_swd_add_transact_in():  0xB7
Debug: 1043 1250 driver.c:612 interface_swd_add_transact_in():  0xBD
Debug: 1044 1250 driver.c:582 interface_swd_add_transact_out():  0x8B, 0x0000000C
Debug: 1045 1250 driver.c:612 interface_swd_add_transact_in():  0xB7
Debug: 1046 1250 driver.c:612 interface_swd_add_transact_in():  0xBD
Debug: 1047 1250 driver.c:612 interface_swd_add_transact_in():  0x8D
Debug: 1048 1250 driver.c:582 interface_swd_add_transact_out():  0x93, 0x00000000
Debug: 1049 1250 driver.c:612 interface_swd_add_transact_in():  0x8D
Debug: 1050 1250 cortex_m3.c:1395 cortex_m3_load_core_reg_u32(): load from core reg 12  value 0x1fff1ff1
Debug: 1051 1250 driver.c:612 interface_swd_add_transact_in():  0xB7
Debug: 1052 1250 driver.c:612 interface_swd_add_transact_in():  0xBD
Debug: 1053 1250 driver.c:582 interface_swd_add_transact_out():  0x8B, 0x0000000D
Debug: 1054 1250 driver.c:612 interface_swd_add_transact_in():  0xB7
Debug: 1055 1250 driver.c:612 interface_swd_add_transact_in():  0xBD
Debug: 1056 1250 driver.c:612 interface_swd_add_transact_in():  0x8D
Debug: 1057 1250 driver.c:582 interface_swd_add_transact_out():  0x93, 0x00000000
Debug: 1058 1250 driver.c:612 interface_swd_add_transact_in():  0x8D
Debug: 1059 1265 cortex_m3.c:1395 cortex_m3_load_core_reg_u32(): load from core reg 13  value 0x100000b4
Debug: 1060 1265 driver.c:612 interface_swd_add_transact_in():  0xB7
Debug: 1061 1265 driver.c:612 interface_swd_add_transact_in():  0xBD
Debug: 1062 1265 driver.c:582 interface_swd_add_transact_out():  0x8B, 0x0000000E
Debug: 1063 1265 driver.c:612 interface_swd_add_transact_in():  0xB7
Debug: 1064 1265 driver.c:612 interface_swd_add_transact_in():  0xBD
Debug: 1065 1265 driver.c:612 interface_swd_add_transact_in():  0x8D
Debug: 1066 1265 driver.c:582 interface_swd_add_transact_out():  0x93, 0x00000000
Debug: 1067 1265 driver.c:612 interface_swd_add_transact_in():  0x8D
Debug: 1068 1265 cortex_m3.c:1395 cortex_m3_load_core_reg_u32(): load from core reg 14  value 0x1fff167b
Debug: 1069 1265 driver.c:612 interface_swd_add_transact_in():  0xB7
Debug: 1070 1265 driver.c:612 interface_swd_add_transact_in():  0xBD
Debug: 1071 1265 driver.c:582 interface_swd_add_transact_out():  0x8B, 0x0000000F
Debug: 1072 1265 driver.c:612 interface_swd_add_transact_in():  0xB7
Debug: 1073 1265 driver.c:612 interface_swd_add_transact_in():  0xBD
Debug: 1074 1265 driver.c:612 interface_swd_add_transact_in():  0x8D
Debug: 1075 1265 driver.c:582 interface_swd_add_transact_out():  0x93, 0x00000000
Debug: 1076 1265 driver.c:612 interface_swd_add_transact_in():  0x8D
Debug: 1077 1281 cortex_m3.c:1395 cortex_m3_load_core_reg_u32(): load from core reg 15  value 0x10000004
Debug: 1078 1281 driver.c:612 interface_swd_add_transact_in():  0xB7
Debug: 1079 1281 driver.c:612 interface_swd_add_transact_in():  0xBD
Debug: 1080 1281 driver.c:582 interface_swd_add_transact_out():  0x8B, 0x00000010
Debug: 1081 1281 driver.c:612 interface_swd_add_transact_in():  0xB7
Debug: 1082 1281 driver.c:612 interface_swd_add_transact_in():  0xBD
Debug: 1083 1281 driver.c:612 interface_swd_add_transact_in():  0x8D
Debug: 1084 1281 driver.c:582 interface_swd_add_transact_out():  0x93, 0x00000000
Debug: 1085 1281 driver.c:612 interface_swd_add_transact_in():  0x8D
Debug: 1086 1281 cortex_m3.c:1395 cortex_m3_load_core_reg_u32(): load from core reg 16  value 0x41000000
Debug: 1087 1281 driver.c:612 interface_swd_add_transact_in():  0xB7
Debug: 1088 1281 driver.c:612 interface_swd_add_transact_in():  0xBD
Debug: 1089 1281 driver.c:582 interface_swd_add_transact_out():  0x8B, 0x00000011
Debug: 1090 1281 driver.c:612 interface_swd_add_transact_in():  0xB7
Debug: 1091 1281 driver.c:612 interface_swd_add_transact_in():  0xBD
Debug: 1092 1281 driver.c:612 interface_swd_add_transact_in():  0x8D
Debug: 1093 1281 driver.c:582 interface_swd_add_transact_out():  0x93, 0x00000000
Debug: 1094 1281 driver.c:612 interface_swd_add_transact_in():  0x8D
Debug: 1095 1296 cortex_m3.c:1395 cortex_m3_load_core_reg_u32(): load from core reg 17  value 0x100000b4
Debug: 1096 1296 driver.c:612 interface_swd_add_transact_in():  0xB7
Debug: 1097 1296 driver.c:612 interface_swd_add_transact_in():  0xBD
Debug: 1098 1296 driver.c:582 interface_swd_add_transact_out():  0x8B, 0x00000012
Debug: 1099 1296 driver.c:612 interface_swd_add_transact_in():  0xB7
Debug: 1100 1296 driver.c:612 interface_swd_add_transact_in():  0xBD
Debug: 1101 1296 driver.c:612 interface_swd_add_transact_in():  0x8D
Debug: 1102 1296 driver.c:582 interface_swd_add_transact_out():  0x93, 0x00000000
Debug: 1103 1296 driver.c:612 interface_swd_add_transact_in():  0x8D
Debug: 1104 1296 cortex_m3.c:1395 cortex_m3_load_core_reg_u32(): load from core reg 18  value 0x1896ec24
Debug: 1105 1296 driver.c:612 interface_swd_add_transact_in():  0xB7
Debug: 1106 1296 driver.c:612 interface_swd_add_transact_in():  0xBD
Debug: 1107 1296 driver.c:582 interface_swd_add_transact_out():  0x8B, 0x00000014
Debug: 1108 1296 driver.c:612 interface_swd_add_transact_in():  0xB7
Debug: 1109 1296 driver.c:612 interface_swd_add_transact_in():  0xBD
Debug: 1110 1296 driver.c:612 interface_swd_add_transact_in():  0x8D
Debug: 1111 1312 driver.c:582 interface_swd_add_transact_out():  0x93, 0x00000000
Debug: 1112 1312 driver.c:612 interface_swd_add_transact_in():  0x8D
Debug: 1113 1312 cortex_m3.c:1427 cortex_m3_load_core_reg_u32(): load from special reg 19 value 0x1
Debug: 1114 1312 driver.c:612 interface_swd_add_transact_in():  0xB7
Debug: 1115 1312 driver.c:612 interface_swd_add_transact_in():  0xBD
Debug: 1116 1312 driver.c:582 interface_swd_add_transact_out():  0x8B, 0x00000014
Debug: 1117 1312 driver.c:612 interface_swd_add_transact_in():  0xB7
Debug: 1118 1312 driver.c:612 interface_swd_add_transact_in():  0xBD
Debug: 1119 1312 driver.c:612 interface_swd_add_transact_in():  0x8D
Debug: 1120 1312 driver.c:582 interface_swd_add_transact_out():  0x93, 0x00000000
Debug: 1121 1312 driver.c:612 interface_swd_add_transact_in():  0x8D
Debug: 1122 1312 cortex_m3.c:1427 cortex_m3_load_core_reg_u32(): load from special reg 20 value 0x0
Debug: 1123 1312 driver.c:612 interface_swd_add_transact_in():  0xB7
Debug: 1124 1312 driver.c:612 interface_swd_add_transact_in():  0xBD
Debug: 1125 1312 driver.c:582 interface_swd_add_transact_out():  0x8B, 0x00000014
Debug: 1126 1312 driver.c:612 interface_swd_add_transact_in():  0xB7
Debug: 1127 1312 driver.c:612 interface_swd_add_transact_in():  0xBD
Debug: 1128 1312 driver.c:612 interface_swd_add_transact_in():  0x8D
Debug: 1129 1312 driver.c:582 interface_swd_add_transact_out():  0x93, 0x00000000
Debug: 1130 1312 driver.c:612 interface_swd_add_transact_in():  0x8D
Debug: 1131 1328 cortex_m3.c:1427 cortex_m3_load_core_reg_u32(): load from special reg 21 value 0x0
Debug: 1132 1328 driver.c:612 interface_swd_add_transact_in():  0xB7
Debug: 1133 1328 driver.c:612 interface_swd_add_transact_in():  0xBD
Debug: 1134 1328 driver.c:582 interface_swd_add_transact_out():  0x8B, 0x00000014
Debug: 1135 1328 driver.c:612 interface_swd_add_transact_in():  0xB7
Debug: 1136 1328 driver.c:612 interface_swd_add_transact_in():  0xBD
Debug: 1137 1328 driver.c:612 interface_swd_add_transact_in():  0x8D
Debug: 1138 1328 driver.c:582 interface_swd_add_transact_out():  0x93, 0x00000000
Debug: 1139 1328 driver.c:612 interface_swd_add_transact_in():  0x8D
Debug: 1140 1343 cortex_m3.c:1427 cortex_m3_load_core_reg_u32(): load from special reg 22 value 0x0
Debug: 1141 1343 cortex_m3.c:442 cortex_m3_debug_entry(): entered debug state in core mode: Thread at PC 0x10000004, target-&gt;state: halted
Debug: 1142 1343 target.c:1018 target_call_event_callbacks(): target event 21 (debug-halted)
Debug: 1143 1343 driver.c:612 interface_swd_add_transact_in():  0xB7
Debug: 1144 1343 driver.c:612 interface_swd_add_transact_in():  0xBD
Debug: 1145 1343 driver.c:582 interface_swd_add_transact_out():  0x8B, 0x0000000F
Debug: 1146 1343 driver.c:612 interface_swd_add_transact_in():  0xB7
Debug: 1147 1343 driver.c:612 interface_swd_add_transact_in():  0xBD
Debug: 1148 1343 driver.c:612 interface_swd_add_transact_in():  0x8D
Debug: 1149 1343 driver.c:582 interface_swd_add_transact_out():  0x93, 0x00000000
Debug: 1150 1343 driver.c:612 interface_swd_add_transact_in():  0x8D
Debug: 1151 1343 cortex_m3.c:1395 cortex_m3_load_core_reg_u32(): load from core reg 15  value 0x10000004
Debug: 1152 1343 target.c:1394 target_read_buffer(): reading buffer of 20 byte at 0x10000020
Debug: 1153 1343 driver.c:582 interface_swd_add_transact_out():  0xB1, 0x00000000
Debug: 1154 1343 driver.c:582 interface_swd_add_transact_out():  0xA3, 0xA2000012
Debug: 1155 1343 driver.c:582 interface_swd_add_transact_out():  0x8B, 0x10000020
Debug: 1156 1343 driver.c:612 interface_swd_add_transact_in():  0x9F
Debug: 1157 1343 driver.c:612 interface_swd_add_transact_in():  0x9F
Debug: 1158 1343 driver.c:612 interface_swd_add_transact_in():  0x9F
Debug: 1159 1343 driver.c:612 interface_swd_add_transact_in():  0x9F
Debug: 1160 1343 driver.c:612 interface_swd_add_transact_in():  0x9F
Debug: 1161 1343 driver.c:612 interface_swd_add_transact_in():  0xBD
Debug: 1162 1343 driver.c:612 interface_swd_add_transact_in():  0x8D
Debug: 1163 1343 armv7m.c:445 armv7m_run_algorithm(): restoring register primask with value 0x00000000
Debug: 1164 1343 armv7m.c:445 armv7m_run_algorithm(): restoring register msp with value 0x10001ffc
Debug: 1165 1343 armv7m.c:445 armv7m_run_algorithm(): restoring register xPSR with value 0x01000000
Debug: 1166 1343 armv7m.c:445 armv7m_run_algorithm(): restoring register pc with value 0x1fff0080
Debug: 1167 1343 armv7m.c:445 armv7m_run_algorithm(): restoring register lr with value 0xffffffff
Debug: 1168 1343 armv7m.c:445 armv7m_run_algorithm(): restoring register sp with value 0x10001ffc
Debug: 1169 1343 armv7m.c:445 armv7m_run_algorithm(): restoring register r12 with value 0x3f1bd5a4
Debug: 1170 1343 armv7m.c:445 armv7m_run_algorithm(): restoring register r3 with value 0x40084000
Debug: 1171 1343 armv7m.c:445 armv7m_run_algorithm(): restoring register r2 with value 0x00000105
Debug: 1172 1343 armv7m.c:445 armv7m_run_algorithm(): restoring register r1 with value 0x10000124
Debug: 1173 1343 armv7m.c:445 armv7m_run_algorithm(): restoring register r0 with value 0xf0000000
Debug: 1174 1343 lpc2000.c:376 lpc2000_iap_call(): IAP command = 50 (0x00000000, 0x00000015, 0x00000fa0, 0x0022f098, 0x8a53c484) completed with result = 00000000
Debug: 1175 1343 target.c:1312 target_write_buffer(): writing buffer of 24 byte at 0x10000008
Debug: 1176 1343 driver.c:582 interface_swd_add_transact_out():  0x8B, 0x10000008
Debug: 1177 1343 driver.c:582 interface_swd_add_transact_out():  0xBB, 0x00000034
Debug: 1178 1343 driver.c:582 interface_swd_add_transact_out():  0xBB, 0x00000000
Debug: 1179 1343 driver.c:582 interface_swd_add_transact_out():  0xBB, 0x00000015
Debug: 1180 1343 driver.c:582 interface_swd_add_transact_out():  0xBB, 0x00000FA0
Debug: 1181 1343 driver.c:582 interface_swd_add_transact_out():  0xBB, 0x0022F098
Debug: 1182 1343 driver.c:582 interface_swd_add_transact_out():  0xBB, 0x8A53C484
Debug: 1183 1343 driver.c:612 interface_swd_add_transact_in():  0x8D
Debug: 1184 1359 target.c:1312 target_write_buffer(): writing buffer of 20 byte at 0x10000020
Debug: 1185 1359 driver.c:582 interface_swd_add_transact_out():  0x8B, 0x10000020
Debug: 1186 1359 driver.c:582 interface_swd_add_transact_out():  0xBB, 0x00DF0990
Debug: 1187 1359 driver.c:582 interface_swd_add_transact_out():  0xBB, 0x00000000
Debug: 1188 1359 driver.c:582 interface_swd_add_transact_out():  0xBB, 0x00000015
Debug: 1189 1359 driver.c:582 interface_swd_add_transact_out():  0xBB, 0x00000FA0
Debug: 1190 1359 driver.c:582 interface_swd_add_transact_out():  0xBB, 0x0022F098
Debug: 1191 1359 driver.c:612 interface_swd_add_transact_in():  0x8D
Debug: 1192 1359 armv7m.c:129 armv7m_restore_context():  
Debug: 1193 1359 driver.c:582 interface_swd_add_transact_out():  0xA3, 0xA2000002
Debug: 1194 1359 driver.c:582 interface_swd_add_transact_out():  0x8B, 0xE000EDF0
Debug: 1195 1359 driver.c:582 interface_swd_add_transact_out():  0xB1, 0x00000010
Debug: 1196 1359 driver.c:612 interface_swd_add_transact_in():  0xB7
Debug: 1197 1359 driver.c:612 interface_swd_add_transact_in():  0xBD
Debug: 1198 1359 driver.c:582 interface_swd_add_transact_out():  0x8B, 0x00000014
Debug: 1199 1359 driver.c:612 interface_swd_add_transact_in():  0xB7
Debug: 1200 1359 driver.c:612 interface_swd_add_transact_in():  0xBD
Debug: 1201 1359 driver.c:612 interface_swd_add_transact_in():  0x8D
Debug: 1202 1359 driver.c:582 interface_swd_add_transact_out():  0x93, 0x00000000
Debug: 1203 1359 driver.c:612 interface_swd_add_transact_in():  0x8D
Debug: 1204 1359 driver.c:612 interface_swd_add_transact_in():  0xB7
Debug: 1205 1359 driver.c:612 interface_swd_add_transact_in():  0xBD
Debug: 1206 1359 driver.c:582 interface_swd_add_transact_out():  0x93, 0x00000001
Debug: 1207 1359 driver.c:582 interface_swd_add_transact_out():  0x8B, 0x00010014
Debug: 1208 1359 driver.c:612 interface_swd_add_transact_in():  0x8D
Debug: 1209 1359 driver.c:582 interface_swd_add_transact_out():  0x93, 0x00000000
Debug: 1210 1359 driver.c:612 interface_swd_add_transact_in():  0x8D
Debug: 1211 1375 cortex_m3.c:1507 cortex_m3_store_core_reg_u32(): write special reg 19 value 0x1 
Debug: 1212 1375 armv7m.c:239 armv7m_write_core_reg(): write core reg 19 value 0x1
Debug: 1213 1375 driver.c:612 interface_swd_add_transact_in():  0xB7
Debug: 1214 1375 driver.c:612 interface_swd_add_transact_in():  0xBD
Debug: 1215 1375 driver.c:582 interface_swd_add_transact_out():  0x93, 0x10001FFC
Debug: 1216 1375 driver.c:582 interface_swd_add_transact_out():  0x8B, 0x00010011
Debug: 1217 1375 driver.c:612 interface_swd_add_transact_in():  0x8D
Debug: 1218 1375 driver.c:582 interface_swd_add_transact_out():  0x93, 0x00000000
Debug: 1219 1375 driver.c:612 interface_swd_add_transact_in():  0x8D
Debug: 1220 1375 cortex_m3.c:1473 cortex_m3_store_core_reg_u32(): write core reg 17 value 0x10001ffc
Debug: 1221 1375 armv7m.c:239 armv7m_write_core_reg(): write core reg 17 value 0x10001ffc
Debug: 1222 1375 driver.c:612 interface_swd_add_transact_in():  0xB7
Debug: 1223 1375 driver.c:612 interface_swd_add_transact_in():  0xBD
Debug: 1224 1375 driver.c:582 interface_swd_add_transact_out():  0x93, 0x01000000
Debug: 1225 1375 driver.c:582 interface_swd_add_transact_out():  0x8B, 0x00010010
Debug: 1226 1375 driver.c:612 interface_swd_add_transact_in():  0x8D
Debug: 1227 1375 driver.c:582 interface_swd_add_transact_out():  0x93, 0x00000000
Debug: 1228 1375 driver.c:612 interface_swd_add_transact_in():  0x8D
Debug: 1229 1390 cortex_m3.c:1473 cortex_m3_store_core_reg_u32(): write core reg 16 value 0x1000000
Debug: 1230 1390 armv7m.c:239 armv7m_write_core_reg(): write core reg 16 value 0x1000000
Debug: 1231 1390 driver.c:612 interface_swd_add_transact_in():  0xB7
Debug: 1232 1390 driver.c:612 interface_swd_add_transact_in():  0xBD
Debug: 1233 1390 driver.c:582 interface_swd_add_transact_out():  0x93, 0x10000000
Debug: 1234 1390 driver.c:582 interface_swd_add_transact_out():  0x8B, 0x0001000F
Debug: 1235 1390 driver.c:612 interface_swd_add_transact_in():  0x8D
Debug: 1236 1390 driver.c:582 interface_swd_add_transact_out():  0x93, 0x00000000
Debug: 1237 1390 driver.c:612 interface_swd_add_transact_in():  0x8D
Debug: 1238 1390 cortex_m3.c:1473 cortex_m3_store_core_reg_u32(): write core reg 15 value 0x10000000
Debug: 1239 1390 armv7m.c:239 armv7m_write_core_reg(): write core reg 15 value 0x10000000
Debug: 1240 1390 driver.c:612 interface_swd_add_transact_in():  0xB7
Debug: 1241 1390 driver.c:612 interface_swd_add_transact_in():  0xBD
Debug: 1242 1390 driver.c:582 interface_swd_add_transact_out():  0x93, 0x10000005
Debug: 1243 1390 driver.c:582 interface_swd_add_transact_out():  0x8B, 0x0001000E
Debug: 1244 1390 driver.c:612 interface_swd_add_transact_in():  0x8D
Debug: 1245 1390 driver.c:582 interface_swd_add_transact_out():  0x93, 0x00000000
Debug: 1246 1390 driver.c:612 interface_swd_add_transact_in():  0x8D
Debug: 1247 1406 cortex_m3.c:1473 cortex_m3_store_core_reg_u32(): write core reg 14 value 0x10000005
Debug: 1248 1406 armv7m.c:239 armv7m_write_core_reg(): write core reg 14 value 0x10000005
Debug: 1249 1406 driver.c:612 interface_swd_add_transact_in():  0xB7
Debug: 1250 1406 driver.c:612 interface_swd_add_transact_in():  0xBD
Debug: 1251 1406 driver.c:582 interface_swd_add_transact_out():  0x93, 0x100000B4
Debug: 1252 1406 driver.c:582 interface_swd_add_transact_out():  0x8B, 0x0001000D
Debug: 1253 1406 driver.c:612 interface_swd_add_transact_in():  0x8D
Debug: 1254 1406 driver.c:582 interface_swd_add_transact_out():  0x93, 0x00000000
Debug: 1255 1406 driver.c:612 interface_swd_add_transact_in():  0x8D
Debug: 1256 1406 cortex_m3.c:1473 cortex_m3_store_core_reg_u32(): write core reg 13 value 0x100000b4
Debug: 1257 1406 armv7m.c:239 armv7m_write_core_reg(): write core reg 13 value 0x100000b4
Debug: 1258 1406 driver.c:612 interface_swd_add_transact_in():  0xB7
Debug: 1259 1406 driver.c:612 interface_swd_add_transact_in():  0xBD
Debug: 1260 1406 driver.c:582 interface_swd_add_transact_out():  0x93, 0x1FFF1FF1
Debug: 1261 1406 driver.c:582 interface_swd_add_transact_out():  0x8B, 0x0001000C
Debug: 1262 1406 driver.c:612 interface_swd_add_transact_in():  0x8D
Debug: 1263 1406 driver.c:582 interface_swd_add_transact_out():  0x93, 0x00000000
Debug: 1264 1406 driver.c:612 interface_swd_add_transact_in():  0x8D
Debug: 1265 1421 cortex_m3.c:1473 cortex_m3_store_core_reg_u32(): write core reg 12 value 0x1fff1ff1
Debug: 1266 1421 armv7m.c:239 armv7m_write_core_reg(): write core reg 12 value 0x1fff1ff1
Debug: 1267 1421 driver.c:612 interface_swd_add_transact_in():  0xB7
Debug: 1268 1421 driver.c:612 interface_swd_add_transact_in():  0xBD
Debug: 1269 1421 driver.c:582 interface_swd_add_transact_out():  0x93, 0x40084000
Debug: 1270 1421 driver.c:582 interface_swd_add_transact_out():  0x8B, 0x00010003
Debug: 1271 1421 driver.c:612 interface_swd_add_transact_in():  0x8D
Debug: 1272 1421 driver.c:582 interface_swd_add_transact_out():  0x93, 0x00000000
Debug: 1273 1421 driver.c:612 interface_swd_add_transact_in():  0x8D
Debug: 1274 1421 cortex_m3.c:1473 cortex_m3_store_core_reg_u32(): write core reg 3 value 0x40084000
Debug: 1275 1421 armv7m.c:239 armv7m_write_core_reg(): write core reg 3 value 0x40084000
Debug: 1276 1421 driver.c:612 interface_swd_add_transact_in():  0xB7
Debug: 1277 1421 driver.c:612 interface_swd_add_transact_in():  0xBD
Debug: 1278 1421 driver.c:582 interface_swd_add_transact_out():  0x93, 0x00000105
Debug: 1279 1421 driver.c:582 interface_swd_add_transact_out():  0x8B, 0x00010002
Debug: 1280 1421 driver.c:612 interface_swd_add_transact_in():  0x8D
Debug: 1281 1421 driver.c:582 interface_swd_add_transact_out():  0x93, 0x00000000
Debug: 1282 1421 driver.c:612 interface_swd_add_transact_in():  0x8D
Debug: 1283 1437 cortex_m3.c:1473 cortex_m3_store_core_reg_u32(): write core reg 2 value 0x105
Debug: 1284 1437 armv7m.c:239 armv7m_write_core_reg(): write core reg 2 value 0x105
Debug: 1285 1437 driver.c:612 interface_swd_add_transact_in():  0xB7
Debug: 1286 1437 driver.c:612 interface_swd_add_transact_in():  0xBD
Debug: 1287 1437 driver.c:582 interface_swd_add_transact_out():  0x93, 0x10000020
Debug: 1288 1437 driver.c:582 interface_swd_add_transact_out():  0x8B, 0x00010001
Debug: 1289 1437 driver.c:612 interface_swd_add_transact_in():  0x8D
Debug: 1290 1437 driver.c:582 interface_swd_add_transact_out():  0x93, 0x00000000
Debug: 1291 1437 driver.c:612 interface_swd_add_transact_in():  0x8D
Debug: 1292 1437 cortex_m3.c:1473 cortex_m3_store_core_reg_u32(): write core reg 1 value 0x10000020
Debug: 1293 1437 armv7m.c:239 armv7m_write_core_reg(): write core reg 1 value 0x10000020
Debug: 1294 1437 driver.c:612 interface_swd_add_transact_in():  0xB7
Debug: 1295 1437 driver.c:612 interface_swd_add_transact_in():  0xBD
Debug: 1296 1437 driver.c:582 interface_swd_add_transact_out():  0x93, 0x10000008
Debug: 1297 1437 driver.c:582 interface_swd_add_transact_out():  0x8B, 0x00010000
Debug: 1298 1437 driver.c:612 interface_swd_add_transact_in():  0x8D
Debug: 1299 1437 driver.c:582 interface_swd_add_transact_out():  0x93, 0x00000000
Debug: 1300 1437 driver.c:612 interface_swd_add_transact_in():  0x8D
Debug: 1301 1453 cortex_m3.c:1473 cortex_m3_store_core_reg_u32(): write core reg 0 value 0x10000008
Debug: 1302 1453 armv7m.c:239 armv7m_write_core_reg(): write core reg 0 value 0x10000008
Debug: 1303 1453 driver.c:582 interface_swd_add_transact_out():  0xA3, 0xA05F0001
Debug: 1304 1453 driver.c:612 interface_swd_add_transact_in():  0x8D
Debug: 1305 1453 target.c:1018 target_call_event_callbacks(): target event 22 (debug-resumed)
Debug: 1306 1453 cortex_m3.c:752 cortex_m3_resume(): target debug resumed at 0x10000000
Debug: 1307 1453 driver.c:612 interface_swd_add_transact_in():  0x87
Debug: 1308 1453 driver.c:612 interface_swd_add_transact_in():  0xBD
Debug: 1309 1453 driver.c:612 interface_swd_add_transact_in():  0x8D
Debug: 1310 1453 target.c:2108 target_wait_state(): waiting for target halted...
Debug: 1311 1453 driver.c:612 interface_swd_add_transact_in():  0x87
Debug: 1312 1453 driver.c:612 interface_swd_add_transact_in():  0xBD
Debug: 1313 1453 driver.c:612 interface_swd_add_transact_in():  0x8D
Debug: 1314 1453 driver.c:612 interface_swd_add_transact_in():  0x87
Debug: 1315 1453 driver.c:612 interface_swd_add_transact_in():  0xBD
Debug: 1316 1453 driver.c:612 interface_swd_add_transact_in():  0x8D
Debug: 1317 1468 driver.c:612 interface_swd_add_transact_in():  0x87
Debug: 1318 1468 driver.c:612 interface_swd_add_transact_in():  0xBD
Debug: 1319 1468 driver.c:612 interface_swd_add_transact_in():  0x8D
Debug: 1320 1468 driver.c:612 interface_swd_add_transact_in():  0x87
Debug: 1321 1468 driver.c:612 interface_swd_add_transact_in():  0xBD
Debug: 1322 1468 driver.c:612 interface_swd_add_transact_in():  0x8D
Debug: 1323 1468 driver.c:612 interface_swd_add_transact_in():  0x87
Debug: 1324 1468 driver.c:612 interface_swd_add_transact_in():  0xBD
Debug: 1325 1468 driver.c:612 interface_swd_add_transact_in():  0x8D
Debug: 1326 1468 driver.c:612 interface_swd_add_transact_in():  0x87
Debug: 1327 1468 driver.c:612 interface_swd_add_transact_in():  0xBD
Debug: 1328 1468 driver.c:612 interface_swd_add_transact_in():  0x8D
Debug: 1329 1484 driver.c:612 interface_swd_add_transact_in():  0x87
Debug: 1330 1484 driver.c:612 interface_swd_add_transact_in():  0xBD
Debug: 1331 1484 driver.c:612 interface_swd_add_transact_in():  0x8D
Debug: 1332 1484 driver.c:612 interface_swd_add_transact_in():  0x87
Debug: 1333 1484 driver.c:612 interface_swd_add_transact_in():  0xBD
Debug: 1334 1484 driver.c:612 interface_swd_add_transact_in():  0x8D
Debug: 1335 1484 driver.c:612 interface_swd_add_transact_in():  0x87
Debug: 1336 1484 driver.c:612 interface_swd_add_transact_in():  0xBD
Debug: 1337 1484 driver.c:612 interface_swd_add_transact_in():  0x8D
Debug: 1338 1484 driver.c:612 interface_swd_add_transact_in():  0x87
Debug: 1339 1484 driver.c:612 interface_swd_add_transact_in():  0xBD
Debug: 1340 1484 driver.c:612 interface_swd_add_transact_in():  0x8D
Debug: 1341 1500 driver.c:612 interface_swd_add_transact_in():  0x87
Debug: 1342 1500 driver.c:612 interface_swd_add_transact_in():  0xBD
Debug: 1343 1500 driver.c:612 interface_swd_add_transact_in():  0x8D
Debug: 1344 1500 driver.c:612 interface_swd_add_transact_in():  0x87
Debug: 1345 1500 driver.c:612 interface_swd_add_transact_in():  0xBD
Debug: 1346 1500 driver.c:612 interface_swd_add_transact_in():  0x8D
Debug: 1347 1500 driver.c:612 interface_swd_add_transact_in():  0x87
Debug: 1348 1500 driver.c:612 interface_swd_add_transact_in():  0xBD
Debug: 1349 1500 driver.c:612 interface_swd_add_transact_in():  0x8D
Debug: 1350 1500 driver.c:612 interface_swd_add_transact_in():  0x87
Debug: 1351 1500 driver.c:612 interface_swd_add_transact_in():  0xBD
Debug: 1352 1500 driver.c:612 interface_swd_add_transact_in():  0x8D
Debug: 1353 1515 driver.c:612 interface_swd_add_transact_in():  0x87
Debug: 1354 1515 driver.c:612 interface_swd_add_transact_in():  0xBD
Debug: 1355 1515 driver.c:612 interface_swd_add_transact_in():  0x8D
Debug: 1356 1515 driver.c:612 interface_swd_add_transact_in():  0x87
Debug: 1357 1515 driver.c:612 interface_swd_add_transact_in():  0xBD
Debug: 1358 1515 driver.c:612 interface_swd_add_transact_in():  0x8D
Debug: 1359 1515 driver.c:612 interface_swd_add_transact_in():  0x87
Debug: 1360 1515 driver.c:612 interface_swd_add_transact_in():  0xBD
Debug: 1361 1515 driver.c:612 interface_swd_add_transact_in():  0x8D
Debug: 1362 1515 driver.c:612 interface_swd_add_transact_in():  0x87
Debug: 1363 1515 driver.c:612 interface_swd_add_transact_in():  0xBD
Debug: 1364 1515 driver.c:612 interface_swd_add_transact_in():  0x8D
Debug: 1365 1531 driver.c:612 interface_swd_add_transact_in():  0x87
Debug: 1366 1531 driver.c:612 interface_swd_add_transact_in():  0xBD
Debug: 1367 1531 driver.c:612 interface_swd_add_transact_in():  0x8D
Debug: 1368 1531 driver.c:612 interface_swd_add_transact_in():  0x87
Debug: 1369 1531 driver.c:612 interface_swd_add_transact_in():  0xBD
Debug: 1370 1531 driver.c:612 interface_swd_add_transact_in():  0x8D
Debug: 1371 1531 driver.c:612 interface_swd_add_transact_in():  0x87
Debug: 1372 1531 driver.c:612 interface_swd_add_transact_in():  0xBD
Debug: 1373 1531 driver.c:612 interface_swd_add_transact_in():  0x8D
Debug: 1374 1531 driver.c:612 interface_swd_add_transact_in():  0x87
Debug: 1375 1531 driver.c:612 interface_swd_add_transact_in():  0xBD
Debug: 1376 1531 driver.c:612 interface_swd_add_transact_in():  0x8D
Debug: 1377 1531 driver.c:612 interface_swd_add_transact_in():  0x87
Debug: 1378 1531 driver.c:612 interface_swd_add_transact_in():  0xBD
Debug: 1379 1531 driver.c:612 interface_swd_add_transact_in():  0x8D
Debug: 1380 1546 driver.c:612 interface_swd_add_transact_in():  0x87
Debug: 1381 1546 driver.c:612 interface_swd_add_transact_in():  0xBD
Debug: 1382 1546 driver.c:612 interface_swd_add_transact_in():  0x8D
Debug: 1383 1546 driver.c:612 interface_swd_add_transact_in():  0x87
Debug: 1384 1546 driver.c:612 interface_swd_add_transact_in():  0xBD
Debug: 1385 1546 driver.c:612 interface_swd_add_transact_in():  0x8D
Debug: 1386 1546 cortex_m3.c:520 cortex_m3_poll():  
Debug: 1387 1546 cortex_m3.c:366 cortex_m3_debug_entry():  
Debug: 1388 1546 driver.c:582 interface_swd_add_transact_out():  0xA3, 0xA05F0003
Debug: 1389 1546 driver.c:612 interface_swd_add_transact_in():  0x8D
Debug: 1390 1562 driver.c:582 interface_swd_add_transact_out():  0xB1, 0x00000000
Debug: 1391 1562 driver.c:582 interface_swd_add_transact_out():  0x8B, 0xE000ED30
Debug: 1392 1562 driver.c:582 interface_swd_add_transact_out():  0xB1, 0x00000010
Debug: 1393 1562 driver.c:612 interface_swd_add_transact_in():  0x87
Debug: 1394 1562 driver.c:612 interface_swd_add_transact_in():  0xBD
Debug: 1395 1562 driver.c:612 interface_swd_add_transact_in():  0x8D
Debug: 1396 1562 driver.c:582 interface_swd_add_transact_out():  0xA3, 0x00000003
Debug: 1397 1562 driver.c:612 interface_swd_add_transact_in():  0x8D
Debug: 1398 1562 cortex_m3.c:155 cortex_m3_clear_halt():  NVIC_DFSR 0x3
Debug: 1399 1562 driver.c:582 interface_swd_add_transact_out():  0xB1, 0x00000000
Debug: 1400 1562 driver.c:582 interface_swd_add_transact_out():  0x8B, 0xE000EDF0
Debug: 1401 1562 driver.c:582 interface_swd_add_transact_out():  0xB1, 0x00000010
Debug: 1402 1562 driver.c:612 interface_swd_add_transact_in():  0x87
Debug: 1403 1562 driver.c:612 interface_swd_add_transact_in():  0xBD
Debug: 1404 1562 driver.c:612 interface_swd_add_transact_in():  0x8D
Debug: 1405 1578 driver.c:612 interface_swd_add_transact_in():  0xB7
Debug: 1406 1578 driver.c:612 interface_swd_add_transact_in():  0xBD
Debug: 1407 1578 driver.c:582 interface_swd_add_transact_out():  0x8B, 0x00000000
Debug: 1408 1578 driver.c:612 interface_swd_add_transact_in():  0xB7
Debug: 1409 1578 driver.c:612 interface_swd_add_transact_in():  0xBD
Debug: 1410 1578 driver.c:612 interface_swd_add_transact_in():  0x8D
Debug: 1411 1578 driver.c:582 interface_swd_add_transact_out():  0x93, 0x00000000
Debug: 1412 1578 driver.c:612 interface_swd_add_transact_in():  0x8D
Debug: 1413 1578 cortex_m3.c:1395 cortex_m3_load_core_reg_u32(): load from core reg 0  value 0x0
Debug: 1414 1578 driver.c:612 interface_swd_add_transact_in():  0xB7
Debug: 1415 1578 driver.c:612 interface_swd_add_transact_in():  0xBD
Debug: 1416 1578 driver.c:582 interface_swd_add_transact_out():  0x8B, 0x00000001
Debug: 1417 1578 driver.c:612 interface_swd_add_transact_in():  0xB7
Debug: 1418 1578 driver.c:612 interface_swd_add_transact_in():  0xBD
Debug: 1419 1578 driver.c:612 interface_swd_add_transact_in():  0x8D
Debug: 1420 1578 driver.c:582 interface_swd_add_transact_out():  0x93, 0x00000000
Debug: 1421 1578 driver.c:612 interface_swd_add_transact_in():  0x8D
Debug: 1422 1593 cortex_m3.c:1395 cortex_m3_load_core_reg_u32(): load from core reg 1  value 0x3fffff
Debug: 1423 1593 driver.c:612 interface_swd_add_transact_in():  0xB7
Debug: 1424 1593 driver.c:612 interface_swd_add_transact_in():  0xBD
Debug: 1425 1593 driver.c:582 interface_swd_add_transact_out():  0x8B, 0x00000002
Debug: 1426 1593 driver.c:612 interface_swd_add_transact_in():  0xB7
Debug: 1427 1593 driver.c:612 interface_swd_add_transact_in():  0xBD
Debug: 1428 1593 driver.c:612 interface_swd_add_transact_in():  0x8D
Debug: 1429 1593 driver.c:582 interface_swd_add_transact_out():  0x93, 0x00000000
Debug: 1430 1593 driver.c:612 interface_swd_add_transact_in():  0x8D
Debug: 1431 1593 cortex_m3.c:1395 cortex_m3_load_core_reg_u32(): load from core reg 2  value 0x0
Debug: 1432 1593 driver.c:612 interface_swd_add_transact_in():  0xB7
Debug: 1433 1593 driver.c:612 interface_swd_add_transact_in():  0xBD
Debug: 1434 1593 driver.c:582 interface_swd_add_transact_out():  0x8B, 0x00000003
Debug: 1435 1593 driver.c:612 interface_swd_add_transact_in():  0xB7
Debug: 1436 1593 driver.c:612 interface_swd_add_transact_in():  0xBD
Debug: 1437 1593 driver.c:612 interface_swd_add_transact_in():  0x8D
Debug: 1438 1609 driver.c:582 interface_swd_add_transact_out():  0x93, 0x00000000
Debug: 1439 1609 driver.c:612 interface_swd_add_transact_in():  0x8D
Debug: 1440 1609 cortex_m3.c:1395 cortex_m3_load_core_reg_u32(): load from core reg 3  value 0x40084fe0
Debug: 1441 1609 driver.c:612 interface_swd_add_transact_in():  0xB7
Debug: 1442 1609 driver.c:612 interface_swd_add_transact_in():  0xBD
Debug: 1443 1609 driver.c:582 interface_swd_add_transact_out():  0x8B, 0x00000004
Debug: 1444 1609 driver.c:612 interface_swd_add_transact_in():  0xB7
Debug: 1445 1609 driver.c:612 interface_swd_add_transact_in():  0xBD
Debug: 1446 1609 driver.c:612 interface_swd_add_transact_in():  0x8D
Debug: 1447 1609 driver.c:582 interface_swd_add_transact_out():  0x93, 0x00000000
Debug: 1448 1609 driver.c:612 interface_swd_add_transact_in():  0x8D
Debug: 1449 1609 cortex_m3.c:1395 cortex_m3_load_core_reg_u32(): load from core reg 4  value 0x2009c000
Debug: 1450 1609 driver.c:612 interface_swd_add_transact_in():  0xB7
Debug: 1451 1609 driver.c:612 interface_swd_add_transact_in():  0xBD
Debug: 1452 1609 driver.c:582 interface_swd_add_transact_out():  0x8B, 0x00000005
Debug: 1453 1609 driver.c:612 interface_swd_add_transact_in():  0xB7
Debug: 1454 1609 driver.c:612 interface_swd_add_transact_in():  0xBD
Debug: 1455 1609 driver.c:612 interface_swd_add_transact_in():  0x8D
Debug: 1456 1625 driver.c:582 interface_swd_add_transact_out():  0x93, 0x00000000
Debug: 1457 1625 driver.c:612 interface_swd_add_transact_in():  0x8D
Debug: 1458 1625 cortex_m3.c:1395 cortex_m3_load_core_reg_u32(): load from core reg 5  value 0x2
Debug: 1459 1625 driver.c:612 interface_swd_add_transact_in():  0xB7
Debug: 1460 1625 driver.c:612 interface_swd_add_transact_in():  0xBD
Debug: 1461 1625 driver.c:582 interface_swd_add_transact_out():  0x8B, 0x00000006
Debug: 1462 1625 driver.c:612 interface_swd_add_transact_in():  0xB7
Debug: 1463 1625 driver.c:612 interface_swd_add_transact_in():  0xBD
Debug: 1464 1625 driver.c:612 interface_swd_add_transact_in():  0x8D
Debug: 1465 1625 driver.c:582 interface_swd_add_transact_out():  0x93, 0x00000000
Debug: 1466 1625 driver.c:612 interface_swd_add_transact_in():  0x8D
Debug: 1467 1640 cortex_m3.c:1395 cortex_m3_load_core_reg_u32(): load from core reg 6  value 0x40008000
Debug: 1468 1640 driver.c:612 interface_swd_add_transact_in():  0xB7
Debug: 1469 1640 driver.c:612 interface_swd_add_transact_in():  0xBD
Debug: 1470 1640 driver.c:582 interface_swd_add_transact_out():  0x8B, 0x00000007
Debug: 1471 1640 driver.c:612 interface_swd_add_transact_in():  0xB7
Debug: 1472 1640 driver.c:612 interface_swd_add_transact_in():  0xBD
Debug: 1473 1640 driver.c:612 interface_swd_add_transact_in():  0x8D
Debug: 1474 1640 driver.c:582 interface_swd_add_transact_out():  0x93, 0x00000000
Debug: 1475 1640 driver.c:612 interface_swd_add_transact_in():  0x8D
Debug: 1476 1640 cortex_m3.c:1395 cortex_m3_load_core_reg_u32(): load from core reg 7  value 0x0
Debug: 1477 1640 driver.c:612 interface_swd_add_transact_in():  0xB7
Debug: 1478 1640 driver.c:612 interface_swd_add_transact_in():  0xBD
Debug: 1479 1640 driver.c:582 interface_swd_add_transact_out():  0x8B, 0x00000008
Debug: 1480 1640 driver.c:612 interface_swd_add_transact_in():  0xB7
Debug: 1481 1640 driver.c:612 interface_swd_add_transact_in():  0xBD
Debug: 1482 1640 driver.c:612 interface_swd_add_transact_in():  0x8D
Debug: 1483 1640 driver.c:582 interface_swd_add_transact_out():  0x93, 0x00000000
Debug: 1484 1640 driver.c:612 interface_swd_add_transact_in():  0x8D
Debug: 1485 1656 cortex_m3.c:1395 cortex_m3_load_core_reg_u32(): load from core reg 8  value 0x4002c000
Debug: 1486 1656 driver.c:612 interface_swd_add_transact_in():  0xB7
Debug: 1487 1656 driver.c:612 interface_swd_add_transact_in():  0xBD
Debug: 1488 1656 driver.c:582 interface_swd_add_transact_out():  0x8B, 0x00000009
Debug: 1489 1656 driver.c:612 interface_swd_add_transact_in():  0xB7
Debug: 1490 1656 driver.c:612 interface_swd_add_transact_in():  0xBD
Debug: 1491 1656 driver.c:612 interface_swd_add_transact_in():  0x8D
Debug: 1492 1656 driver.c:582 interface_swd_add_transact_out():  0x93, 0x00000000
Debug: 1493 1656 driver.c:612 interface_swd_add_transact_in():  0x8D
Debug: 1494 1656 cortex_m3.c:1395 cortex_m3_load_core_reg_u32(): load from core reg 9  value 0x37037368
Debug: 1495 1656 driver.c:612 interface_swd_add_transact_in():  0xB7
Debug: 1496 1656 driver.c:612 interface_swd_add_transact_in():  0xBD
Debug: 1497 1656 driver.c:582 interface_swd_add_transact_out():  0x8B, 0x0000000A
Debug: 1498 1656 driver.c:612 interface_swd_add_transact_in():  0xB7
Debug: 1499 1656 driver.c:612 interface_swd_add_transact_in():  0xBD
Debug: 1500 1656 driver.c:612 interface_swd_add_transact_in():  0x8D
Debug: 1501 1656 driver.c:582 interface_swd_add_transact_out():  0x93, 0x00000000
Debug: 1502 1656 driver.c:612 interface_swd_add_transact_in():  0x8D
Debug: 1503 1671 cortex_m3.c:1395 cortex_m3_load_core_reg_u32(): load from core reg 10  value 0x3fffa7ca
Debug: 1504 1671 driver.c:612 interface_swd_add_transact_in():  0xB7
Debug: 1505 1671 driver.c:612 interface_swd_add_transact_in():  0xBD
Debug: 1506 1671 driver.c:582 interface_swd_add_transact_out():  0x8B, 0x0000000B
Debug: 1507 1671 driver.c:612 interface_swd_add_transact_in():  0xB7
Debug: 1508 1671 driver.c:612 interface_swd_add_transact_in():  0xBD
Debug: 1509 1671 driver.c:612 interface_swd_add_transact_in():  0x8D
Debug: 1510 1671 driver.c:582 interface_swd_add_transact_out():  0x93, 0x00000000
Debug: 1511 1671 driver.c:612 interface_swd_add_transact_in():  0x8D
Debug: 1512 1671 cortex_m3.c:1395 cortex_m3_load_core_reg_u32(): load from core reg 11  value 0xf59f28df
Debug: 1513 1671 driver.c:612 interface_swd_add_transact_in():  0xB7
Debug: 1514 1671 driver.c:612 interface_swd_add_transact_in():  0xBD
Debug: 1515 1671 driver.c:582 interface_swd_add_transact_out():  0x8B, 0x0000000C
Debug: 1516 1671 driver.c:612 interface_swd_add_transact_in():  0xB7
Debug: 1517 1671 driver.c:612 interface_swd_add_transact_in():  0xBD
Debug: 1518 1671 driver.c:612 interface_swd_add_transact_in():  0x8D
Debug: 1519 1687 driver.c:582 interface_swd_add_transact_out():  0x93, 0x00000000
Debug: 1520 1687 driver.c:612 interface_swd_add_transact_in():  0x8D
Debug: 1521 1687 cortex_m3.c:1395 cortex_m3_load_core_reg_u32(): load from core reg 12  value 0x490
Debug: 1522 1687 driver.c:612 interface_swd_add_transact_in():  0xB7
Debug: 1523 1687 driver.c:612 interface_swd_add_transact_in():  0xBD
Debug: 1524 1687 driver.c:582 interface_swd_add_transact_out():  0x8B, 0x0000000D
Debug: 1525 1687 driver.c:612 interface_swd_add_transact_in():  0xB7
Debug: 1526 1687 driver.c:612 interface_swd_add_transact_in():  0xBD
Debug: 1527 1687 driver.c:612 interface_swd_add_transact_in():  0x8D
Debug: 1528 1687 driver.c:582 interface_swd_add_transact_out():  0x93, 0x00000000
Debug: 1529 1687 driver.c:612 interface_swd_add_transact_in():  0x8D
Debug: 1530 1687 cortex_m3.c:1395 cortex_m3_load_core_reg_u32(): load from core reg 13  value 0x100000b4
Debug: 1531 1687 driver.c:612 interface_swd_add_transact_in():  0xB7
Debug: 1532 1687 driver.c:612 interface_swd_add_transact_in():  0xBD
Debug: 1533 1687 driver.c:582 interface_swd_add_transact_out():  0x8B, 0x0000000E
Debug: 1534 1687 driver.c:612 interface_swd_add_transact_in():  0xB7
Debug: 1535 1687 driver.c:612 interface_swd_add_transact_in():  0xBD
Debug: 1536 1687 driver.c:612 interface_swd_add_transact_in():  0x8D
Debug: 1537 1703 driver.c:582 interface_swd_add_transact_out():  0x93, 0x00000000
Debug: 1538 1703 driver.c:612 interface_swd_add_transact_in():  0x8D
Debug: 1539 1703 cortex_m3.c:1395 cortex_m3_load_core_reg_u32(): load from core reg 14  value 0x1fff167b
Debug: 1540 1703 driver.c:612 interface_swd_add_transact_in():  0xB7
Debug: 1541 1703 driver.c:612 interface_swd_add_transact_in():  0xBD
Debug: 1542 1703 driver.c:582 interface_swd_add_transact_out():  0x8B, 0x0000000F
Debug: 1543 1703 driver.c:612 interface_swd_add_transact_in():  0xB7
Debug: 1544 1703 driver.c:612 interface_swd_add_transact_in():  0xBD
Debug: 1545 1703 driver.c:612 interface_swd_add_transact_in():  0x8D
Debug: 1546 1703 driver.c:582 interface_swd_add_transact_out():  0x93, 0x00000000
Debug: 1547 1703 driver.c:612 interface_swd_add_transact_in():  0x8D
Debug: 1548 1703 cortex_m3.c:1395 cortex_m3_load_core_reg_u32(): load from core reg 15  value 0x10000004
Debug: 1549 1703 driver.c:612 interface_swd_add_transact_in():  0xB7
Debug: 1550 1703 driver.c:612 interface_swd_add_transact_in():  0xBD
Debug: 1551 1703 driver.c:582 interface_swd_add_transact_out():  0x8B, 0x00000010
Debug: 1552 1703 driver.c:612 interface_swd_add_transact_in():  0xB7
Debug: 1553 1703 driver.c:612 interface_swd_add_transact_in():  0xBD
Debug: 1554 1703 driver.c:612 interface_swd_add_transact_in():  0x8D
Debug: 1555 1718 driver.c:582 interface_swd_add_transact_out():  0x93, 0x00000000
Debug: 1556 1718 driver.c:612 interface_swd_add_transact_in():  0x8D
Debug: 1557 1718 cortex_m3.c:1395 cortex_m3_load_core_reg_u32(): load from core reg 16  value 0x61000000
Debug: 1558 1718 driver.c:612 interface_swd_add_transact_in():  0xB7
Debug: 1559 1718 driver.c:612 interface_swd_add_transact_in():  0xBD
Debug: 1560 1718 driver.c:582 interface_swd_add_transact_out():  0x8B, 0x00000011
Debug: 1561 1718 driver.c:612 interface_swd_add_transact_in():  0xB7
Debug: 1562 1718 driver.c:612 interface_swd_add_transact_in():  0xBD
Debug: 1563 1718 driver.c:612 interface_swd_add_transact_in():  0x8D
Debug: 1564 1718 driver.c:582 interface_swd_add_transact_out():  0x93, 0x00000000
Debug: 1565 1718 driver.c:612 interface_swd_add_transact_in():  0x8D
Debug: 1566 1718 cortex_m3.c:1395 cortex_m3_load_core_reg_u32(): load from core reg 17  value 0x100000b4
Debug: 1567 1718 driver.c:612 interface_swd_add_transact_in():  0xB7
Debug: 1568 1718 driver.c:612 interface_swd_add_transact_in():  0xBD
Debug: 1569 1718 driver.c:582 interface_swd_add_transact_out():  0x8B, 0x00000012
Debug: 1570 1718 driver.c:612 interface_swd_add_transact_in():  0xB7
Debug: 1571 1718 driver.c:612 interface_swd_add_transact_in():  0xBD
Debug: 1572 1718 driver.c:612 interface_swd_add_transact_in():  0x8D
Debug: 1573 1734 driver.c:582 interface_swd_add_transact_out():  0x93, 0x00000000
Debug: 1574 1734 driver.c:612 interface_swd_add_transact_in():  0x8D
Debug: 1575 1734 cortex_m3.c:1395 cortex_m3_load_core_reg_u32(): load from core reg 18  value 0x1896ec24
Debug: 1576 1734 driver.c:612 interface_swd_add_transact_in():  0xB7
Debug: 1577 1734 driver.c:612 interface_swd_add_transact_in():  0xBD
Debug: 1578 1734 driver.c:582 interface_swd_add_transact_out():  0x8B, 0x00000014
Debug: 1579 1734 driver.c:612 interface_swd_add_transact_in():  0xB7
Debug: 1580 1734 driver.c:612 interface_swd_add_transact_in():  0xBD
Debug: 1581 1734 driver.c:612 interface_swd_add_transact_in():  0x8D
Debug: 1582 1734 driver.c:582 interface_swd_add_transact_out():  0x93, 0x00000000
Debug: 1583 1734 driver.c:612 interface_swd_add_transact_in():  0x8D
Debug: 1584 1734 cortex_m3.c:1427 cortex_m3_load_core_reg_u32(): load from special reg 19 value 0x1
Debug: 1585 1734 driver.c:612 interface_swd_add_transact_in():  0xB7
Debug: 1586 1734 driver.c:612 interface_swd_add_transact_in():  0xBD
Debug: 1587 1734 driver.c:582 interface_swd_add_transact_out():  0x8B, 0x00000014
Debug: 1588 1734 driver.c:612 interface_swd_add_transact_in():  0xB7
Debug: 1589 1734 driver.c:612 interface_swd_add_transact_in():  0xBD
Debug: 1590 1734 driver.c:612 interface_swd_add_transact_in():  0x8D
Debug: 1591 1750 driver.c:582 interface_swd_add_transact_out():  0x93, 0x00000000
Debug: 1592 1750 driver.c:612 interface_swd_add_transact_in():  0x8D
Debug: 1593 1750 cortex_m3.c:1427 cortex_m3_load_core_reg_u32(): load from special reg 20 value 0x0
Debug: 1594 1750 driver.c:612 interface_swd_add_transact_in():  0xB7
Debug: 1595 1750 driver.c:612 interface_swd_add_transact_in():  0xBD
Debug: 1596 1750 driver.c:582 interface_swd_add_transact_out():  0x8B, 0x00000014
Debug: 1597 1750 driver.c:612 interface_swd_add_transact_in():  0xB7
Debug: 1598 1750 driver.c:612 interface_swd_add_transact_in():  0xBD
Debug: 1599 1750 driver.c:612 interface_swd_add_transact_in():  0x8D
Debug: 1600 1750 driver.c:582 interface_swd_add_transact_out():  0x93, 0x00000000
Debug: 1601 1750 driver.c:612 interface_swd_add_transact_in():  0x8D
Debug: 1602 1750 cortex_m3.c:1427 cortex_m3_load_core_reg_u32(): load from special reg 21 value 0x0
Debug: 1603 1750 driver.c:612 interface_swd_add_transact_in():  0xB7
Debug: 1604 1750 driver.c:612 interface_swd_add_transact_in():  0xBD
Debug: 1605 1750 driver.c:582 interface_swd_add_transact_out():  0x8B, 0x00000014
Debug: 1606 1750 driver.c:612 interface_swd_add_transact_in():  0xB7
Debug: 1607 1750 driver.c:612 interface_swd_add_transact_in():  0xBD
Debug: 1608 1750 driver.c:612 interface_swd_add_transact_in():  0x8D
Debug: 1609 1765 driver.c:582 interface_swd_add_transact_out():  0x93, 0x00000000
Debug: 1610 1765 driver.c:612 interface_swd_add_transact_in():  0x8D
Debug: 1611 1765 cortex_m3.c:1427 cortex_m3_load_core_reg_u32(): load from special reg 22 value 0x0
Debug: 1612 1765 cortex_m3.c:442 cortex_m3_debug_entry(): entered debug state in core mode: Thread at PC 0x10000004, target-&gt;state: halted
Debug: 1613 1765 target.c:1018 target_call_event_callbacks(): target event 21 (debug-halted)
Debug: 1614 1765 driver.c:612 interface_swd_add_transact_in():  0xB7
Debug: 1615 1765 driver.c:612 interface_swd_add_transact_in():  0xBD
Debug: 1616 1765 driver.c:582 interface_swd_add_transact_out():  0x8B, 0x0000000F
Debug: 1617 1765 driver.c:612 interface_swd_add_transact_in():  0xB7
Debug: 1618 1765 driver.c:612 interface_swd_add_transact_in():  0xBD
Debug: 1619 1765 driver.c:612 interface_swd_add_transact_in():  0x8D
Debug: 1620 1765 driver.c:582 interface_swd_add_transact_out():  0x93, 0x00000000
Debug: 1621 1765 driver.c:612 interface_swd_add_transact_in():  0x8D
Debug: 1622 1765 cortex_m3.c:1395 cortex_m3_load_core_reg_u32(): load from core reg 15  value 0x10000004
Debug: 1623 1765 target.c:1394 target_read_buffer(): reading buffer of 20 byte at 0x10000020
Debug: 1624 1765 driver.c:582 interface_swd_add_transact_out():  0xB1, 0x00000000
Debug: 1625 1765 driver.c:582 interface_swd_add_transact_out():  0xA3, 0xA2000012
Debug: 1626 1765 driver.c:582 interface_swd_add_transact_out():  0x8B, 0x10000020
Debug: 1627 1765 driver.c:612 interface_swd_add_transact_in():  0x9F
Debug: 1628 1765 driver.c:612 interface_swd_add_transact_in():  0x9F
Debug: 1629 1765 driver.c:612 interface_swd_add_transact_in():  0x9F
Debug: 1630 1765 driver.c:612 interface_swd_add_transact_in():  0x9F
Debug: 1631 1765 driver.c:612 interface_swd_add_transact_in():  0x9F
Debug: 1632 1765 driver.c:612 interface_swd_add_transact_in():  0xBD
Debug: 1633 1765 driver.c:612 interface_swd_add_transact_in():  0x8D
Debug: 1634 1781 armv7m.c:445 armv7m_run_algorithm(): restoring register primask with value 0x00000000
Debug: 1635 1781 armv7m.c:445 armv7m_run_algorithm(): restoring register msp with value 0x10001ffc
Debug: 1636 1781 armv7m.c:445 armv7m_run_algorithm(): restoring register xPSR with value 0x01000000
Debug: 1637 1781 armv7m.c:445 armv7m_run_algorithm(): restoring register pc with value 0x1fff0080
Debug: 1638 1781 armv7m.c:445 armv7m_run_algorithm(): restoring register lr with value 0xffffffff
Debug: 1639 1781 armv7m.c:445 armv7m_run_algorithm(): restoring register sp with value 0x10001ffc
Debug: 1640 1781 armv7m.c:445 armv7m_run_algorithm(): restoring register r12 with value 0x3f1bd5a4
Debug: 1641 1781 armv7m.c:445 armv7m_run_algorithm(): restoring register r3 with value 0x40084000
Debug: 1642 1781 armv7m.c:445 armv7m_run_algorithm(): restoring register r2 with value 0x00000105
Debug: 1643 1781 armv7m.c:445 armv7m_run_algorithm(): restoring register r1 with value 0x10000124
Debug: 1644 1781 armv7m.c:445 armv7m_run_algorithm(): restoring register r0 with value 0xf0000000
Debug: 1645 1781 lpc2000.c:376 lpc2000_iap_call(): IAP command = 52 (0x00000000, 0x00000015, 0x00000fa0, 0x0022f098, 0x8a53c484) completed with result = 00000000
User : 1646 1781 command.c:543 command_print(): erased sectors 0 through 21 on flash bank 0 in 0.750000s
Debug: 1647 1781 command.c:133 script_debug(): command - ocd_command ocd_command type ocd_flash write_image C:/msys/1.0/home/LPC1700Test.hex
Debug: 1648 1781 command.c:133 script_debug(): command - ocd_flash ocd_flash write_image C:/msys/1.0/home/LPC1700Test.hex
Debug: 1650 1781 driver.c:582 interface_swd_add_transact_out():  0xA3, 0xA2000002
Debug: 1651 1781 driver.c:582 interface_swd_add_transact_out():  0x8B, 0xE000EDF0
Debug: 1652 1781 driver.c:582 interface_swd_add_transact_out():  0xB1, 0x00000010
Debug: 1653 1781 driver.c:612 interface_swd_add_transact_in():  0x87
Debug: 1654 1781 driver.c:612 interface_swd_add_transact_in():  0xBD
Debug: 1655 1781 driver.c:612 interface_swd_add_transact_in():  0x8D
Debug: 1657 1781 configuration.c:87 find_file(): found C:/msys/1.0/home/LPC1700Test.hex
Debug: 1658 1781 image.c:89 autodetect_image_type(): IHEX image detected.
Debug: 1659 1781 configuration.c:87 find_file(): found C:/msys/1.0/home/LPC1700Test.hex
Debug: 1660 1781 core.c:685 flash_write_unlock(): image_read_section: section = 0, t_section_num = 0, section_offset = 0, buffer_size = 0, size_read = 912
Debug: 1661 1781 lpc2000.c:591 lpc2000_write(): first_sector: 3, last_sector: 3
Debug: 1662 1781 target.c:1182 target_alloc_working_area_try(): allocated new working area at address 0x100000b4
Debug: 1663 1781 target.c:1312 target_write_buffer(): writing buffer of 24 byte at 0x10000008
Debug: 1664 1781 driver.c:582 interface_swd_add_transact_out():  0xB1, 0x00000000
Debug: 1665 1781 driver.c:582 interface_swd_add_transact_out():  0xA3, 0xA2000012
Debug: 1666 1781 driver.c:582 interface_swd_add_transact_out():  0x8B, 0x10000008
Debug: 1667 1781 driver.c:582 interface_swd_add_transact_out():  0xBB, 0x00000032
Debug: 1668 1781 driver.c:582 interface_swd_add_transact_out():  0xBB, 0x00000003
Debug: 1669 1781 driver.c:582 interface_swd_add_transact_out():  0xBB, 0x00000003
Debug: 1670 1781 driver.c:582 interface_swd_add_transact_out():  0xBB, 0x7C93005D
Debug: 1671 1781 driver.c:582 interface_swd_add_transact_out():  0xBB, 0x77BFC2DE
Debug: 1672 1781 driver.c:582 interface_swd_add_transact_out():  0xBB, 0x003E0000
Debug: 1673 1781 driver.c:612 interface_swd_add_transact_in():  0x8D
Debug: 1674 1796 target.c:1312 target_write_buffer(): writing buffer of 20 byte at 0x10000020
Debug: 1675 1796 driver.c:582 interface_swd_add_transact_out():  0x8B, 0x10000020
Debug: 1676 1796 driver.c:582 interface_swd_add_transact_out():  0xBB, 0x00DF0E48
Debug: 1677 1796 driver.c:582 interface_swd_add_transact_out():  0xBB, 0x00000001
Debug: 1678 1796 driver.c:582 interface_swd_add_transact_out():  0xBB, 0x00000001
Debug: 1679 1796 driver.c:582 interface_swd_add_transact_out():  0xBB, 0x00000001
Debug: 1680 1796 driver.c:582 interface_swd_add_transact_out():  0xBB, 0x00000001
Debug: 1681 1796 driver.c:612 interface_swd_add_transact_in():  0x8D
Debug: 1682 1796 armv7m.c:129 armv7m_restore_context():  
Debug: 1683 1796 driver.c:582 interface_swd_add_transact_out():  0xA3, 0xA2000002
Debug: 1684 1796 driver.c:582 interface_swd_add_transact_out():  0x8B, 0xE000EDF0
Debug: 1685 1796 driver.c:582 interface_swd_add_transact_out():  0xB1, 0x00000010
Debug: 1686 1796 driver.c:612 interface_swd_add_transact_in():  0xB7
Debug: 1687 1796 driver.c:612 interface_swd_add_transact_in():  0xBD
Debug: 1688 1796 driver.c:582 interface_swd_add_transact_out():  0x8B, 0x00000014
Debug: 1689 1796 driver.c:612 interface_swd_add_transact_in():  0xB7
Debug: 1690 1796 driver.c:612 interface_swd_add_transact_in():  0xBD
Debug: 1691 1796 driver.c:612 interface_swd_add_transact_in():  0x8D
Debug: 1692 1796 driver.c:582 interface_swd_add_transact_out():  0x93, 0x00000000
Debug: 1693 1796 driver.c:612 interface_swd_add_transact_in():  0x8D
Debug: 1694 1796 driver.c:612 interface_swd_add_transact_in():  0xB7
Debug: 1695 1796 driver.c:612 interface_swd_add_transact_in():  0xBD
Debug: 1696 1796 driver.c:582 interface_swd_add_transact_out():  0x93, 0x00000001
Debug: 1697 1796 driver.c:582 interface_swd_add_transact_out():  0x8B, 0x00010014
Debug: 1698 1796 driver.c:612 interface_swd_add_transact_in():  0x8D
Debug: 1699 1812 driver.c:582 interface_swd_add_transact_out():  0x93, 0x00000000
Debug: 1700 1812 driver.c:612 interface_swd_add_transact_in():  0x8D
Debug: 1701 1812 cortex_m3.c:1507 cortex_m3_store_core_reg_u32(): write special reg 19 value 0x1 
Debug: 1702 1812 armv7m.c:239 armv7m_write_core_reg(): write core reg 19 value 0x1
Debug: 1703 1812 driver.c:612 interface_swd_add_transact_in():  0xB7
Debug: 1704 1812 driver.c:612 interface_swd_add_transact_in():  0xBD
Debug: 1705 1812 driver.c:582 interface_swd_add_transact_out():  0x93, 0x10001FFC
Debug: 1706 1812 driver.c:582 interface_swd_add_transact_out():  0x8B, 0x00010011
Debug: 1707 1812 driver.c:612 interface_swd_add_transact_in():  0x8D
Debug: 1708 1812 driver.c:582 interface_swd_add_transact_out():  0x93, 0x00000000
Debug: 1709 1812 driver.c:612 interface_swd_add_transact_in():  0x8D
Debug: 1710 1828 cortex_m3.c:1473 cortex_m3_store_core_reg_u32(): write core reg 17 value 0x10001ffc
Debug: 1711 1828 armv7m.c:239 armv7m_write_core_reg(): write core reg 17 value 0x10001ffc
Debug: 1712 1828 driver.c:612 interface_swd_add_transact_in():  0xB7
Debug: 1713 1828 driver.c:612 interface_swd_add_transact_in():  0xBD
Debug: 1714 1828 driver.c:582 interface_swd_add_transact_out():  0x93, 0x01000000
Debug: 1715 1828 driver.c:582 interface_swd_add_transact_out():  0x8B, 0x00010010
Debug: 1716 1828 driver.c:612 interface_swd_add_transact_in():  0x8D
Debug: 1717 1828 driver.c:582 interface_swd_add_transact_out():  0x93, 0x00000000
Debug: 1718 1828 driver.c:612 interface_swd_add_transact_in():  0x8D
Debug: 1719 1828 cortex_m3.c:1473 cortex_m3_store_core_reg_u32(): write core reg 16 value 0x1000000
Debug: 1720 1828 armv7m.c:239 armv7m_write_core_reg(): write core reg 16 value 0x1000000
Debug: 1721 1828 driver.c:612 interface_swd_add_transact_in():  0xB7
Debug: 1722 1828 driver.c:612 interface_swd_add_transact_in():  0xBD
Debug: 1723 1828 driver.c:582 interface_swd_add_transact_out():  0x93, 0x10000000
Debug: 1724 1828 driver.c:582 interface_swd_add_transact_out():  0x8B, 0x0001000F
Debug: 1725 1828 driver.c:612 interface_swd_add_transact_in():  0x8D
Debug: 1726 1828 driver.c:582 interface_swd_add_transact_out():  0x93, 0x00000000
Debug: 1727 1828 driver.c:612 interface_swd_add_transact_in():  0x8D
Debug: 1728 1843 cortex_m3.c:1473 cortex_m3_store_core_reg_u32(): write core reg 15 value 0x10000000
Debug: 1729 1843 armv7m.c:239 armv7m_write_core_reg(): write core reg 15 value 0x10000000
Debug: 1730 1843 driver.c:612 interface_swd_add_transact_in():  0xB7
Debug: 1731 1843 driver.c:612 interface_swd_add_transact_in():  0xBD
Debug: 1732 1843 driver.c:582 interface_swd_add_transact_out():  0x93, 0x10000005
Debug: 1733 1843 driver.c:582 interface_swd_add_transact_out():  0x8B, 0x0001000E
Debug: 1734 1843 driver.c:612 interface_swd_add_transact_in():  0x8D
Debug: 1735 1843 driver.c:582 interface_swd_add_transact_out():  0x93, 0x00000000
Debug: 1736 1843 driver.c:612 interface_swd_add_transact_in():  0x8D
Debug: 1737 1843 cortex_m3.c:1473 cortex_m3_store_core_reg_u32(): write core reg 14 value 0x10000005
Debug: 1738 1843 armv7m.c:239 armv7m_write_core_reg(): write core reg 14 value 0x10000005
Debug: 1739 1843 driver.c:612 interface_swd_add_transact_in():  0xB7
Debug: 1740 1843 driver.c:612 interface_swd_add_transact_in():  0xBD
Debug: 1741 1843 driver.c:582 interface_swd_add_transact_out():  0x93, 0x100000B4
Debug: 1742 1843 driver.c:582 interface_swd_add_transact_out():  0x8B, 0x0001000D
Debug: 1743 1843 driver.c:612 interface_swd_add_transact_in():  0x8D
Debug: 1744 1843 driver.c:582 interface_swd_add_transact_out():  0x93, 0x00000000
Debug: 1745 1843 driver.c:612 interface_swd_add_transact_in():  0x8D
Debug: 1746 1859 cortex_m3.c:1473 cortex_m3_store_core_reg_u32(): write core reg 13 value 0x100000b4
Debug: 1747 1859 armv7m.c:239 armv7m_write_core_reg(): write core reg 13 value 0x100000b4
Debug: 1748 1859 driver.c:612 interface_swd_add_transact_in():  0xB7
Debug: 1749 1859 driver.c:612 interface_swd_add_transact_in():  0xBD
Debug: 1750 1859 driver.c:582 interface_swd_add_transact_out():  0x93, 0x1FFF1FF1
Debug: 1751 1859 driver.c:582 interface_swd_add_transact_out():  0x8B, 0x0001000C
Debug: 1752 1859 driver.c:612 interface_swd_add_transact_in():  0x8D
Debug: 1753 1859 driver.c:582 interface_swd_add_transact_out():  0x93, 0x00000000
Debug: 1754 1859 driver.c:612 interface_swd_add_transact_in():  0x8D
Debug: 1755 1859 cortex_m3.c:1473 cortex_m3_store_core_reg_u32(): write core reg 12 value 0x1fff1ff1
Debug: 1756 1859 armv7m.c:239 armv7m_write_core_reg(): write core reg 12 value 0x1fff1ff1
Debug: 1757 1859 driver.c:612 interface_swd_add_transact_in():  0xB7
Debug: 1758 1859 driver.c:612 interface_swd_add_transact_in():  0xBD
Debug: 1759 1859 driver.c:582 interface_swd_add_transact_out():  0x93, 0x40084000
Debug: 1760 1859 driver.c:582 interface_swd_add_transact_out():  0x8B, 0x00010003
Debug: 1761 1859 driver.c:612 interface_swd_add_transact_in():  0x8D
Debug: 1762 1859 driver.c:582 interface_swd_add_transact_out():  0x93, 0x00000000
Debug: 1763 1859 driver.c:612 interface_swd_add_transact_in():  0x8D
Debug: 1764 1875 cortex_m3.c:1473 cortex_m3_store_core_reg_u32(): write core reg 3 value 0x40084000
Debug: 1765 1875 armv7m.c:239 armv7m_write_core_reg(): write core reg 3 value 0x40084000
Debug: 1766 1875 driver.c:612 interface_swd_add_transact_in():  0xB7
Debug: 1767 1875 driver.c:612 interface_swd_add_transact_in():  0xBD
Debug: 1768 1875 driver.c:582 interface_swd_add_transact_out():  0x93, 0x00000105
Debug: 1769 1875 driver.c:582 interface_swd_add_transact_out():  0x8B, 0x00010002
Debug: 1770 1875 driver.c:612 interface_swd_add_transact_in():  0x8D
Debug: 1771 1875 driver.c:582 interface_swd_add_transact_out():  0x93, 0x00000000
Debug: 1772 1875 driver.c:612 interface_swd_add_transact_in():  0x8D
Debug: 1773 1875 cortex_m3.c:1473 cortex_m3_store_core_reg_u32(): write core reg 2 value 0x105
Debug: 1774 1875 armv7m.c:239 armv7m_write_core_reg(): write core reg 2 value 0x105
Debug: 1775 1875 driver.c:612 interface_swd_add_transact_in():  0xB7
Debug: 1776 1875 driver.c:612 interface_swd_add_transact_in():  0xBD
Debug: 1777 1875 driver.c:582 interface_swd_add_transact_out():  0x93, 0x10000020
Debug: 1778 1875 driver.c:582 interface_swd_add_transact_out():  0x8B, 0x00010001
Debug: 1779 1875 driver.c:612 interface_swd_add_transact_in():  0x8D
Debug: 1780 1890 driver.c:582 interface_swd_add_transact_out():  0x93, 0x00000000
Debug: 1781 1890 driver.c:612 interface_swd_add_transact_in():  0x8D
Debug: 1782 1890 cortex_m3.c:1473 cortex_m3_store_core_reg_u32(): write core reg 1 value 0x10000020
Debug: 1783 1890 armv7m.c:239 armv7m_write_core_reg(): write core reg 1 value 0x10000020
Debug: 1784 1890 driver.c:612 interface_swd_add_transact_in():  0xB7
Debug: 1785 1890 driver.c:612 interface_swd_add_transact_in():  0xBD
Debug: 1786 1890 driver.c:582 interface_swd_add_transact_out():  0x93, 0x10000008
Debug: 1787 1890 driver.c:582 interface_swd_add_transact_out():  0x8B, 0x00010000
Debug: 1788 1890 driver.c:612 interface_swd_add_transact_in():  0x8D
Debug: 1789 1890 driver.c:582 interface_swd_add_transact_out():  0x93, 0x00000000
Debug: 1790 1890 driver.c:612 interface_swd_add_transact_in():  0x8D
Debug: 1791 1890 cortex_m3.c:1473 cortex_m3_store_core_reg_u32(): write core reg 0 value 0x10000008
Debug: 1792 1890 armv7m.c:239 armv7m_write_core_reg(): write core reg 0 value 0x10000008
Debug: 1793 1890 driver.c:582 interface_swd_add_transact_out():  0xA3, 0xA05F0001
Debug: 1794 1890 driver.c:612 interface_swd_add_transact_in():  0x8D
Debug: 1795 1906 target.c:1018 target_call_event_callbacks(): target event 22 (debug-resumed)
Debug: 1796 1906 cortex_m3.c:752 cortex_m3_resume(): target debug resumed at 0x10000000
Debug: 1797 1906 driver.c:612 interface_swd_add_transact_in():  0x87
Debug: 1798 1906 driver.c:612 interface_swd_add_transact_in():  0xBD
Debug: 1799 1906 driver.c:612 interface_swd_add_transact_in():  0x8D
Debug: 1800 1906 cortex_m3.c:520 cortex_m3_poll():  
Debug: 1801 1906 cortex_m3.c:366 cortex_m3_debug_entry