<!DOCTYPE HTML PUBLIC "-//W3C//DTD HTML 4.01 Transitional//EN">
<HTML>
 <HEAD>
   <TITLE> [Openocd-development] Breakpoints do not work for LM3S6918 /	Eclipse
   </TITLE>
   <LINK REL="Index" HREF="http://lists.berlios.de/pipermail/openocd-development/2009-June/index.html" >
   <LINK REL="made" HREF="mailto:openocd-development%40lists.berlios.de?Subject=Re%3A%20%5BOpenocd-development%5D%20Breakpoints%20do%20not%20work%20for%20LM3S6918%20/%0A%09Eclipse&In-Reply-To=%3Ce01f25c60906261839l19f2b8b7kdd3051f8d833d90%40mail.gmail.com%3E">
   <META NAME="robots" CONTENT="index,nofollow">
   <style type="text/css">
       pre {
           white-space: pre-wrap;       /* css-2.1, curent FF, Opera, Safari */
           }
   </style>
   <META http-equiv="Content-Type" content="text/html; charset=us-ascii">
   <LINK REL="Previous"  HREF="008822.html">
   <LINK REL="Next"  HREF="008823.html">
 </HEAD>
 <BODY BGCOLOR="#ffffff">
   <H1>[Openocd-development] Breakpoints do not work for LM3S6918 /	Eclipse</H1>
    <B>Joseph Kuss</B> 
    <A HREF="mailto:openocd-development%40lists.berlios.de?Subject=Re%3A%20%5BOpenocd-development%5D%20Breakpoints%20do%20not%20work%20for%20LM3S6918%20/%0A%09Eclipse&In-Reply-To=%3Ce01f25c60906261839l19f2b8b7kdd3051f8d833d90%40mail.gmail.com%3E"
       TITLE="[Openocd-development] Breakpoints do not work for LM3S6918 /	Eclipse">jmk.engineer at gmail.com
       </A><BR>
    <I>Sat Jun 27 03:39:33 CEST 2009</I>
    <P><UL>
        <LI>Previous message: <A HREF="008822.html">[Openocd-development] Breakpoints do not work for LM3S6918 / Eclipse
</A></li>
        <LI>Next message: <A HREF="008823.html">[Openocd-development] Breakpoints do not work for LM3S6918 /	Eclipse
</A></li>
         <LI> <B>Messages sorted by:</B> 
              <a href="date.html#8821">[ date ]</a>
              <a href="thread.html#8821">[ thread ]</a>
              <a href="subject.html#8821">[ subject ]</a>
              <a href="author.html#8821">[ author ]</a>
         </LI>
       </UL>
    <HR>  
<!--beginarticle-->
<PRE>Gmail sent without my promised attachments.

 Please check them out.

Sincerely,
Joe


1)  June26AttemptsB1.pdf    ==&gt;&gt;&gt; Screen shots of exactly what I sent to
gdb.
2)  openocdLog26B1.txt        ==&gt;&gt;&gt; Level 3 debug trace, for communications
between gdb and openOCD.
3) ConfigFiles_June26Attempt.7z   ==&gt;&gt; All my openOCD config files for 0.1.0


On Fri, Jun 26, 2009 at 6:32 PM, Joseph Kuss &lt;<A HREF="https://lists.berlios.de/mailman/listinfo/openocd-development">jmk.engineer at gmail.com</A>&gt; wrote:

&gt;<i> Now I have completely taken Eclipse out of the picture, and am just using
</I>&gt;<i> openOCD and GDB 6.8.
</I>&gt;<i>
</I>&gt;<i> I still am stuck and no breaky points !
</I>&gt;<i>
</I>&gt;<i> I am following a template that was provided, this was helpfull but is not
</I>&gt;<i> my solution it seems.
</I>&gt;<i> //================================================
</I>&gt;<i> Joe,
</I>&gt;<i> Try adding this to your configuration file
</I>&gt;<i> #----
</I>&gt;<i> gdb_memory_map     enable
</I>&gt;<i> #----
</I>&gt;<i> This tells openocd to inform GDB where 'flash lives' - thus GDB will
</I>&gt;<i> attempt to use hardware breakpoints.
</I>&gt;<i>
</I>&gt;<i> =====
</I>&gt;<i> Specify the ELF file...
</I>&gt;<i> =====
</I>&gt;<i> (gdb) file
</I>&gt;<i> ./bin/basic-internalflash-project-at91sam3u-ek-at91sam3u4-flash.elf
</I>&gt;<i> Reading symbols from
</I>&gt;<i> /home/duane/cortex/b/basic-internalflash-project-at91sam3u-ek/basic-internalflash-project/bin/bas
</I>&gt;<i> ic-internalflash-project-at91sam3u-ek-at91sam3u4-flash.elf...done.
</I>&gt;<i> =====
</I>&gt;<i> Specify the target
</I>&gt;<i> =====
</I>&gt;<i> (gdb) target remote 192.168.0.100:3333
</I>&gt;<i> Remote debugging using 192.168.0.100:3333
</I>&gt;<i> 0x00000000 in ?? ()
</I>&gt;<i> !!!!!!!!!! in my case !!!!!!!!!!!!!!!!!!!!!!!!!!!!!!!!
</I>&gt;<i> (gdb) target remote localhost:3333
</I>&gt;<i> =====
</I>&gt;<i> Tell openocd to HALT the target
</I>&gt;<i> =====
</I>&gt;<i> (gdb) mon halt
</I>&gt;<i> =====
</I>&gt;<i> Tell openocd to RESET the target.
</I>&gt;<i> =====
</I>&gt;<i> (gdb) mon reset
</I>&gt;<i> JTAG tap: sam3.cpu tap/device found: 0x4ba00477 (mfg: 0x23b, part: 0xba00,
</I>&gt;<i> ver: 0x4)
</I>&gt;<i> JTAG Tap/device matched
</I>&gt;<i> =====
</I>&gt;<i> And i tell it to  halt again...
</I>&gt;<i> =====
</I>&gt;<i> (gdb) mon halt
</I>&gt;<i> target state: halted
</I>&gt;<i> target halted due to debug-request, current mode: Handler BusFault
</I>&gt;<i> xPSR: 0x21000005 pc: 0x000817dc
</I>&gt;<i> =====
</I>&gt;<i> Load my program - this actually programs the flash
</I>&gt;<i> =====
</I>&gt;<i> (gdb) load
</I>&gt;<i> Loading section .fixed, size 0x133c lma 0x80000
</I>&gt;<i> Loading section .relocate, size 0xf4 lma 0x8133c
</I>&gt;<i> Start address 0x811dc, load size 5168
</I>&gt;<i> Transfer rate: 4 KB/sec, 2584 bytes/write.
</I>&gt;<i> =====
</I>&gt;<i> Set a breakpoint at &quot;main()&quot;
</I>&gt;<i> =====
</I>&gt;<i> (gdb) break main
</I>&gt;<i> Breakpoint 1 at 0x800c0: file main.c, line 168.
</I>&gt;<i> =====
</I>&gt;<i> Tell GDB to continue - see the NOTE from GDB...
</I>&gt;<i> =====
</I>&gt;<i> (gdb) cont
</I>&gt;<i> Continuing.
</I>&gt;<i> Note: automatically using hardware breakpoints for read-only addresses.
</I>&gt;<i> =====
</I>&gt;<i> I hit my breakpoint..
</I>&gt;<i> =====
</I>&gt;<i> Breakpoint 1, main () at main.c:168
</I>&gt;<i> 168         TRACE_CONFIGURE(DBGU_STANDARD, 115200, BOARD_MCK);
</I>&gt;<i> (gdb)
</I>&gt;<i> =====
</I>&gt;<i> Works for me :-)
</I>&gt;<i> =====
</I>&gt;<i> //================================================
</I>&gt;<i> Does not work for me, yet anyways.
</I>&gt;<i>
</I>&gt;<i> Please check out my attachements, incuded is
</I>&gt;<i>
</I>&gt;<i> 1)  June26AttemptsB1.pdf    ==&gt;&gt;&gt; Screen shots of exactly what I sent to
</I>&gt;<i> gdb.
</I>&gt;<i> 2)  openocdLog26B1.txt        ==&gt;&gt;&gt; Level 3 debug trace, for tracking
</I>&gt;<i> communications between gdb and openOCD.
</I>&gt;<i> 3) ConfigFiles_June26Attempt.7z
</I>&gt;<i>
</I>-------------- next part --------------
An HTML attachment was scrubbed...
URL: &lt;<A HREF="https://lists.berlios.de/pipermail/openocd-development/attachments/20090626/182e7f36/attachment.html">https://lists.berlios.de/pipermail/openocd-development/attachments/20090626/182e7f36/attachment.html</A>&gt;
-------------- next part --------------
User : 10 21 command.c:494 command_run_line(): 
Debug: 11 21 configuration.c:88 find_file(): found Eagle100_jtag_tiny-setup.cfg
Debug: 13 22 command.c:91 script_command(): script_command - interface
Debug: 14 22 command.c:108 script_command(): script_command - interface, argv[0]=ocd_interface
Debug: 15 22 command.c:108 script_command(): script_command - interface, argv[1]=ft2232
Debug: 17 22 command.c:91 script_command(): script_command - ft2232_device_desc
Debug: 18 22 command.c:108 script_command(): script_command - ft2232_device_desc, argv[0]=ocd_ft2232_device_desc
Debug: 19 22 command.c:108 script_command(): script_command - ft2232_device_desc, argv[1]=Olimex OpenOCD JTAG TINY A
Debug: 21 22 command.c:91 script_command(): script_command - ft2232_layout
Debug: 22 22 command.c:108 script_command(): script_command - ft2232_layout, argv[0]=ocd_ft2232_layout
Debug: 23 22 command.c:108 script_command(): script_command - ft2232_layout, argv[1]=olimex-jtag
Debug: 25 22 command.c:91 script_command(): script_command - jtag_khz
Debug: 26 22 command.c:108 script_command(): script_command - jtag_khz, argv[0]=ocd_jtag_khz
Debug: 27 22 command.c:108 script_command(): script_command - jtag_khz, argv[1]=500
Debug: 28 22 jtag.c:2645 handle_jtag_khz_command(): handle jtag khz
User : 29 22 command.c:383 command_print(): 500 kHz
Debug: 31 23 command.c:91 script_command(): script_command - jtag_nsrst_delay
Debug: 32 23 command.c:108 script_command(): script_command - jtag_nsrst_delay, argv[0]=ocd_jtag_nsrst_delay
Debug: 33 23 command.c:108 script_command(): script_command - jtag_nsrst_delay, argv[1]=100
Debug: 35 23 command.c:91 script_command(): script_command - jtag_ntrst_delay
Debug: 36 23 command.c:108 script_command(): script_command - jtag_ntrst_delay, argv[0]=ocd_jtag_ntrst_delay
Debug: 37 23 command.c:108 script_command(): script_command - jtag_ntrst_delay, argv[1]=100
Debug: 39 23 command.c:91 script_command(): script_command - reset_config
Debug: 40 23 command.c:108 script_command(): script_command - reset_config, argv[0]=ocd_reset_config
Debug: 41 23 command.c:108 script_command(): script_command - reset_config, argv[1]=srst_only
Debug: 42 23 jtag.c:1892 jim_newtap_cmd(): Creating New Tap, Chip: lm3s6918, Tap: cpu, Dotted: lm3s6918.cpu, 8 params
Debug: 43 23 jtag.c:1911 jim_newtap_cmd(): Processing option: -irlen
Debug: 44 23 jtag.c:1911 jim_newtap_cmd(): Processing option: -ircapture
Debug: 45 23 jtag.c:1911 jim_newtap_cmd(): Processing option: -irmask
Debug: 46 23 jtag.c:1911 jim_newtap_cmd(): Processing option: -expected-id
Debug: 47 23 jtag.c:2024 jim_newtap_cmd(): Created Tap: lm3s6918.cpu @ abs position 0, irlen 4, capture: 0x1 mask: 0xf
Debug: 48 23 target.c:3911 jim_target(): Target command params:
Debug: 49 23 target.c:3912 jim_target(): target create lm3s6918.cpu cortex_m3 -endian little -chain-position lm3s6918.cpu -variant lm3s 
Debug: 51 23 command.c:91 script_command(): script_command - bank
Debug: 52 23 command.c:108 script_command(): script_command - bank, argv[0]=ocd_flash_bank
Debug: 53 23 command.c:108 script_command(): script_command - bank, argv[1]=stellaris
Debug: 54 23 command.c:108 script_command(): script_command - bank, argv[2]=0
Debug: 55 23 command.c:108 script_command(): script_command - bank, argv[3]=0
Debug: 56 23 command.c:108 script_command(): script_command - bank, argv[4]=0
Debug: 57 23 command.c:108 script_command(): script_command - bank, argv[5]=0
Debug: 58 23 command.c:108 script_command(): script_command - bank, argv[6]=0
Debug: 60 23 command.c:91 script_command(): script_command - gdb_memory_map
Debug: 61 23 command.c:108 script_command(): script_command - gdb_memory_map, argv[0]=ocd_gdb_memory_map
Debug: 62 23 command.c:108 script_command(): script_command - gdb_memory_map, argv[1]=enable
User : 63 23 command.c:494 command_run_line(): 
Debug: 64 24 configuration.c:88 find_file(): found DebugPgm.cfg
Debug: 66 24 command.c:91 script_command(): script_command - telnet_port
Debug: 67 24 command.c:108 script_command(): script_command - telnet_port, argv[0]=ocd_telnet_port
Debug: 68 24 command.c:108 script_command(): script_command - telnet_port, argv[1]=4444
Debug: 70 24 command.c:91 script_command(): script_command - gdb_port
Debug: 71 24 command.c:108 script_command(): script_command - gdb_port, argv[0]=ocd_gdb_port
Debug: 72 24 command.c:108 script_command(): script_command - gdb_port, argv[1]=3333
Debug: 74 24 command.c:91 script_command(): script_command - init
Debug: 75 24 command.c:108 script_command(): script_command - init, argv[0]=ocd_init
Debug: 76 25 openocd.c:144 handle_init_command(): target init complete
Debug: 77 25 ft2232.c:1463 ft2232_init_ftd2xx(): 'ft2232' interface using FTD2XX with 'olimex-jtag' layout (0403:6010)
Debug: 78 45 ft2232.c:1550 ft2232_init_ftd2xx(): current latency timer: 2
Debug: 79 46 ft2232.c:1966 olimex_jtag_init(): 80 08 1b
Debug: 80 47 ft2232.c:2009 olimex_jtag_init(): 82 09 0f
Debug: 81 48 ft2232.c:276 ft2232_speed(): 86 0b 00
Debug: 82 57 openocd.c:151 handle_init_command(): jtag interface init complete
Debug: 83 57 jtag.c:2240 jtag_init_inner(): Init JTAG chain
Debug: 84 57 jtag.c:434 jtag_call_event_callbacks(): jtag event: JTAG controller reset (RESET or TRST)
Debug: 85 57 jtag.c:1487 jtag_reset_callback(): -
Debug: 86 58 jtag.c:434 jtag_call_event_callbacks(): jtag event: JTAG controller reset (RESET or TRST)
Debug: 87 58 jtag.c:1487 jtag_reset_callback(): -
Info : 88 62 jtag.c:1607 jtag_examine_chain(): JTAG tap: lm3s6918.cpu tap/device found: 0x3ba00477 (Manufacturer: 0x23b, Part: 0xba00, Version: 0x3)
Info : 89 62 jtag.c:1645 jtag_examine_chain(): JTAG Tap/device matched
Debug: 90 62 jtag.c:434 jtag_call_event_callbacks(): jtag event: JTAG controller reset (RESET or TRST)
Debug: 91 62 jtag.c:1487 jtag_reset_callback(): -
Debug: 92 64 openocd.c:157 handle_init_command(): jtag init complete
Debug: 93 64 cortex_swjdp.c:968 ahbap_debugport_init():  
Debug: 94 76 cortex_swjdp.c:1012 ahbap_debugport_init(): AHB-AP ID Register 0x14770011, Debug ROM Address 0xe00ff003
Debug: 95 80 target.c:1185 target_read_u32(): address: 0xe000ed00, value: 0x411fc231
Debug: 96 80 cortex_m3.c:1395 cortex_m3_examine(): CORTEX-M3 processor detected
Debug: 97 80 cortex_m3.c:1396 cortex_m3_examine(): cpuid: 0x411fc231
Debug: 98 84 target.c:1185 target_read_u32(): address: 0xe000e004, value: 0x00000001
Debug: 99 88 target.c:1185 target_read_u32(): address: 0xe000e100, value: 0x00000000
Debug: 100 88 cortex_m3.c:1404 cortex_m3_examine(): interrupt enable[0] = 0x00000000
Debug: 101 92 target.c:1185 target_read_u32(): address: 0xe000e104, value: 0x00000000
Debug: 102 92 cortex_m3.c:1404 cortex_m3_examine(): interrupt enable[1] = 0x00000000
Debug: 103 96 target.c:1185 target_read_u32(): address: 0xe0002000, value: 0x00000261
Debug: 104 96 cortex_m3.c:1420 cortex_m3_examine(): FPB fpcr 0x261, numcode 6, numlit 2
Debug: 105 100 target.c:1185 target_read_u32(): address: 0xe0001000, value: 0x40000000
Debug: 106 100 openocd.c:160 handle_init_command(): jtag examine complete
Debug: 107 100 openocd.c:166 handle_init_command(): flash init complete
Debug: 108 100 openocd.c:170 handle_init_command(): mflash init complete
Debug: 109 100 openocd.c:174 handle_init_command(): NAND init complete
Debug: 110 100 openocd.c:178 handle_init_command(): pld init complete
Debug: 111 118 gdb_server.c:2225 gdb_init(): gdb service for target cortex_m3 at port 3333
Warn : 112 118 tcl_server.c:178 tcl_init(): no tcl port specified, using default port 6666
Debug: 114 124 command.c:91 script_command(): script_command - reset
Debug: 115 124 command.c:108 script_command(): script_command - reset, argv[0]=ocd_reset
Debug: 116 124 target.c:3911 jim_target(): Target command params:
Debug: 117 124 target.c:3912 jim_target(): target names 
Debug: 118 124 target.c:3054 target_handle_event(): event: 11 reset-start - no action
Debug: 119 124 jtag.c:2273 jtag_init_reset(): Trying to bring the JTAG controller to life by asserting TRST / RESET
Debug: 120 124 jtag.c:1176 jtag_add_reset(): SRST line released
Debug: 121 124 jtag.c:1183 jtag_add_reset(): JTAG reset with RESET instead of TRST
Debug: 122 124 jtag.c:434 jtag_call_event_callbacks(): jtag event: JTAG controller reset (RESET or TRST)
Debug: 123 124 jtag.c:1487 jtag_reset_callback(): -
Debug: 124 124 jtag.c:434 jtag_call_event_callbacks(): jtag event: JTAG controller reset (RESET or TRST)
Debug: 125 124 jtag.c:1487 jtag_reset_callback(): -
Debug: 126 124 jtag.c:1172 jtag_add_reset(): SRST line asserted
Debug: 127 124 jtag.c:1183 jtag_add_reset(): JTAG reset with RESET instead of TRST
Debug: 128 124 jtag.c:434 jtag_call_event_callbacks(): jtag event: JTAG controller reset (RESET or TRST)
Debug: 129 124 jtag.c:1487 jtag_reset_callback(): -
Debug: 130 124 jtag.c:434 jtag_call_event_callbacks(): jtag event: JTAG controller reset (RESET or TRST)
Debug: 131 124 jtag.c:1487 jtag_reset_callback(): -
Debug: 132 124 jtag.c:1172 jtag_add_reset(): SRST line asserted
Debug: 133 124 jtag.c:1176 jtag_add_reset(): SRST line released
Debug: 134 124 ft2232.c:1065 olimex_jtag_reset(): trst: 0, srst: 0, high_output: 0x01, high_direction: 0x0f
Debug: 135 225 ft2232.c:1065 olimex_jtag_reset(): trst: 0, srst: 1, high_output: 0x03, high_direction: 0x0f
Debug: 136 225 ft2232.c:1065 olimex_jtag_reset(): trst: 0, srst: 1, high_output: 0x03, high_direction: 0x0f
Debug: 137 326 ft2232.c:1065 olimex_jtag_reset(): trst: 0, srst: 0, high_output: 0x01, high_direction: 0x0f
Debug: 139 526 jtag.c:2240 jtag_init_inner(): Init JTAG chain
Debug: 140 526 jtag.c:434 jtag_call_event_callbacks(): jtag event: JTAG controller reset (RESET or TRST)
Debug: 141 526 jtag.c:1487 jtag_reset_callback(): -
Debug: 142 526 jtag.c:434 jtag_call_event_callbacks(): jtag event: JTAG controller reset (RESET or TRST)
Debug: 143 526 jtag.c:1487 jtag_reset_callback(): -
Info : 144 530 jtag.c:1607 jtag_examine_chain(): JTAG tap: lm3s6918.cpu tap/device found: 0x3ba00477 (Manufacturer: 0x23b, Part: 0xba00, Version: 0x3)
Info : 145 530 jtag.c:1645 jtag_examine_chain(): JTAG Tap/device matched
Debug: 146 530 jtag.c:434 jtag_call_event_callbacks(): jtag event: JTAG controller reset (RESET or TRST)
Debug: 147 530 jtag.c:1487 jtag_reset_callback(): -
Debug: 148 532 target.c:3911 jim_target(): Target command params:
Debug: 149 532 target.c:3912 jim_target(): target names 
Debug: 150 532 cortex_swjdp.c:968 ahbap_debugport_init():  
Debug: 151 544 cortex_swjdp.c:1012 ahbap_debugport_init(): AHB-AP ID Register 0x14770011, Debug ROM Address 0xe00ff003
Debug: 152 544 target.c:3911 jim_target(): Target command params:
Debug: 153 544 target.c:3912 jim_target(): target names 
Debug: 154 544 target.c:3054 target_handle_event(): event: 12 reset-assert-pre - no action
Debug: 155 544 cortex_m3.c:707 cortex_m3_assert_reset(): target-&gt;state: halted
Debug: 156 562 cortex_m3.c:133 cortex_m3_clear_halt():  NVIC_DFSR 0x1
Debug: 157 568 target.c:1185 target_read_u32(): address: 0x400fe000, value: 0x10010002
Debug: 158 572 cortex_m3.c:785 cortex_m3_assert_reset(): Using Luminary Reset: SYSRESETREQ
Debug: 159 576 target.c:3054 target_handle_event(): event: 13 reset-assert-post - no action
Debug: 160 576 target.c:3911 jim_target(): Target command params:
Debug: 161 576 target.c:3912 jim_target(): target names 
Debug: 162 576 target.c:3054 target_handle_event(): event: 14 reset-deassert-pre - no action
Debug: 163 576 cortex_m3.c:813 cortex_m3_deassert_reset(): target-&gt;state: reset
Debug: 164 576 jtag.c:1176 jtag_add_reset(): SRST line released
Debug: 165 576 target.c:3054 target_handle_event(): event: 15 reset-deassert-post - no action
Debug: 166 576 target.c:3911 jim_target(): Target command params:
Debug: 167 576 target.c:3912 jim_target(): target names 
Debug: 168 576 target.c:3054 target_handle_event(): event: 21 reset-end - no action
Debug: 169 627 ft2232.c:1065 olimex_jtag_reset(): trst: 0, srst: 0, high_output: 0x09, high_direction: 0x0f
Debug: 170 836 cortex_m3.c:441 cortex_m3_poll(): Exit from reset with dcb_dhcsr 0x1010001
Debug: 171 840 cortex_m3.c:208 cortex_m3_endreset_event(): DCB_DEMCR = 0x01000500
Debug: 172 848 target.c:1253 target_write_u32(): address: 0xe0002000, value: 0x00000003
Debug: 173 854 target.c:1253 target_write_u32(): address: 0xe0002008, value: 0x00000000
Debug: 174 858 target.c:1253 target_write_u32(): address: 0xe000200c, value: 0x00000000
Debug: 175 862 target.c:1253 target_write_u32(): address: 0xe0002010, value: 0x00000000
Debug: 176 868 target.c:1253 target_write_u32(): address: 0xe0002014, value: 0x00000000
Debug: 177 872 target.c:1253 target_write_u32(): address: 0xe0002018, value: 0x00000000
Debug: 178 876 target.c:1253 target_write_u32(): address: 0xe000201c, value: 0x00000000
Debug: 179 880 target.c:1253 target_write_u32(): address: 0xe0002020, value: 0x00000000
Debug: 180 884 target.c:1253 target_write_u32(): address: 0xe0002024, value: 0x00000000
Debug: 181 888 target.c:1253 target_write_u32(): address: 0xe0001020, value: 0x00000000
Debug: 182 892 target.c:1253 target_write_u32(): address: 0xe0001024, value: 0x00000000
Debug: 183 896 target.c:1253 target_write_u32(): address: 0xe0001028, value: 0x00000000
Debug: 184 900 target.c:1253 target_write_u32(): address: 0xe0001030, value: 0x00000000
Debug: 185 904 target.c:1253 target_write_u32(): address: 0xe0001034, value: 0x00000000
Debug: 186 908 target.c:1253 target_write_u32(): address: 0xe0001038, value: 0x00000000
Debug: 187 912 target.c:1253 target_write_u32(): address: 0xe0001040, value: 0x00000000
Debug: 188 916 target.c:1253 target_write_u32(): address: 0xe0001044, value: 0x00000000
Debug: 189 920 target.c:1253 target_write_u32(): address: 0xe0001048, value: 0x00000000
Debug: 190 924 target.c:1253 target_write_u32(): address: 0xe0001050, value: 0x00000000
Debug: 191 928 target.c:1253 target_write_u32(): address: 0xe0001054, value: 0x00000000
Debug: 192 932 target.c:1253 target_write_u32(): address: 0xe0001058, value: 0x00000000
Debug: 193 940 cortex_m3.c:338 cortex_m3_debug_entry():  
Debug: 194 952 cortex_m3.c:133 cortex_m3_clear_halt():  NVIC_DFSR 0x1
Debug: 195 968 cortex_m3.c:1187 cortex_m3_load_core_reg_u32(): load from core reg 0  value 0x0
Debug: 196 980 cortex_m3.c:1187 cortex_m3_load_core_reg_u32(): load from core reg 1  value 0x7a11f
Debug: 197 992 cortex_m3.c:1187 cortex_m3_load_core_reg_u32(): load from core reg 2  value 0x400243fc
Debug: 198 1004 cortex_m3.c:1187 cortex_m3_load_core_reg_u32(): load from core reg 3  value 0x2dca3
Debug: 200 1016 cortex_m3.c:1187 cortex_m3_load_core_reg_u32(): load from core reg 4  value 0x5139b80
Debug: 201 1028 cortex_m3.c:1187 cortex_m3_load_core_reg_u32(): load from core reg 5  value 0xd8070228
Debug: 202 1040 cortex_m3.c:1187 cortex_m3_load_core_reg_u32(): load from core reg 6  value 0x1b00e045
Debug: 203 1052 cortex_m3.c:1187 cortex_m3_load_core_reg_u32(): load from core reg 7  value 0x51810940
Debug: 204 1064 cortex_m3.c:1187 cortex_m3_load_core_reg_u32(): load from core reg 8  value 0xf4051988
Debug: 205 1076 cortex_m3.c:1187 cortex_m3_load_core_reg_u32(): load from core reg 9  value 0xd141d089
Debug: 206 1088 cortex_m3.c:1187 cortex_m3_load_core_reg_u32(): load from core reg 10  value 0x443de000
Debug: 207 1100 cortex_m3.c:1187 cortex_m3_load_core_reg_u32(): load from core reg 11  value 0xf9609d58
Debug: 208 1112 cortex_m3.c:1187 cortex_m3_load_core_reg_u32(): load from core reg 12  value 0x20000000
Debug: 209 1124 cortex_m3.c:1187 cortex_m3_load_core_reg_u32(): load from core reg 13  value 0x200003f0
Debug: 210 1136 cortex_m3.c:1187 cortex_m3_load_core_reg_u32(): load from core reg 14  value 0x131
Debug: 211 1148 cortex_m3.c:1187 cortex_m3_load_core_reg_u32(): load from core reg 15  value 0x1b2
Debug: 212 1160 cortex_m3.c:1187 cortex_m3_load_core_reg_u32(): load from core reg 16  value 0x81000000
Debug: 213 1172 cortex_m3.c:1187 cortex_m3_load_core_reg_u32(): load from core reg 17  value 0x200003f0
Debug: 214 1184 cortex_m3.c:1187 cortex_m3_load_core_reg_u32(): load from core reg 18  value 0x14018018
Debug: 215 1196 cortex_m3.c:1213 cortex_m3_load_core_reg_u32(): load from special reg 19 value 0x0
Debug: 216 1208 cortex_m3.c:1213 cortex_m3_load_core_reg_u32(): load from special reg 20 value 0x0
Debug: 217 1220 cortex_m3.c:1213 cortex_m3_load_core_reg_u32(): load from special reg 21 value 0x0
Debug: 218 1232 cortex_m3.c:1213 cortex_m3_load_core_reg_u32(): load from special reg 22 value 0x0
Debug: 219 1232 cortex_m3.c:400 cortex_m3_debug_entry(): entered debug state in core mode: Thread at PC 0x1b2, target-&gt;state: halted
Debug: 220 1232 target.c:696 target_call_event_callbacks(): target event 4 (early-halted)
Debug: 221 1232 target.c:3054 target_handle_event(): event: 4 early-halted - no action
Debug: 222 1232 target.c:696 target_call_event_callbacks(): target event 5 (halted)
Debug: 223 1232 target.c:3054 target_handle_event(): event: 5 halted - no action
User : 224 1232 target.c:959 target_arch_state(): target state: halted
User : 225 1232 armv7m.c:473 armv7m_arch_state(): target halted due to undefined, current mode: Thread 
xPSR: 0x81000000 pc: 0x000001b2
User : 226 1232 command.c:494 command_run_line(): 
Debug: 228 1236 command.c:91 script_command(): script_command - init
Debug: 229 1236 command.c:108 script_command(): script_command - init, argv[0]=ocd_init
User : 230 1236 command.c:494 command_run_line(): 
######### target remote localhost:3333
Info : 231 89480 server.c:89 add_connection(): accepting 'gdb' connection from 0
Debug: 232 89480 cortex_m3.c:485 cortex_m3_halt(): target-&gt;state: halted
Debug: 233 89480 cortex_m3.c:489 cortex_m3_halt(): target was already halted
Debug: 234 89487 target.c:696 target_call_event_callbacks(): target event 26 (gdb-attach)
Debug: 235 89487 target.c:3054 target_handle_event(): event: 26 gdb-attach - no action
Debug: 236 89487 target.c:3054 target_handle_event(): event: 26 gdb-attach - no action
Debug: 237 89487 gdb_server.c:2050 gdb_input_inner(): received packet: 'qSupported'
Warn : 238 89488 gdb_server.c:586 gdb_get_packet_inner(): acknowledgment received, but no packet pending
Debug: 239 89488 gdb_server.c:2050 gdb_input_inner(): received packet: '?'
User : 240 89488 gdb_server.c:100 gdb_last_signal(): undefined debug reason 6 - target needs reset
Debug: 241 89489 gdb_server.c:2050 gdb_input_inner(): received packet: 'Hc-1'
Debug: 242 89490 gdb_server.c:2050 gdb_input_inner(): received packet: 'qC'
Debug: 243 89491 gdb_server.c:2050 gdb_input_inner(): received packet: 'qOffsets'
Debug: 244 89492 gdb_server.c:2050 gdb_input_inner(): received packet: 'Hg0'
Debug: 245 89493 gdb_server.c:2050 gdb_input_inner(): received packet: 'g'
Debug: 246 89494 gdb_server.c:2050 gdb_input_inner(): received packet: 'qXfer:memory-map:read::0,fff'
Debug: 247 89500 target.c:1185 target_read_u32(): address: 0x400fe000, value: 0x10010002
Debug: 248 89505 target.c:1185 target_read_u32(): address: 0x400fe004, value: 0x10e8402d
Debug: 249 89509 target.c:1185 target_read_u32(): address: 0x400fe008, value: 0x00ff007f
Debug: 250 89513 target.c:1185 target_read_u32(): address: 0x400fe010, value: 0x000132ff
Debug: 251 89513 stellaris.c:455 stellaris_read_part_info(): did0 0x10010002, did1 0x10e8402d, dc0 0xff007f, dc1 0x132ff
Debug: 252 89517 target.c:1185 target_read_u32(): address: 0x400fe134, value: 0xffffffff
Debug: 253 89521 target.c:1185 target_read_u32(): address: 0x400fe060, value: 0x01c00380
Debug: 254 89521 stellaris.c:354 stellaris_read_clock_info(): Stellaris RCC 1c00380
Debug: 255 89525 target.c:1185 target_read_u32(): address: 0x400fe064, value: 0x00000640
Debug: 256 89525 stellaris.c:356 stellaris_read_clock_info(): Stellaris PLLCFG 640
Debug: 257 89525 stellaris.c:404 stellaris_set_flash_mode(): usecrl = 49
Debug: 258 89525 target.c:1253 target_write_u32(): address: 0x400fe140, value: 0x00000031
Debug: 259 89533 target.c:1185 target_read_u32(): address: 0x400fd008, value: 0x00000000
Debug: 260 89539 gdb_server.c:2050 gdb_input_inner(): received packet: 'm1b2,4'
Debug: 261 89539 gdb_server.c:1190 gdb_read_memory_packet(): addr: 0x000001b2, len: 0x00000004
Debug: 262 89539 target.c:1050 target_read_buffer(): reading buffer of 4 byte at 0x000001b2
Debug: 263 89561 gdb_server.c:2050 gdb_input_inner(): received packet: 'qSymbol::'
Debug: 264 202632 gdb_server.c:2050 gdb_input_inner(): received packet: 'qRcmd,68616c74'
Debug: 266 202640 command.c:91 script_command(): script_command - halt
Debug: 267 202640 command.c:108 script_command(): script_command - halt, argv[0]=ocd_halt
Debug: 268 202640 target.c:1744 handle_halt_command(): -
Debug: 269 202640 cortex_m3.c:485 cortex_m3_halt(): target-&gt;state: halted
Debug: 270 202640 cortex_m3.c:489 cortex_m3_halt(): target was already halted
User : 271 202644 command.c:494 command_run_line(): 
Debug: 272 218103 gdb_server.c:2050 gdb_input_inner(): received packet: 'qRcmd,7265736574'
Debug: 274 218111 command.c:91 script_command(): script_command - reset
Debug: 275 218111 command.c:108 script_command(): script_command - reset, argv[0]=ocd_reset
Debug: 276 218111 target.c:3911 jim_target(): Target command params:
Debug: 277 218111 target.c:3912 jim_target(): target names 
Debug: 278 218111 target.c:3054 target_handle_event(): event: 11 reset-start - no action
Debug: 279 218111 jtag.c:2273 jtag_init_reset(): Trying to bring the JTAG controller to life by asserting TRST / RESET
Debug: 280 218111 jtag.c:1176 jtag_add_reset(): SRST line released
Debug: 281 218111 jtag.c:1183 jtag_add_reset(): JTAG reset with RESET instead of TRST
Debug: 282 218111 jtag.c:434 jtag_call_event_callbacks(): jtag event: JTAG controller reset (RESET or TRST)
Debug: 283 218111 jtag.c:1487 jtag_reset_callback(): -
Debug: 284 218111 jtag.c:434 jtag_call_event_callbacks(): jtag event: JTAG controller reset (RESET or TRST)
Debug: 285 218111 jtag.c:1487 jtag_reset_callback(): -
Debug: 286 218111 jtag.c:1172 jtag_add_reset(): SRST line asserted
Debug: 287 218111 jtag.c:1183 jtag_add_reset(): JTAG reset with RESET instead of TRST
Debug: 288 218111 jtag.c:434 jtag_call_event_callbacks(): jtag event: JTAG controller reset (RESET or TRST)
Debug: 289 218111 jtag.c:1487 jtag_reset_callback(): -
Debug: 290 218111 jtag.c:434 jtag_call_event_callbacks(): jtag event: JTAG controller reset (RESET or TRST)
Debug: 291 218112 jtag.c:1487 jtag_reset_callback(): -
Debug: 292 218112 jtag.c:1172 jtag_add_reset(): SRST line asserted
Debug: 293 218112 jtag.c:1176 jtag_add_reset(): SRST line released
Debug: 294 218112 ft2232.c:1065 olimex_jtag_reset(): trst: 0, srst: 0, high_output: 0x09, high_direction: 0x0f
Debug: 295 218212 ft2232.c:1065 olimex_jtag_reset(): trst: 0, srst: 1, high_output: 0x0b, high_direction: 0x0f
Debug: 296 218212 ft2232.c:1065 olimex_jtag_reset(): trst: 0, srst: 1, high_output: 0x0b, high_direction: 0x0f
Debug: 297 218313 ft2232.c:1065 olimex_jtag_reset(): trst: 0, srst: 0, high_output: 0x09, high_direction: 0x0f
Debug: 298 218513 jtag.c:2240 jtag_init_inner(): Init JTAG chain
Debug: 299 218513 jtag.c:434 jtag_call_event_callbacks(): jtag event: JTAG controller reset (RESET or TRST)
Debug: 300 218513 jtag.c:1487 jtag_reset_callback(): -
Debug: 301 218513 jtag.c:434 jtag_call_event_callbacks(): jtag event: JTAG controller reset (RESET or TRST)
Debug: 302 218513 jtag.c:1487 jtag_reset_callback(): -
Info : 303 218516 jtag.c:1607 jtag_examine_chain(): JTAG tap: lm3s6918.cpu tap/device found: 0x3ba00477 (Manufacturer: 0x23b, Part: 0xba00, Version: 0x3)
Info : 304 218516 jtag.c:1645 jtag_examine_chain(): JTAG Tap/device matched
Debug: 305 218525 jtag.c:434 jtag_call_event_callbacks(): jtag event: JTAG controller reset (RESET or TRST)
Debug: 306 218525 jtag.c:1487 jtag_reset_callback(): -
Debug: 307 218526 target.c:3911 jim_target(): Target command params:
Debug: 308 218526 target.c:3912 jim_target(): target names 
Debug: 309 218526 cortex_swjdp.c:968 ahbap_debugport_init():  
Debug: 310 218536 cortex_swjdp.c:1012 ahbap_debugport_init(): AHB-AP ID Register 0x14770011, Debug ROM Address 0xe00ff003
Debug: 311 218536 target.c:3911 jim_target(): Target command params:
Debug: 312 218536 target.c:3912 jim_target(): target names 
Debug: 313 218536 target.c:3054 target_handle_event(): event: 12 reset-assert-pre - no action
Debug: 314 218536 cortex_m3.c:707 cortex_m3_assert_reset(): target-&gt;state: halted
Debug: 315 218552 cortex_m3.c:133 cortex_m3_clear_halt():  NVIC_DFSR 0x1
Debug: 316 218556 target.c:1185 target_read_u32(): address: 0x400fe000, value: 0x10010002
Debug: 317 218560 cortex_m3.c:785 cortex_m3_assert_reset(): Using Luminary Reset: SYSRESETREQ
Debug: 318 218564 target.c:3054 target_handle_event(): event: 13 reset-assert-post - no action
Debug: 319 218564 target.c:3911 jim_target(): Target command params:
Debug: 320 218564 target.c:3912 jim_target(): target names 
Debug: 321 218564 target.c:3054 target_handle_event(): event: 14 reset-deassert-pre - no action
Debug: 322 218564 cortex_m3.c:813 cortex_m3_deassert_reset(): target-&gt;state: reset
Debug: 323 218564 jtag.c:1176 jtag_add_reset(): SRST line released
Debug: 324 218564 target.c:3054 target_handle_event(): event: 15 reset-deassert-post - no action
Debug: 325 218564 target.c:3911 jim_target(): Target command params:
Debug: 326 218564 target.c:3912 jim_target(): target names 
Debug: 327 218564 target.c:3054 target_handle_event(): event: 21 reset-end - no action
Debug: 328 218615 ft2232.c:1065 olimex_jtag_reset(): trst: 0, srst: 0, high_output: 0x01, high_direction: 0x0f
Debug: 329 218822 cortex_m3.c:441 cortex_m3_poll(): Exit from reset with dcb_dhcsr 0x1010001
Debug: 330 218826 cortex_m3.c:208 cortex_m3_endreset_event(): DCB_DEMCR = 0x01000500
Debug: 331 218834 target.c:1253 target_write_u32(): address: 0xe0002000, value: 0x00000003
Debug: 332 218838 target.c:1253 target_write_u32(): address: 0xe0002008, value: 0x00000000
Debug: 333 218842 target.c:1253 target_write_u32(): address: 0xe000200c, value: 0x00000000
Debug: 334 218846 target.c:1253 target_write_u32(): address: 0xe0002010, value: 0x00000000
Debug: 335 218850 target.c:1253 target_write_u32(): address: 0xe0002014, value: 0x00000000
Debug: 336 218854 target.c:1253 target_write_u32(): address: 0xe0002018, value: 0x00000000
Debug: 337 218858 target.c:1253 target_write_u32(): address: 0xe000201c, value: 0x00000000
Debug: 338 218862 target.c:1253 target_write_u32(): address: 0xe0002020, value: 0x00000000
Debug: 339 218866 target.c:1253 target_write_u32(): address: 0xe0002024, value: 0x00000000
Debug: 340 218870 target.c:1253 target_write_u32(): address: 0xe0001020, value: 0x00000000
Debug: 341 218874 target.c:1253 target_write_u32(): address: 0xe0001024, value: 0x00000000
Debug: 342 218878 target.c:1253 target_write_u32(): address: 0xe0001028, value: 0x00000000
Debug: 343 218882 target.c:1253 target_write_u32(): address: 0xe0001030, value: 0x00000000
Debug: 344 218886 target.c:1253 target_write_u32(): address: 0xe0001034, value: 0x00000000
Debug: 345 218890 target.c:1253 target_write_u32(): address: 0xe0001038, value: 0x00000000
Debug: 346 218894 target.c:1253 target_write_u32(): address: 0xe0001040, value: 0x00000000
Debug: 347 218898 target.c:1253 target_write_u32(): address: 0xe0001044, value: 0x00000000
Debug: 348 218902 target.c:1253 target_write_u32(): address: 0xe0001048, value: 0x00000000
Debug: 349 218906 target.c:1253 target_write_u32(): address: 0xe0001050, value: 0x00000000
Debug: 350 218910 target.c:1253 target_write_u32(): address: 0xe0001054, value: 0x00000000
Debug: 351 218914 target.c:1253 target_write_u32(): address: 0xe0001058, value: 0x00000000
Debug: 352 218922 cortex_m3.c:338 cortex_m3_debug_entry():  
Debug: 353 218934 cortex_m3.c:133 cortex_m3_clear_halt():  NVIC_DFSR 0x1
Debug: 354 218950 cortex_m3.c:1187 cortex_m3_load_core_reg_u32(): load from core reg 0  value 0x0
Debug: 355 218962 cortex_m3.c:1187 cortex_m3_load_core_reg_u32(): load from core reg 1  value 0x7a11f
Debug: 356 218974 cortex_m3.c:1187 cortex_m3_load_core_reg_u32(): load from core reg 2  value 0x400243fc
Debug: 357 218986 cortex_m3.c:1187 cortex_m3_load_core_reg_u32(): load from core reg 3  value 0x2731d
Debug: 358 218998 cortex_m3.c:1187 cortex_m3_load_core_reg_u32(): load from core reg 4  value 0x5139b80
Debug: 359 219010 cortex_m3.c:1187 cortex_m3_load_core_reg_u32(): load from core reg 5  value 0xd8070228
Debug: 360 219022 cortex_m3.c:1187 cortex_m3_load_core_reg_u32(): load from core reg 6  value 0x1b00e045
Debug: 362 219034 cortex_m3.c:1187 cortex_m3_load_core_reg_u32(): load from core reg 7  value 0x51810940
Debug: 363 219046 cortex_m3.c:1187 cortex_m3_load_core_reg_u32(): load from core reg 8  value 0xf4051988
Debug: 364 219058 cortex_m3.c:1187 cortex_m3_load_core_reg_u32(): load from core reg 9  value 0xd141d089
Debug: 365 219070 cortex_m3.c:1187 cortex_m3_load_core_reg_u32(): load from core reg 10  value 0x443de000
Debug: 366 219082 cortex_m3.c:1187 cortex_m3_load_core_reg_u32(): load from core reg 11  value 0xf9609d58
Debug: 367 219094 cortex_m3.c:1187 cortex_m3_load_core_reg_u32(): load from core reg 12  value 0x20000000
Debug: 368 219106 cortex_m3.c:1187 cortex_m3_load_core_reg_u32(): load from core reg 13  value 0x200003f0
Debug: 369 219118 cortex_m3.c:1187 cortex_m3_load_core_reg_u32(): load from core reg 14  value 0x131
Debug: 370 219130 cortex_m3.c:1187 cortex_m3_load_core_reg_u32(): load from core reg 15  value 0x1ae
Debug: 371 219142 cortex_m3.c:1187 cortex_m3_load_core_reg_u32(): load from core reg 16  value 0x1000000
Debug: 372 219154 cortex_m3.c:1187 cortex_m3_load_core_reg_u32(): load from core reg 17  value 0x200003f0
Debug: 373 219166 cortex_m3.c:1187 cortex_m3_load_core_reg_u32(): load from core reg 18  value 0x14018018
Debug: 374 219178 cortex_m3.c:1213 cortex_m3_load_core_reg_u32(): load from special reg 19 value 0x0
Debug: 375 219190 cortex_m3.c:1213 cortex_m3_load_core_reg_u32(): load from special reg 20 value 0x0
Debug: 376 219202 cortex_m3.c:1213 cortex_m3_load_core_reg_u32(): load from special reg 21 value 0x0
Debug: 377 219214 cortex_m3.c:1213 cortex_m3_load_core_reg_u32(): load from special reg 22 value 0x0
Debug: 378 219214 cortex_m3.c:400 cortex_m3_debug_entry(): entered debug state in core mode: Thread at PC 0x1ae, target-&gt;state: halted
Debug: 379 219214 target.c:696 target_call_event_callbacks(): target event 4 (early-halted)
Debug: 380 219214 target.c:3054 target_handle_event(): event: 4 early-halted - no action
Debug: 381 219214 target.c:3054 target_handle_event(): event: 4 early-halted - no action
Debug: 382 219214 target.c:696 target_call_event_callbacks(): target event 5 (halted)
Debug: 383 219214 target.c:3054 target_handle_event(): event: 5 halted - no action
User : 384 219214 target.c:959 target_arch_state(): target state: halted
User : 385 219214 armv7m.c:473 armv7m_arch_state(): target halted due to undefined, current mode: Thread 
xPSR: 0x01000000 pc: 0x000001ae
Debug: 386 219217 target.c:3054 target_handle_event(): event: 5 halted - no action
Debug: 387 219217 target.c:696 target_call_event_callbacks(): target event 10 (gdb-end)
Debug: 388 219217 target.c:3054 target_handle_event(): event: 10 gdb-end - no action
Debug: 389 219217 target.c:3054 target_handle_event(): event: 10 gdb-end - no action
User : 390 219217 command.c:494 command_run_line(): 
Debug: 391 231882 gdb_server.c:2050 gdb_input_inner(): received packet: 'qRcmd,68616c74'
Debug: 393 231890 command.c:91 script_command(): script_command - halt
Debug: 394 231890 command.c:108 script_command(): script_command - halt, argv[0]=ocd_halt
Debug: 395 231890 target.c:1744 handle_halt_command(): -
Debug: 396 231890 cortex_m3.c:485 cortex_m3_halt(): target-&gt;state: halted
Debug: 397 231890 cortex_m3.c:489 cortex_m3_halt(): target was already halted
User : 398 231894 command.c:494 command_run_line(): 
Debug: 399 466121 gdb_server.c:2050 gdb_input_inner(): received packet: 'vCont?'
Debug: 400 466122 gdb_server.c:2050 gdb_input_inner(): received packet: 'Hc0'
########### (gdb) continue
Debug: 401 466122 gdb_server.c:2050 gdb_input_inner(): received packet: 'c'
Debug: 402 466122 target.c:696 target_call_event_callbacks(): target event 9 (gdb-start)
Debug: 403 466122 target.c:3054 target_handle_event(): event: 9 gdb-start - no action
Debug: 404 466122 target.c:3054 target_handle_event(): event: 9 gdb-start - no action
Debug: 405 466122 gdb_server.c:1349 gdb_step_continue_packet(): -
Debug: 406 466122 gdb_server.c:1363 gdb_step_continue_packet(): continue
Debug: 407 466122 target.c:3054 target_handle_event(): event: 3 old-pre_resume - no action
Debug: 408 466122 armv7m.c:134 armv7m_restore_context():  
Debug: 409 466127 target.c:696 target_call_event_callbacks(): target event 6 (resumed)
Debug: 410 466127 target.c:3054 target_handle_event(): event: 6 resumed - no action
Debug: 411 466127 target.c:3054 target_handle_event(): event: 6 resumed - no action
Debug: 412 466127 cortex_m3.c:638 cortex_m3_resume(): target resumed at 0x1ae
########### (gdb) ^C
Debug: 413 474003 gdb_server.c:2050 gdb_input_inner(): received packet: ''
Debug: 414 474003 cortex_m3.c:485 cortex_m3_halt(): target-&gt;state: running
Debug: 415 474092 cortex_m3.c:338 cortex_m3_debug_entry():  
Debug: 416 474104 cortex_m3.c:133 cortex_m3_clear_halt():  NVIC_DFSR 0x1
Debug: 417 474120 cortex_m3.c:1187 cortex_m3_load_core_reg_u32(): load from core reg 0  value 0x0
Debug: 418 474132 cortex_m3.c:1187 cortex_m3_load_core_reg_u32(): load from core reg 1  value 0x7a11f
Debug: 419 474144 cortex_m3.c:1187 cortex_m3_load_core_reg_u32(): load from core reg 2  value 0x400243fc
Debug: 420 474156 cortex_m3.c:1187 cortex_m3_load_core_reg_u32(): load from core reg 3  value 0x75111
Debug: 421 474168 cortex_m3.c:1187 cortex_m3_load_core_reg_u32(): load from core reg 4  value 0x5139b80
Debug: 422 474180 cortex_m3.c:1187 cortex_m3_load_core_reg_u32(): load from core reg 5  value 0xd8070228
Debug: 423 474192 cortex_m3.c:1187 cortex_m3_load_core_reg_u32(): load from core reg 6  value 0x1b00e045
Debug: 424 474204 cortex_m3.c:1187 cortex_m3_load_core_reg_u32(): load from core reg 7  value 0x51810940
Debug: 425 474216 cortex_m3.c:1187 cortex_m3_load_core_reg_u32(): load from core reg 8  value 0xf4051988
Debug: 426 474228 cortex_m3.c:1187 cortex_m3_load_core_reg_u32(): load from core reg 9  value 0xd141d089
Debug: 427 474240 cortex_m3.c:1187 cortex_m3_load_core_reg_u32(): load from core reg 10  value 0x443de000
Debug: 428 474252 cortex_m3.c:1187 cortex_m3_load_core_reg_u32(): load from core reg 11  value 0xf9609d58
Debug: 429 474264 cortex_m3.c:1187 cortex_m3_load_core_reg_u32(): load from core reg 12  value 0x20000000
Debug: 430 474276 cortex_m3.c:1187 cortex_m3_load_core_reg_u32(): load from core reg 13  value 0x200003f0
Debug: 431 474288 cortex_m3.c:1187 cortex_m3_load_core_reg_u32(): load from core reg 14  value 0x131
Debug: 432 474300 cortex_m3.c:1187 cortex_m3_load_core_reg_u32(): load from core reg 15  value 0x1a6
Debug: 433 474312 cortex_m3.c:1187 cortex_m3_load_core_reg_u32(): load from core reg 16  value 0x81000000
Debug: 434 474326 cortex_m3.c:1187 cortex_m3_load_core_reg_u32(): load from core reg 17  value 0x200003f0
Debug: 435 474346 cortex_m3.c:1187 cortex_m3_load_core_reg_u32(): load from core reg 18  value 0x14018018
Debug: 436 474358 cortex_m3.c:1213 cortex_m3_load_core_reg_u32(): load from special reg 19 value 0x0
Debug: 437 474370 cortex_m3.c:1213 cortex_m3_load_core_reg_u32(): load from special reg 20 value 0x0
Debug: 438 474382 cortex_m3.c:1213 cortex_m3_load_core_reg_u32(): load from special reg 21 value 0x0
Debug: 439 474400 cortex_m3.c:1213 cortex_m3_load_core_reg_u32(): load from special reg 22 value 0x0
Debug: 440 474400 cortex_m3.c:400 cortex_m3_debug_entry(): entered debug state in core mode: Thread at PC 0x1a6, target-&gt;state: halted
Debug: 441 474400 target.c:696 target_call_event_callbacks(): target event 4 (early-halted)
Debug: 442 474400 target.c:3054 target_handle_event(): event: 4 early-halted - no action
Debug: 443 474400 target.c:3054 target_handle_event(): event: 4 early-halted - no action
Debug: 444 474400 target.c:696 target_call_event_callbacks(): target event 5 (halted)
Debug: 445 474400 target.c:3054 target_handle_event(): event: 5 halted - no action
Debug: 446 474400 target.c:3054 target_handle_event(): event: 5 halted - no action
Debug: 447 474400 target.c:696 target_call_event_callbacks(): target event 10 (gdb-end)
Debug: 448 474400 target.c:3054 target_handle_event(): event: 10 gdb-end - no action
Debug: 449 474400 target.c:3054 target_handle_event(): event: 10 gdb-end - no action
Debug: 450 474400 gdb_server.c:2050 gdb_input_inner(): received packet: 'g'
Debug: 451 474414 gdb_server.c:2050 gdb_input_inner(): received packet: 'm1a6,4'
Debug: 452 474414 gdb_server.c:1190 gdb_read_memory_packet(): addr: 0x000001a6, len: 0x00000004
Debug: 453 474414 target.c:1050 target_read_buffer(): reading buffer of 4 byte at 0x000001a6

########### note did (gdb) break blinky.c:24 here but this did not generate traffic to this log file..
########### until after (gdb) continue below...
########### Ref lines 455,456,457,458

########### Restarted with (gdb) continue, this started ok... but blinky kept blinking, 
########### NO WORKY BREAKPOINTS !!!!!!!!!

########### (gdb) continue
Debug: 454 1297182 gdb_server.c:2050 gdb_input_inner(): received packet: 'Z1,196,2'
Debug: 455 1297182 gdb_server.c:1385 gdb_breakpoint_watchpoint_packet(): -
Debug: 456 1297182 target.c:1253 target_write_u32(): address: 0xe0002008, value: 0x80000195
Debug: 457 1297187 cortex_m3.c:872 cortex_m3_set_breakpoint(): fpc_num 0 fpcr_value 0x80000195
Debug: 458 1297187 breakpoints.c:93 breakpoint_add(): added hardware breakpoint at 0x00000196 of length 0x00000002

Debug: 459 1297187 gdb_server.c:2050 gdb_input_inner(): received packet: 'c'
Debug: 460 1297187 target.c:696 target_call_event_callbacks(): target event 9 (gdb-start)
Debug: 461 1297187 target.c:3054 target_handle_event(): event: 9 gdb-start - no action
Debug: 462 1297187 target.c:3054 target_handle_event(): event: 9 gdb-start - no action
Debug: 463 1297187 gdb_server.c:1349 gdb_step_continue_packet(): -
Debug: 464 1297187 gdb_server.c:1363 gdb_step_continue_packet(): continue
Debug: 465 1297187 target.c:3054 target_handle_event(): event: 3 old-pre_resume - no action
Debug: 466 1297187 armv7m.c:134 armv7m_restore_context():  
Debug: 467 1297192 target.c:696 target_call_event_callbacks(): target event 6 (resumed)
Debug: 468 1297192 target.c:3054 target_handle_event(): event: 6 resumed - no action
Debug: 469 1297192 target.c:3054 target_handle_event(): event: 6 resumed - no action
Debug: 470 1297192 cortex_m3.c:638 cortex_m3_resume(): target resumed at 0x1a7

########### (gdb) ^C Expected to stop at breakpt, but had to do ctrl C
Debug: 471 1352298 gdb_server.c:2050 gdb_input_inner(): received packet: ''
Debug: 472 1352298 cortex_m3.c:485 cortex_m3_halt(): target-&gt;state: running
Debug: 473 1352316 cortex_m3.c:338 cortex_m3_debug_entry():  
Debug: 474 1352328 cortex_m3.c:133 cortex_m3_clear_halt():  NVIC_DFSR 0x1
Debug: 475 1352364 cortex_m3.c:1187 cortex_m3_load_core_reg_u32(): load from core reg 0  value 0x0
Debug: 476 1352376 cortex_m3.c:1187 cortex_m3_load_core_reg_u32(): load from core reg 1  value 0x7a11f
Debug: 477 1352388 cortex_m3.c:1187 cortex_m3_load_core_reg_u32(): load from core reg 2  value 0x400243fc
Debug: 478 1352414 cortex_m3.c:1187 cortex_m3_load_core_reg_u32(): load from core reg 3  value 0x706e7
Debug: 479 1352426 cortex_m3.c:1187 cortex_m3_load_core_reg_u32(): load from core reg 4  value 0x5139b80
Debug: 480 1352438 cortex_m3.c:1187 cortex_m3_load_core_reg_u32(): load from core reg 5  value 0xd8070228
Debug: 481 1352450 cortex_m3.c:1187 cortex_m3_load_core_reg_u32(): load from core reg 6  value 0x1b00e045
Debug: 482 1352462 cortex_m3.c:1187 cortex_m3_load_core_reg_u32(): load from core reg 7  value 0x51810940
Debug: 483 1352474 cortex_m3.c:1187 cortex_m3_load_core_reg_u32(): load from core reg 8  value 0xf4051988
Debug: 484 1352486 cortex_m3.c:1187 cortex_m3_load_core_reg_u32(): load from core reg 9  value 0xd141d089
Debug: 485 1352498 cortex_m3.c:1187 cortex_m3_load_core_reg_u32(): load from core reg 10  value 0x443de000
Debug: 486 1352510 cortex_m3.c:1187 cortex_m3_load_core_reg_u32(): load from core reg 11  value 0xf9609d58
Debug: 487 1352522 cortex_m3.c:1187 cortex_m3_load_core_reg_u32(): load from core reg 12  value 0x20000000
Debug: 488 1352534 cortex_m3.c:1187 cortex_m3_load_core_reg_u32(): load from core reg 13  value 0x200003f0
Debug: 489 1352546 cortex_m3.c:1187 cortex_m3_load_core_reg_u32(): load from core reg 14  value 0x131
Debug: 490 1352558 cortex_m3.c:1187 cortex_m3_load_core_reg_u32(): load from core reg 15  value 0x1a6
Debug: 491 1352570 cortex_m3.c:1187 cortex_m3_load_core_reg_u32(): load from core reg 16  value 0x81000000
Debug: 492 1352582 cortex_m3.c:1187 cortex_m3_load_core_reg_u32(): load from core reg 17  value 0x200003f0
Debug: 493 1352594 cortex_m3.c:1187 cortex_m3_load_core_reg_u32(): load from core reg 18  value 0x14018018
Debug: 494 1352606 cortex_m3.c:1213 cortex_m3_load_core_reg_u32(): load from special reg 19 value 0x0
Debug: 495 1352618 cortex_m3.c:1213 cortex_m3_load_core_reg_u32(): load from special reg 20 value 0x0
Debug: 496 1352630 cortex_m3.c:1213 cortex_m3_load_core_reg_u32(): load from special reg 21 value 0x0
Debug: 497 1352642 cortex_m3.c:1213 cortex_m3_load_core_reg_u32(): load from special reg 22 value 0x0
Debug: 498 1352642 cortex_m3.c:400 cortex_m3_debug_entry(): entered debug state in core mode: Thread at PC 0x1a6, target-&gt;state: halted
Debug: 499 1352642 target.c:696 target_call_event_callbacks(): target event 4 (early-halted)
Debug: 500 1352642 target.c:3054 target_handle_event(): event: 4 early-halted - no action
Debug: 501 1352642 target.c:3054 target_handle_event(): event: 4 early-halted - no action
Debug: 502 1352642 target.c:696 target_call_event_callbacks(): target event 5 (halted)
Debug: 503 1352642 target.c:3054 target_handle_event(): event: 5 halted - no action
Debug: 504 1352642 target.c:3054 target_handle_event(): event: 5 halted - no action
Debug: 505 1352642 target.c:696 target_call_event_callbacks(): target event 10 (gdb-end)
Debug: 506 1352642 target.c:3054 target_handle_event(): event: 10 gdb-end - no action
Debug: 507 1352642 target.c:3054 target_handle_event(): event: 10 gdb-end - no action
Debug: 508 1352646 gdb_server.c:2050 gdb_input_inner(): received packet: 'g'
Debug: 509 1352651 gdb_server.c:2050 gdb_input_inner(): received packet: 'z1,196,2'
Debug: 510 1352651 gdb_server.c:1385 gdb_breakpoint_watchpoint_packet(): -
Debug: 511 1352651 target.c:1253 target_write_u32(): address: 0xe0002008, value: 0x00000000
Debug: 512 1352656 gdb_server.c:2050 gdb_input_inner(): received packet: 'm1a6,4'
Debug: 513 1352656 gdb_server.c:1190 gdb_read_memory_packet(): addr: 0x000001a6, len: 0x00000004
Debug: 514 1352656 target.c:1050 target_read_buffer(): reading buffer of 4 byte at 0x000001a6
########### (gdb)continue
Debug: 515 1627149 gdb_server.c:2050 gdb_input_inner(): received packet: 'Z1,196,2'
Debug: 516 1627149 gdb_server.c:1385 gdb_breakpoint_watchpoint_packet(): -
Debug: 517 1627149 target.c:1253 target_write_u32(): address: 0xe0002008, value: 0x80000195
Debug: 518 1627155 cortex_m3.c:872 cortex_m3_set_breakpoint(): fpc_num 0 fpcr_value 0x80000195
Debug: 519 1627155 breakpoints.c:93 breakpoint_add(): added hardware breakpoint at 0x00000196 of length 0x00000002

Debug: 520 1627155 gdb_server.c:2050 gdb_input_inner(): received packet: 'c'
Debug: 521 1627155 target.c:696 target_call_event_callbacks(): target event 9 (gdb-start)
Debug: 522 1627155 target.c:3054 target_handle_event(): event: 9 gdb-start - no action
Debug: 523 1627155 target.c:3054 target_handle_event(): event: 9 gdb-start - no action
Debug: 524 1627155 gdb_server.c:1349 gdb_step_continue_packet(): -
Debug: 525 1627155 gdb_server.c:1363 gdb_step_continue_packet(): continue
Debug: 526 1627155 target.c:3054 target_handle_event(): event: 3 old-pre_resume - no action
Debug: 527 1627156 armv7m.c:134 armv7m_restore_context():  
Debug: 528 1627161 target.c:696 target_call_event_callbacks(): target event 6 (resumed)
Debug: 529 1627161 target.c:3054 target_handle_event(): event: 6 resumed - no action
Debug: 530 1627161 target.c:3054 target_handle_event(): event: 6 resumed - no action
Debug: 531 1627161 cortex_m3.c:638 cortex_m3_resume(): target resumed at 0x1a7
########### (gdb) ^C
Debug: 532 1866965 gdb_server.c:2050 gdb_input_inner(): received packet: ''
Debug: 533 1866965 cortex_m3.c:485 cortex_m3_halt(): target-&gt;state: running
Debug: 534 1867055 cortex_m3.c:338 cortex_m3_debug_entry():  
Debug: 535 1867067 cortex_m3.c:133 cortex_m3_clear_halt():  NVIC_DFSR 0x1
Debug: 536 1867086 cortex_m3.c:1187 cortex_m3_load_core_reg_u32(): load from core reg 0  value 0x0
Debug: 537 1867098 cortex_m3.c:1187 cortex_m3_load_core_reg_u32(): load from core reg 1  value 0x7a11f
Debug: 538 1867110 cortex_m3.c:1187 cortex_m3_load_core_reg_u32(): load from core reg 2  value 0x400243fc
Debug: 539 1867126 cortex_m3.c:1187 cortex_m3_load_core_reg_u32(): load from core reg 3  value 0x6732d
Debug: 540 1867138 cortex_m3.c:1187 cortex_m3_load_core_reg_u32(): load from core reg 4  value 0x5139b80
Debug: 541 1867150 cortex_m3.c:1187 cortex_m3_load_core_reg_u32(): load from core reg 5  value 0xd8070228
Debug: 542 1867162 cortex_m3.c:1187 cortex_m3_load_core_reg_u32(): load from core reg 6  value 0x1b00e045
Debug: 543 1867174 cortex_m3.c:1187 cortex_m3_load_core_reg_u32(): load from core reg 7  value 0x51810940
Debug: 544 1867186 cortex_m3.c:1187 cortex_m3_load_core_reg_u32(): load from core reg 8  value 0xf4051988
Debug: 545 1867198 cortex_m3.c:1187 cortex_m3_load_core_reg_u32(): load from core reg 9  value 0xd141d089
Debug: 546 1867211 cortex_m3.c:1187 cortex_m3_load_core_reg_u32(): load from core reg 10  value 0x443de000
Debug: 547 1867222 cortex_m3.c:1187 cortex_m3_load_core_reg_u32(): load from core reg 11  value 0xf9609d58
Debug: 548 1867234 cortex_m3.c:1187 cortex_m3_load_core_reg_u32(): load from core reg 12  value 0x20000000
Debug: 549 1867246 cortex_m3.c:1187 cortex_m3_load_core_reg_u32(): load from core reg 13  value 0x200003f0
Debug: 550 1867258 cortex_m3.c:1187 cortex_m3_load_core_reg_u32(): load from core reg 14  value 0x131
Debug: 551 1867270 cortex_m3.c:1187 cortex_m3_load_core_reg_u32(): load from core reg 15  value 0x1ac
Debug: 552 1867286 cortex_m3.c:1187 cortex_m3_load_core_reg_u32(): load from core reg 16  value 0x1000000
Debug: 553 1867303 cortex_m3.c:1187 cortex_m3_load_core_reg_u32(): load from core reg 17  value 0x200003f0
Debug: 554 1867314 cortex_m3.c:1187 cortex_m3_load_core_reg_u32(): load from core reg 18  value 0x14018018
Debug: 555 1867329 cortex_m3.c:1213 cortex_m3_load_core_reg_u32(): load from special reg 19 value 0x0
Debug: 556 1867340 cortex_m3.c:1213 cortex_m3_load_core_reg_u32(): load from special reg 20 value 0x0
Debug: 557 1867355 cortex_m3.c:1213 cortex_m3_load_core_reg_u32(): load from special reg 21 value 0x0
Debug: 558 1867368 cortex_m3.c:1213 cortex_m3_load_core_reg_u32(): load from special reg 22 value 0x0
Debug: 559 1867368 cortex_m3.c:400 cortex_m3_debug_entry(): entered debug state in core mode: Thread at PC 0x1ac, target-&gt;state: halted
Debug: 560 1867368 target.c:696 target_call_event_callbacks(): target event 4 (early-halted)
Debug: 561 1867368 target.c:3054 target_handle_event(): event: 4 early-halted - no action
Debug: 562 1867368 target.c:3054 target_handle_event(): event: 4 early-halted - no action
Debug: 563 1867368 target.c:696 target_call_event_callbacks(): target event 5 (halted)
Debug: 564 1867368 target.c:3054 target_handle_event(): event: 5 halted - no action
Debug: 565 1867368 target.c:3054 target_handle_event(): event: 5 halted - no action
Debug: 566 1867368 target.c:696 target_call_event_callbacks(): target event 10 (gdb-end)
Debug: 567 1867368 target.c:3054 target_handle_event(): event: 10 gdb-end - no action
Debug: 568 1867368 target.c:3054 target_handle_event(): event: 10 gdb-end - no action
Debug: 569 1867368 gdb_server.c:2050 gdb_input_inner(): received packet: 'g'
Debug: 570 1867380 gdb_server.c:2050 gdb_input_inner(): received packet: 'z1,196,2'
Debug: 571 1867380 gdb_server.c:1385 gdb_breakpoint_watchpoint_packet(): -
Debug: 572 1867380 target.c:1253 target_write_u32(): address: 0xe0002008, value: 0x00000000
Debug: 573 1867384 gdb_server.c:2050 gdb_input_inner(): received packet: 'm1ac,4'
Debug: 574 1867384 gdb_server.c:1190 gdb_read_memory_packet(): addr: 0x000001ac, len: 0x00000004
Debug: 575 1867384 target.c:1050 target_read_buffer(): reading buffer of 4 byte at 0x000001ac

########## Lets try clearing all breakpoints...
########## doing (gdb) info breakpoints and (gdb) delete breakpoint 1 do not show up until do continue:
########### (gdb)continue

Debug: 576 3513127 gdb_server.c:2050 gdb_input_inner(): received packet: 'c'
Debug: 577 3513127 target.c:696 target_call_event_callbacks(): target event 9 (gdb-start)
Debug: 578 3513127 target.c:3054 target_handle_event(): event: 9 gdb-start - no action
Debug: 579 3513127 target.c:3054 target_handle_event(): event: 9 gdb-start - no action
Debug: 580 3513127 gdb_server.c:1349 gdb_step_continue_packet(): -
Debug: 581 3513127 gdb_server.c:1363 gdb_step_continue_packet(): continue
Debug: 582 3513127 target.c:3054 target_handle_event(): event: 3 old-pre_resume - no action
Debug: 583 3513127 armv7m.c:134 armv7m_restore_context():  
Debug: 584 3513132 target.c:696 target_call_event_callbacks(): target event 6 (resumed)
Debug: 585 3513132 target.c:3054 target_handle_event(): event: 6 resumed - no action
Debug: 586 3513132 target.c:3054 target_handle_event(): event: 6 resumed - no action
Debug: 587 3513132 cortex_m3.c:638 cortex_m3_resume(): target resumed at 0x1ad

##########
########## CONCLUSION: Looks like GDB was trying to send &quot;packet: 'Z1,196,2'&quot; 
##########             to setup a breakpoint, but that was not good enough to make it work !!!
########## 

########### (gdb) ^C

Debug: 588 3917748 gdb_server.c:2050 gdb_input_inner(): received packet: ''
Debug: 589 3917748 cortex_m3.c:485 cortex_m3_halt(): target-&gt;state: running
Debug: 590 3917847 cortex_m3.c:338 cortex_m3_debug_entry():  
Debug: 591 3917859 cortex_m3.c:133 cortex_m3_clear_halt():  NVIC_DFSR 0x1
Debug: 592 3917877 cortex_m3.c:1187 cortex_m3_load_core_reg_u32(): load from core reg 0  value 0x0
Debug: 593 3917889 cortex_m3.c:1187 cortex_m3_load_core_reg_u32(): load from core reg 1  value 0x7a11f
Debug: 594 3917901 cortex_m3.c:1187 cortex_m3_load_core_reg_u32(): load from core reg 2  value 0x400243fc
Debug: 595 3917913 cortex_m3.c:1187 cortex_m3_load_core_reg_u32(): load from core reg 3  value 0x742f5
Debug: 596 3917925 cortex_m3.c:1187 cortex_m3_load_core_reg_u32(): load from core reg 4  value 0x5139b80
Debug: 597 3917937 cortex_m3.c:1187 cortex_m3_load_core_reg_u32(): load from core reg 5  value 0xd8070228
Debug: 598 3917949 cortex_m3.c:1187 cortex_m3_load_core_reg_u32(): load from core reg 6  value 0x1b00e045
Debug: 599 3917961 cortex_m3.c:1187 cortex_m3_load_core_reg_u32(): load from core reg 7  value 0x51810940
Debug: 600 3917975 cortex_m3.c:1187 cortex_m3_load_core_reg_u32(): load from core reg 8  value 0xf4051988
Debug: 601 3917987 cortex_m3.c:1187 cortex_m3_load_core_reg_u32(): load from core reg 9  value 0xd141d089
Debug: 602 3917999 cortex_m3.c:1187 cortex_m3_load_core_reg_u32(): load from core reg 10  value 0x443de000
Debug: 603 3918011 cortex_m3.c:1187 cortex_m3_load_core_reg_u32(): load from core reg 11  value 0xf9609d58
Debug: 604 3918023 cortex_m3.c:1187 cortex_m3_load_core_reg_u32(): load from core reg 12  value 0x20000000
Debug: 605 3918035 cortex_m3.c:1187 cortex_m3_load_core_reg_u32(): load from core reg 13  value 0x200003f0
Debug: 606 3918047 cortex_m3.c:1187 cortex_m3_load_core_reg_u32(): load from core reg 14  value 0x131
Debug: 607 3918059 cortex_m3.c:1187 cortex_m3_load_core_reg_u32(): load from core reg 15  value 0x1ae
Debug: 608 3918073 cortex_m3.c:1187 cortex_m3_load_core_reg_u32(): load from core reg 16  value 0x1000000
Debug: 609 3918085 cortex_m3.c:1187 cortex_m3_load_core_reg_u32(): load from core reg 17  value 0x200003f0
Debug: 610 3918097 cortex_m3.c:1187 cortex_m3_load_core_reg_u32(): load from core reg 18  value 0x14018018
Debug: 611 3918109 cortex_m3.c:1213 cortex_m3_load_core_reg_u32(): load from special reg 19 value 0x0
Debug: 612 3918121 cortex_m3.c:1213 cortex_m3_load_core_reg_u32(): load from special reg 20 value 0x0
Debug: 613 3918133 cortex_m3.c:1213 cortex_m3_load_core_reg_u32(): load from special reg 21 value 0x0
Debug: 614 3918145 cortex_m3.c:1213 cortex_m3_load_core_reg_u32(): load from special reg 22 value 0x0
Debug: 615 3918145 cortex_m3.c:400 cortex_m3_debug_entry(): entered debug state in core mode: Thread at PC 0x1ae, target-&gt;state: halted
Debug: 616 3918145 target.c:696 target_call_event_callbacks(): target event 4 (early-halted)
Debug: 617 3918145 target.c:3054 target_handle_event(): event: 4 early-halted - no action
Debug: 618 3918145 target.c:3054 target_handle_event(): event: 4 early-halted - no action
Debug: 619 3918145 target.c:696 target_call_event_callbacks(): target event 5 (halted)
Debug: 620 3918145 target.c:3054 target_handle_event(): event: 5 halted - no action
Debug: 621 3918145 target.c:3054 target_handle_event(): event: 5 halted - no action
Debug: 622 3918145 target.c:696 target_call_event_callbacks(): target event 10 (gdb-end)
Debug: 623 3918145 target.c:3054 target_handle_event(): event: 10 gdb-end - no action
Debug: 624 3918146 target.c:3054 target_handle_event(): event: 10 gdb-end - no action
Debug: 625 3918151 gdb_server.c:2050 gdb_input_inner(): received packet: 'g'
Debug: 626 3918157 gdb_server.c:2050 gdb_input_inner(): received packet: 'm1ae,4'
Debug: 627 3918157 gdb_server.c:1190 gdb_read_memory_packet(): addr: 0x000001ae, len: 0x00000004
Debug: 628 3918157 target.c:1050 target_read_buffer(): reading buffer of 4 byte at 0x000001ae

##### Finally will attempt to request a hardware assisted breakpoint
##### (gdb) hbreak blinky.c:24
##### and then (gdb) continue:

Debug: 629 5711327 gdb_server.c:2050 gdb_input_inner(): received packet: 'Z1,196,2'
Debug: 630 5711327 gdb_server.c:1385 gdb_breakpoint_watchpoint_packet(): -
Debug: 631 5711327 target.c:1253 target_write_u32(): address: 0xe0002008, value: 0x80000195
Debug: 632 5711337 cortex_m3.c:872 cortex_m3_set_breakpoint(): fpc_num 0 fpcr_value 0x80000195
Debug: 633 5711337 breakpoints.c:93 breakpoint_add(): added hardware breakpoint at 0x00000196 of length 0x00000002

Debug: 634 5711338 gdb_server.c:2050 gdb_input_inner(): received packet: 'c'
Debug: 635 5711338 target.c:696 target_call_event_callbacks(): target event 9 (gdb-start)
Debug: 636 5711338 target.c:3054 target_handle_event(): event: 9 gdb-start - no action
Debug: 637 5711338 target.c:3054 target_handle_event(): event: 9 gdb-start - no action
Debug: 638 5711338 gdb_server.c:1349 gdb_step_continue_packet(): -
Debug: 639 5711338 gdb_server.c:1363 gdb_step_continue_packet(): continue
Debug: 640 5711338 target.c:3054 target_handle_event(): event: 3 old-pre_resume - no action
Debug: 641 5711338 armv7m.c:134 armv7m_restore_context():  
Debug: 642 5711345 target.c:696 target_call_event_callbacks(): target event 6 (resumed)
Debug: 643 5711345 target.c:3054 target_handle_event(): event: 6 resumed - no action
Debug: 644 5711345 target.c:3054 target_handle_event(): event: 6 resumed - no action
Debug: 645 5711345 cortex_m3.c:638 cortex_m3_resume(): target resumed at 0x1af
Debug: 646 5723358 gdb_server.c:2050 gdb_input_inner(): received packet: ''
Debug: 647 5723359 cortex_m3.c:485 cortex_m3_halt(): target-&gt;state: running
Debug: 648 5723445 cortex_m3.c:338 cortex_m3_debug_entry():  
Debug: 649 5723457 cortex_m3.c:133 cortex_m3_clear_halt():  NVIC_DFSR 0x1
Debug: 650 5723473 cortex_m3.c:1187 cortex_m3_load_core_reg_u32(): load from core reg 0  value 0x0
Debug: 651 5723485 cortex_m3.c:1187 cortex_m3_load_core_reg_u32(): load from core reg 1  value 0x7a11f
Debug: 652 5723497 cortex_m3.c:1187 cortex_m3_load_core_reg_u32(): load from core reg 2  value 0x400243fc
Debug: 653 5723509 cortex_m3.c:1187 cortex_m3_load_core_reg_u32(): load from core reg 3  value 0x1b417
Debug: 654 5723521 cortex_m3.c:1187 cortex_m3_load_core_reg_u32(): load from core reg 4  value 0x5139b80
Debug: 655 5723533 cortex_m3.c:1187 cortex_m3_load_core_reg_u32(): load from core reg 5  value 0xd8070228
Debug: 656 5723545 cortex_m3.c:1187 cortex_m3_load_core_reg_u32(): load from core reg 6  value 0x1b00e045
Debug: 657 5723557 cortex_m3.c:1187 cortex_m3_load_core_reg_u32(): load from core reg 7  value 0x51810940
Debug: 658 5723570 cortex_m3.c:1187 cortex_m3_load_core_reg_u32(): load from core reg 8  value 0xf4051988
Debug: 659 5723583 cortex_m3.c:1187 cortex_m3_load_core_reg_u32(): load from core reg 9  value 0xd141d089
Debug: 660 5723595 cortex_m3.c:1187 cortex_m3_load_core_reg_u32(): load from core reg 10  value 0x443de000
Debug: 661 5723607 cortex_m3.c:1187 cortex_m3_load_core_reg_u32(): load from core reg 11  value 0xf9609d58
Debug: 662 5723619 cortex_m3.c:1187 cortex_m3_load_core_reg_u32(): load from core reg 12  value 0x20000000
Debug: 663 5723631 cortex_m3.c:1187 cortex_m3_load_core_reg_u32(): load from core reg 13  value 0x200003f0
Debug: 664 5723643 cortex_m3.c:1187 cortex_m3_load_core_reg_u32(): load from core reg 14  value 0x131
Debug: 665 5723655 cortex_m3.c:1187 cortex_m3_load_core_reg_u32(): load from core reg 15  value 0x1ae
Debug: 666 5723667 cortex_m3.c:1187 cortex_m3_load_core_reg_u32(): load from core reg 16  value 0x1000000
Debug: 667 5723681 cortex_m3.c:1187 cortex_m3_load_core_reg_u32(): load from core reg 17  value 0x200003f0
Debug: 668 5723693 cortex_m3.c:1187 cortex_m3_load_core_reg_u32(): load from core reg 18  value 0x14018018
Debug: 669 5723705 cortex_m3.c:1213 cortex_m3_load_core_reg_u32(): load from special reg 19 value 0x0
Debug: 670 5723717 cortex_m3.c:1213 cortex_m3_load_core_reg_u32(): load from special reg 20 value 0x0
Debug: 671 5723729 cortex_m3.c:1213 cortex_m3_load_core_reg_u32(): load from special reg 21 value 0x0
Debug: 672 5723741 cortex_m3.c:1213 cortex_m3_load_core_reg_u32(): load from special reg 22 value 0x0
Debug: 673 5723741 cortex_m3.c:400 cortex_m3_debug_entry(): entered debug state in core mode: Thread at PC 0x1ae, target-&gt;state: halted
Debug: 674 5723741 target.c:696 target_call_event_callbacks(): target event 4 (early-halted)
Debug: 675 5723741 target.c:3054 target_handle_event(): event: 4 early-halted - no action
Debug: 676 5723741 target.c:3054 target_handle_event(): event: 4 early-halted - no action
Debug: 677 5723741 target.c:696 target_call_event_callbacks(): target event 5 (halted)
Debug: 678 5723741 target.c:3054 target_handle_event(): event: 5 halted - no action
Debug: 679 5723741 target.c:3054 target_handle_event(): event: 5 halted - no action
Debug: 680 5723741 target.c:696 target_call_event_callbacks(): target event 10 (gdb-end)
Debug: 681 5723741 target.c:3054 target_handle_event(): event: 10 gdb-end - no action
Debug: 682 5723741 target.c:3054 target_handle_event(): event: 10 gdb-end - no action
Debug: 683 5723747 gdb_server.c:2050 gdb_input_inner(): received packet: 'g'
Debug: 684 5723749 gdb_server.c:2050 gdb_input_inner(): received packet: 'z1,196,2'
Debug: 685 5723749 gdb_server.c:1385 gdb_breakpoint_watchpoint_packet(): -
Debug: 686 5723749 target.c:1253 target_write_u32(): address: 0xe0002008, value: 0x00000000
Debug: 687 5723755 gdb_server.c:2050 gdb_input_inner(): received packet: 'm1ae,4'
Debug: 688 5723755 gdb_server.c:1190 gdb_read_memory_packet(): addr: 0x000001ae, len: 0x00000004
Debug: 689 5723755 target.c:1050 target_read_buffer(): reading buffer of 4 byte at 0x000001ae


########## THIS HAD THE SAME AFFECT ON trafic as regualar break command ref:
Debug: 454 1297182 gdb_server.c:2050 gdb_input_inner(): received packet: 'Z1,196,2'
Debug: 455 1297182 gdb_server.c:1385 gdb_breakpoint_watchpoint_packet(): -
Debug: 456 1297182 target.c:1253 target_write_u32(): address: 0xe0002008, value: 0x80000195
Debug: 457 1297187 cortex_m3.c:872 cortex_m3_set_breakpoint(): fpc_num 0 fpcr_value 0x80000195
Debug: 458 1297187 breakpoints.c:93 breakpoint_add(): added hardware breakpoint at 0x00000196 of length 0x00000002



-------------- next part --------------
A non-text attachment was scrubbed...
Name: June26AttemptsB1.pdf
Type: application/pdf
Size: 61514 bytes
Desc: not available
URL: &lt;<A HREF="https://lists.berlios.de/pipermail/openocd-development/attachments/20090626/182e7f36/attachment.pdf">https://lists.berlios.de/pipermail/openocd-development/attachments/20090626/182e7f36/attachment.pdf</A>&gt;
-------------- next part --------------
A non-text attachment was scrubbed...
Name: ConfigFiles_June26Attempt.7z
Type: application/octet-stream
Size: 1880 bytes
Desc: not available
URL: &lt;<A HREF="https://lists.berlios.de/pipermail/openocd-development/attachments/20090626/182e7f36/attachment.obj">https://lists.berlios.de/pipermail/openocd-development/attachments/20090626/182e7f36/attachment.obj</A>&gt;
</PRE>

<!--endarticle-->
    <HR>
    <P><UL>
        <!--threads-->
	<LI>Previous message: <A HREF="008822.html">[Openocd-development] Breakpoints do not work for LM3S6918 / Eclipse
</A></li>
	<LI>Next message: <A HREF="008823.html">[Openocd-development] Breakpoints do not work for LM3S6918 /	Eclipse
</A></li>
         <LI> <B>Messages sorted by:</B> 
              <a href="date.html#8821">[ date ]</a>
              <a href="thread.html#8821">[ thread ]</a>
              <a href="subject.html#8821">[ subject ]</a>
              <a href="author.html#8821">[ author ]</a>
         </LI>
       </UL>

<hr>
<a href="https://lists.berlios.de/mailman/listinfo/openocd-development">More information about the Openocd-development
mailing list</a><br>
</body></html>
